1_Freq_Hz,1_S11_mag,1_S11_phase,1_S21_mag,1_S21_phase,1_S12_mag,1_S12_phase,1_S22_mag,1_S22_phase,2_Freq_Hz,2_S11_mag,2_S11_phase,2_S21_mag,2_S21_phase,2_S12_mag,2_S12_phase,2_S22_mag,2_S22_phase,3_Freq_Hz,3_S11_mag,3_S11_phase,3_S21_mag,3_S21_phase,3_S12_mag,3_S12_phase,3_S22_mag,3_S22_phase,4_Freq_Hz,4_S11_mag,4_S11_phase,4_S21_mag,4_S21_phase,4_S12_mag,4_S12_phase,4_S22_mag,4_S22_phase,5_Freq_Hz,5_S11_mag,5_S11_phase,5_S21_mag,5_S21_phase,5_S12_mag,5_S12_phase,5_S22_mag,5_S22_phase,6_Freq_Hz,6_S11_mag,6_S11_phase,6_S21_mag,6_S21_phase,6_S12_mag,6_S12_phase,6_S22_mag,6_S22_phase
500000000000,0.340446555709353,-172.397471654293,0.655414510934268,-82.0646387059241,0.657569358762163,-72.6391973114086,0.31943166077755,164.71062867521,500000000000,0.33692330199516,-168.474129063726,0.655682772488255,-79.9830872395083,0.657241648462807,-69.7708537753593,0.32605392705282,170.143768250669,500000000000,0.33700180786498,-171.833795480841,0.658533000544949,-83.1067819009571,0.661106741769194,-71.5482555333327,0.319294800507967,169.537808264223,500000000000,0.284895383901667,-168.643341297585,0.668504451691651,-74.0779254869054,0.671831588931177,-64.3667828942297,0.276247958730085,168.283600318894,500000000000,0.30207963165012,-167.425636489391,0.663142486735154,-75.9280245701797,0.665411572734467,-67.1985917152113,0.299481496419371,167.717789467261,500000000000,0.310266041535739,-169.524727400964,0.66294067718279,-75.1081405079673,0.665671595613559,-68.1009021684058,0.299386291470801,169.740427272185
500333333333.333,0.360838617443541,-172.491988605421,0.648264790575529,-84.282528937112,0.653086887509331,-74.5135935134407,0.3395858902682,163.638209001667,500333333333.333,0.345334785696039,-168.096972506126,0.648827942814431,-82.1722526533492,0.653170777100849,-71.7177009790075,0.34073870485309,168.349382547996,500333333333.333,0.357018552127465,-172.70318319239,0.652676005909358,-85.3130957745068,0.657532692008798,-73.6060526168693,0.335254519030524,167.482412269136,500333333333.333,0.306866480675589,-170.70734331882,0.663224774400152,-76.178956184709,0.666591734841161,-66.5197523607005,0.28643443789179,167.635340265588,500333333333.333,0.311424375037851,-168.247355555559,0.656166702198462,-77.9468598199494,0.660052152955046,-69.1303729649828,0.311692083822559,167.083666377824,500333333333.333,0.33367562249732,-171.63888326963,0.657177351572922,-77.0538019315587,0.662017700136941,-70.040017721838,0.308429253004354,167.497883533676
500666666666.667,0.3684161563861,-168.858397282824,0.64269765006461,-85.7063506293583,0.644596245067039,-76.4319019011329,0.342989759181647,164.774585914327,500666666666.667,0.348553302839459,-167.520166486781,0.643965791604268,-83.5666645416303,0.644820743044162,-73.5238629301266,0.34602145517077,169.134036573058,500666666666.667,0.372092793508772,-168.267708388239,0.648375753383219,-86.8314129313541,0.650203839072197,-75.4630553399826,0.343668429091032,168.288532747515,500666666666.667,0.326157229002612,-165.949681326668,0.657594875952501,-77.8809799507587,0.660423447477263,-68.3871909084271,0.294217735388109,167.542071273836,500666666666.667,0.320688339154437,-167.306269902374,0.651399719609941,-79.6961127678597,0.653505834302794,-71.0134389761619,0.315789590079481,167.288286733588,500666666666.667,0.354769682642573,-166.283001649729,0.652253264977373,-78.6430817765837,0.6554617474411,-71.889685801503,0.316128432850997,167.597794358746
501000000000,0.339860065977818,-166.862028042191,0.643309895309548,-87.3063449774578,0.64587458430606,-77.8960298651329,0.344838081923329,164.506228299637,501000000000,0.339618490469298,-167.390604784501,0.644744370202474,-85.3203303099336,0.648048649546623,-75.2554344188359,0.346941649163357,168.816826046301,501000000000,0.339362738152108,-165.132611724826,0.649561475152505,-88.5868288653866,0.652240764197331,-77.2757578679912,0.344404626698541,167.835594346926,501000000000,0.300921286093242,-163.957059104393,0.65804783856757,-79.6962509256099,0.660422960101355,-70.1245703890749,0.301047622652502,166.493997582532,501000000000,0.314521069929846,-167.682331968468,0.652300459137928,-81.3419900152879,0.654858278103684,-72.6296618481986,0.320855179660619,166.601644847761,501000000000,0.320573668777422,-163.110398638481,0.652894028200271,-80.3523876045083,0.655883529077665,-73.5739617011892,0.31693549890987,166.962542084637
501333333333.333,0.326231531620951,-169.454917655963,0.644819119781113,-89.6624314921321,0.647181428034403,-80.3262783896023,0.347495634522799,164.13769676591,501333333333.333,0.33725514528895,-168.191694029812,0.646296962699205,-87.5875571032447,0.64846587162359,-77.7719140927908,0.350002399888802,167.503763364777,501333333333.333,0.325229991038072,-168.60954896214,0.64966618643081,-91.0228107761219,0.652108378957828,-79.7087814921192,0.347517964909744,165.973879713245,501333333333.333,0.291470169890398,-168.097410584864,0.658737740506987,-81.9118633292505,0.660423490739279,-72.4822258504542,0.306475269758285,164.897388716028,501333333333.333,0.314659132888188,-169.258226594639,0.653897513986753,-83.6631906128194,0.654962549045731,-75.0361476029409,0.32471005304534,165.615484830533,501333333333.333,0.305317603413359,-167.321531613767,0.653853342841521,-82.633722125021,0.656489963565728,-75.8647172956134,0.321862272459506,164.694355600519
501666666666.667,0.323432460536065,-171.519695275674,0.638630050631814,-90.9169765872295,0.638889404007147,-81.7276758077885,0.336626088389019,163.537811064448,501666666666.667,0.335337918155616,-169.412838737719,0.63896586182394,-88.8892082385483,0.638923081366982,-79.2494126205344,0.343540280034848,166.70015185575,501666666666.667,0.326832412703536,-170.237983432607,0.641947373552633,-92.4026955152515,0.64225145214337,-81.2354471402121,0.342618457275126,164.915730507277,501666666666.667,0.302366061689462,-168.789913754609,0.651009905317039,-83.493335318415,0.651797566052953,-74.1198380662754,0.305456143739337,164.183342061114,501666666666.667,0.319732398436194,-170.006172646024,0.646270826097269,-85.0742962857484,0.645819238852105,-76.7105468792008,0.319195917444766,164.824802118008,501666666666.667,0.313712083658943,-168.831466138084,0.646760954889217,-84.1006318179753,0.646697777988455,-77.5279104758508,0.323305996861928,163.839764673134
502000000000,0.31982086234641,-174.786269783774,0.638871253173901,-92.1394273385173,0.63915567256296,-83.0268112963543,0.331661654643669,162.923184167763,502000000000,0.340810308425599,-172.033875159155,0.638254140998645,-90.1175017757919,0.63899547047403,-80.4280936235162,0.340210928494571,166.724038032357,502000000000,0.320905879957469,-173.158546711976,0.641046710505681,-93.4070215767401,0.641601758450562,-82.5155451000097,0.337906186454582,165.029970768471,502000000000,0.295087972928048,-170.168720440034,0.650348526780246,-84.7894977088063,0.650971359669416,-75.361414075823,0.307754923405127,164.026608730556,502000000000,0.321602984625827,-171.660046838262,0.645997002827596,-86.3226687273918,0.646136093516817,-77.9272404894688,0.320224220188977,164.444527845919,502000000000,0.304426706615809,-171.147143878232,0.646897744843625,-85.312574614703,0.646694705569906,-78.8960053330528,0.325750081326893,164.316868758132
502333333333.333,0.332383339429008,179.492508356454,0.649151041207345,-93.5984666690564,0.648619807472354,-84.6126335939842,0.33895157285115,160.306094211897,502333333333.333,0.351219331359837,-174.661938924974,0.647947048821504,-91.6184439920074,0.647664642751832,-81.9181722500502,0.345471716083486,164.513477487677,502333333333.333,0.333299103557927,179.902514206499,0.65055777009658,-94.8556026730736,0.650092585021979,-83.9393316899385,0.343290551176511,162.875568349459,502333333333.333,0.303041129248866,-177.003826806162,0.658791704669821,-86.2309007544257,0.658523847030571,-76.9343126066512,0.316182832772978,162.765618952548,502333333333.333,0.330169644353999,-174.912590797844,0.654506780098353,-87.8470831275647,0.654176610089457,-79.5821652005014,0.328747238217533,162.721753380369,502333333333.333,0.314331063180512,-178.909508913485,0.65552079686051,-86.7018104147286,0.655139678326939,-80.3895050014364,0.33361805703249,162.732405454547
502666666666.667,0.362920702475683,179.244248330206,0.654997623899216,-95.7228024839617,0.656440282300698,-86.4652879856792,0.351761531249272,158.677098725189,502666666666.667,0.362611823529377,-175.025744948152,0.653245683546773,-93.6598096632001,0.655008886794856,-83.8864024311624,0.35792718974098,163.146907403604,502666666666.667,0.369526690303352,179.176675382151,0.656467647616533,-96.7421108333782,0.656991660608683,-85.7657977294342,0.356366956354072,161.796614989447,502666666666.667,0.339024806243758,-177.958794540865,0.664867446645027,-88.3803740868887,0.665220554801704,-79.0470524778918,0.325296288727319,161.939370039674,502666666666.667,0.347503466336122,-175.243293132253,0.660338532550438,-89.9491655849622,0.66074188813639,-81.7154921407526,0.337860103862206,161.531047351395,502666666666.667,0.35522504058492,-179.554464925297,0.66118108495081,-88.7575818976689,0.661494881967062,-82.4562045733235,0.345415893227475,161.979084965581
503000000000,0.377015225282672,179.218972953176,0.654941617615822,-99.0683767508783,0.65274294688016,-90.0742865798615,0.348439381985472,155.648264972829,503000000000,0.370626439417859,-177.313844599496,0.65464024345977,-96.9582133991242,0.652547111166388,-87.307149180491,0.354143550558537,160.619491378552,503000000000,0.382302593751242,179.787529684202,0.657272458721169,-100.031693937728,0.654136664407287,-89.2160855387264,0.352229128701335,159.564948963881,503000000000,0.351722408148432,-176.383111690189,0.665664749876785,-91.7777629679496,0.664723403868201,-82.3489281254659,0.329074874858342,159.679779310643,503000000000,0.354320262506395,-176.255991860071,0.660747190105076,-93.3093473538622,0.658976447478097,-85.1097273458934,0.340568838193063,158.920241977685,503000000000,0.369685723141737,-177.879958909189,0.661269020566406,-92.0632597644215,0.660178801366423,-85.8245473212872,0.345172879320862,159.966593788295
503333333333.333,0.374849609830622,178.508803694499,0.639854906942656,-101.382885776241,0.640573951016173,-92.266166069141,0.354614484303999,154.574686475863,503333333333.333,0.370464874864033,-178.737221082453,0.640505459362547,-99.3596403511025,0.640955420894897,-89.4574074559427,0.356825772995183,159.447017842845,503333333333.333,0.373458435082169,178.840789022908,0.642749711291717,-102.376618701923,0.643399864785461,-91.3814533810281,0.355126526668702,158.418427810013,503333333333.333,0.342635943728899,-177.919064397461,0.650812298228783,-94.1564688342358,0.650515273151725,-84.8038025257105,0.330348015975437,158.190499553251,503333333333.333,0.351616948481221,-178.054749349826,0.645547916395819,-95.7010561362136,0.645530156917412,-87.3807025596973,0.342525821014633,157.455671748767,503333333333.333,0.35876408239813,-179.054327699577,0.646225517530289,-94.449900768243,0.646419542686254,-88.2317884467315,0.342679060554603,158.495215888445
503666666666.667,0.376251625229079,178.475317998773,0.627874188975301,-102.740050831423,0.626546664897223,-93.8983437621334,0.359048726014584,152.899010529927,503666666666.667,0.367994954015241,-178.943185072257,0.629291630219587,-100.680028632761,0.62881869129132,-91.127861113544,0.359467958344257,157.612134189042,503666666666.667,0.375690517891721,178.379790240638,0.63325383494554,-103.7537674408,0.631828307537364,-93.0171541667222,0.358471425352958,156.591652797379,503666666666.667,0.349920077544109,-179.009090017231,0.639344283156016,-95.5046779068745,0.639126687303658,-86.27974767201,0.333610320636312,157.267353332691,503666666666.667,0.352866065667573,-178.858184562618,0.633901015521865,-97.0818532666961,0.63393514110592,-88.8055015996354,0.345014838709847,156.37565821722,503666666666.667,0.363205475647974,-179.891284053606,0.634819831677576,-95.8997947664878,0.634424036082349,-89.6760315231446,0.343222960755477,157.035803284264
504000000000,0.370405597341713,179.600054319665,0.626068583006267,-103.297708737902,0.624741458863204,-94.8291149510445,0.364059683199656,153.847792307157,504000000000,0.36289227436117,-179.324120655676,0.627675029960669,-101.370054565047,0.626417809086498,-92.1156615073267,0.363432768280424,158.182900459888,504000000000,0.369711081102115,-179.970497547254,0.63238239676245,-104.4035399691,0.630889092193132,-94.0719651041528,0.364228496199891,156.960723937494,504000000000,0.352650235728289,-177.176704875065,0.636984119318133,-96.3809263063009,0.635788484909962,-87.2634610185847,0.340165683236817,157.198660987419,504000000000,0.35134452817605,-178.94454662839,0.63222084657633,-97.7945371817145,0.631101505893106,-89.808839649426,0.349936551004323,156.524392978766,504000000000,0.362693948264014,-177.976990134856,0.633476992878949,-96.6559588348113,0.631706788324732,-90.5755208960313,0.346340075822417,156.836607132454
504333333333.333,0.360104663481976,178.436032952683,0.635632875781822,-105.037519799168,0.63561635586039,-96.1158447405646,0.374270958763389,153.535962185921,504333333333.333,0.363198817744385,179.425464061762,0.637257528800096,-103.119473795219,0.637823747485614,-93.454932334364,0.374645663842997,157.45778079435,504333333333.333,0.356586606803359,179.381039646417,0.642080226508063,-106.199089997345,0.642061103562686,-95.4733786205885,0.375212333128066,155.793834124641,504333333333.333,0.341542882224046,-177.743913574171,0.646223012333424,-97.8356053759933,0.646448761287209,-88.705454533999,0.35061881667815,156.100516385256,504333333333.333,0.352478050432018,179.721278241437,0.641763904824063,-99.5061692296473,0.641771138919686,-91.1459906320438,0.359428685818001,155.926731865673,504333333333.333,0.348074008292221,-178.381729395084,0.642941899144544,-98.3194048551388,0.64309388513595,-91.9956731477248,0.356685472878233,155.561235135134
504666666666.667,0.352723321105143,175.187350787639,0.639399423037243,-107.44322551541,0.639466935131563,-98.6118253726374,0.375024762473214,152.309670588061,504666666666.667,0.360609157689552,177.738641343701,0.641177094227386,-105.650585567886,0.641342365785285,-96.0498232623706,0.377119849364881,155.928288418683,504666666666.667,0.347678773266995,175.878953546313,0.645184141648416,-108.629878229197,0.645242188028266,-98.1206854135123,0.377591896234932,153.985547132825,504666666666.667,0.334495905065812,178.722688432812,0.649862082097851,-100.553557512937,0.649817926958403,-91.2681185749202,0.357525324375935,154.216390543149,504666666666.667,0.351515817259477,177.650384162749,0.645644258234745,-102.015111526636,0.645621410509664,-93.7895334116363,0.36360076131581,154.275970928226,504666666666.667,0.339730620558164,177.722560243701,0.646928593160939,-100.923767151796,0.64673902031913,-94.6358835019954,0.363532362878602,153.664451573739
505000000000,0.349349813395592,173.565457324458,0.630113477265548,-109.171175061105,0.630453053209435,-100.151675264462,0.365738191599439,151.191258657621,505000000000,0.353398692947715,177.168296962715,0.631225680708822,-107.38901070694,0.632019807719982,-97.6143588013111,0.368641581003422,154.828075664528,505000000000,0.347212791934937,174.274015715292,0.63462091402291,-110.460313705139,0.634914985839089,-99.7259407321279,0.368840886667824,152.894162437088,505000000000,0.338351868728491,176.85334813096,0.639903278099532,-102.405251520123,0.639683256381246,-92.9687882158858,0.353894617007279,152.94027352586,505000000000,0.349655237906222,177.099904721363,0.636230029037361,-103.916519769438,0.636254259064076,-95.4070837920805,0.357940278101688,153.024581500038,505000000000,0.342794246510394,175.777096370809,0.637397834430662,-102.73665937402,0.637415885450761,-96.2115829037977,0.35992262731238,152.536181123221
505333333333.333,0.358042307881878,172.706219814333,0.632741054198039,-110.193049849039,0.633033552598322,-101.257425821251,0.360603208449827,149.48881601614,505333333333.333,0.359327021459696,176.471679345546,0.632858711810247,-108.309896591791,0.633972755835537,-98.5118393194543,0.364228985134032,153.389122363925,505333333333.333,0.357987927540574,173.660318471968,0.636212309052518,-111.43625291138,0.636733110470389,-100.698803887157,0.36435848157189,151.554852968316,505333333333.333,0.349708408047584,176.507047212439,0.639796733933182,-103.386528732862,0.640693331051098,-93.9787907363464,0.353937302342178,151.804063656046,505333333333.333,0.356341686719483,176.565081590576,0.637714425206217,-104.91845015248,0.637921638342289,-96.4551159352586,0.356427839832527,151.697573088742,505333333333.333,0.353713139414871,175.103313110345,0.638424467053734,-103.789632079086,0.638781968640707,-97.2649038516528,0.360046384385264,151.498084981299
505666666666.667,0.364221360964055,172.128956141065,0.643019629492898,-111.898554873468,0.643704050407304,-103.010211329646,0.356854228646393,147.437051830496,505666666666.667,0.364688265061543,175.697039762329,0.643602814841111,-110.030798513816,0.644309298041898,-100.156496153569,0.360239870788895,151.685307085491,505666666666.667,0.364707378748406,173.037787819999,0.645608102576873,-113.142033752436,0.646216177198539,-102.332524971013,0.361170993383572,150.030729706153,505666666666.667,0.354451548520661,175.815640118788,0.649659092437479,-104.950010087019,0.649766346914355,-95.6375360380621,0.353953670638929,150.428235379567,505666666666.667,0.359210774332459,175.924093804791,0.647434465539009,-106.646311215311,0.647280717376982,-98.2481420987378,0.354439128952962,150.072602574842,505666666666.667,0.359591766206579,174.605172209015,0.648544820200802,-105.391004160276,0.648791104912223,-98.9515655583594,0.358604763755818,150.278161724057
506000000000,0.371148965819422,171.790721286548,0.650081385828233,-114.297381647015,0.652926539800657,-105.582203847756,0.360054779309163,146.588400046902,506000000000,0.370113974161904,175.191295697548,0.651249182108534,-112.342562022107,0.653884606126673,-102.625535569658,0.362866102286081,151.062931059078,506000000000,0.371361509843079,172.368082474796,0.652621804021135,-115.450552758539,0.654956683938461,-104.663387695262,0.363595021472252,149.579740633315,506000000000,0.362374625192413,175.294662833321,0.657714061210846,-107.275023650531,0.658931275732915,-98.0009203881356,0.358437420232195,150.019753340486,506000000000,0.365318509143184,175.39459806609,0.655018031340399,-109.04514194219,0.656487490392011,-100.590077799892,0.359085682679243,149.522081330637,506000000000,0.366998796634965,173.986854392658,0.655744178778065,-107.870290145075,0.65744229193814,-101.470418713781,0.362339486681667,150.030487140011
506333333333.333,0.379520252929517,169.099462292845,0.649040034084471,-117.956344132924,0.652569371097361,-108.96478118496,0.365059549639934,143.519128382959,506333333333.333,0.375402345850148,172.131877396854,0.651278549112,-115.910630200905,0.653998529702792,-106.074705886528,0.367128589010336,148.181816153086,506333333333.333,0.380106623891119,169.481166389048,0.652122236972451,-118.87273504004,0.655189724522419,-108.09762703381,0.368157550393598,146.761573302181,506333333333.333,0.372341314489941,172.628925168846,0.657131352755001,-110.728036670963,0.659115613382085,-101.497106506442,0.363908983409416,147.54488366464,506333333333.333,0.373570577726452,172.505528355156,0.654712047361047,-112.634778493151,0.655843209793916,-104.005475493102,0.364476680773705,146.841594302831,506333333333.333,0.377184958035434,171.218151766982,0.65485965660891,-111.4769023472,0.657657748236713,-104.958153337654,0.367387328442835,147.280119065964
