Freq_Hz,S11_mag_Mean,S11_phase_Mean,S21_mag_Mean,S21_phase_Mean,S12_mag_Mean,S12_phase_Mean,S22_mag_Mean,S22_phase_Mean
500000000000,0.31843991220946,-169.795088531002,0.659465961535588,-78.356459728196,0.662365187771179,-68.9184340373,0.30648616765029,168.355880828671
500333333333.333,0.335679564584886,-170.707386135197,0.653103876139776,-80.467236415706,0.658002894295653,-70.9043077626352,0.320236087917726,166.917836178832
500666666666.667,0.348390399375874,-167.401285724843,0.648175769818811,-82.0316388069294,0.65076769647774,-72.7645970729009,0.326375440150169,167.43786329957
501000000000,0.325661381643784,-165.723290121568,0.648949001366974,-83.7459382672037,0.652169280533388,-74.4419019737404,0.329078282979954,166.881643842616
501333333333.333,0.316668910633829,-168.502428133218,0.649977507878033,-86.0581432111276,0.652533681071862,-76.8482830691329,0.332948343264567,165.493005954198
501666666666.667,0.320192772618669,-169.813602398711,0.642767651029766,-87.4588130673706,0.643378563130806,-78.4118523132977,0.32840205637432,164.686613596625
502000000000,0.317005254243469,-172.191801423253,0.642451300352954,-88.6606010102823,0.643235636621124,-79.6765102570664,0.327183690825954,164.596541778798
502333333333.333,0.327129469936048,-177.65636287533,0.651606434521576,-90.1246008412112,0.651687146601878,-81.2158090475439,0.334298631529078,162.657223551887
502666666666.667,0.35582401320245,-178.255343130905,0.657401238088266,-92.184744026212,0.658683777209043,-83.2111490659488,0.345671138119446,161.510320033341
503000000000,0.367437267956357,-178.18531983245,0.657987094029517,-95.518019955011,0.656543779281441,-86.6308395838178,0.344800463930263,159.065443619685
503333333333.333,0.361853688096384,-179.441784581058,0.643218358733416,-97.8881899381435,0.643953796762109,-88.9086525724772,0.346891889306274,157.758384547775
503666666666.667,0.364243276754084,179.998058658788,0.632044140038069,-99.2622324574672,0.631809311604827,-90.4527976965381,0.349671492476171,156.279560959721
504000000000,0.361548640909131,-178.982262860717,0.630484714246657,-99.9710206861847,0.629471237667627,-91.4322705433964,0.354595948527517,156.583143286728
504333333333.333,0.353568051318561,-179.885541316051,0.639931646065916,-101.657108427283,0.640504945615697,-92.8043587121706,0.365067666949274,155.725717243775
504666666666.667,0.347714295786871,177.137846743072,0.643699386151123,-104.189926623277,0.644075885515684,-95.4020556929177,0.369001102511206,154.064816261017
505000000000,0.346687657640078,175.788606980424,0.633950944229526,-105.999642132016,0.634524008923321,-97.0031188999554,0.362433109539067,152.905298346435
505333333333.333,0.355728576641999,175.163656300817,0.635333210715089,-106.995228879684,0.636253422436441,-98.0193903886578,0.359862774551229,151.574192192725
505666666666.667,0.361026024057055,174.525649333074,0.645311153592949,-108.666004880459,0.646065945706541,-99.7159040884041,0.357455907224218,149.991089352113
506000000000,0.367768193288419,173.994958988981,0.652742957832724,-111.035369296299,0.655131447922627,-102.148454142334,0.360958057040236,149.469808398118
506333333333.333,0.376239660828,171.167244959389,0.652198378380428,-114.585024588484,0.65510332996917,-105.592659106524,0.365895631387839,146.690068240982
506666666666.667,0.375545149109856,168.907708614641,0.631955808912325,-116.681559330035,0.634371751815491,-107.828412883449,0.362078599373646,144.584674894825
507000000000,0.364983994133267,167.490045995969,0.61987262223609,-117.475492654075,0.622831104311357,-108.670396866122,0.3539960948599,144.11002295066
507333333333.333,0.352093066545362,167.209105395764,0.624208637354556,-117.93474537032,0.627341607656985,-108.971035431513,0.355264074061989,145.735801958681
507666666666.667,0.353561501342515,166.502221269252,0.638725498478466,-119.668355196322,0.642627837484274,-110.613083860084,0.369318262479794,144.732770752352
508000000000,0.355159438395297,165.101067467899,0.641512151155666,-122.486244963447,0.646350147714771,-113.581720891358,0.368997853292291,141.853117519488
508333333333.333,0.347763124752822,164.922537680518,0.635021538271369,-124.028518682942,0.638769745750562,-115.141966606536,0.360180300567782,140.519272385466
508666666666.667,0.350912802283423,164.967347629591,0.641386744361254,-125.284857683331,0.645003815876769,-116.250770847038,0.35811079079127,139.256771456059
509000000000,0.350099401327533,164.749157045212,0.649827248322661,-127.329905312103,0.652660300169874,-118.694021784606,0.355111797419811,137.171843570784
509333333333.333,0.347777485077642,163.467243634632,0.656072081897141,-129.72097737425,0.65665652316602,-121.152567481528,0.351390878614526,136.155223685696
509666666666.667,0.354201985174788,159.827853448756,0.654931642410381,-132.859367787215,0.658372159650739,-124.598090683768,0.352298699587095,133.977786647587
510000000000,0.356454560546143,156.687741950505,0.63185485375465,-135.061463042652,0.633270390916074,-126.721327304629,0.336062634210137,132.216877739963
510333333333.333,0.342324597459843,154.664316165193,0.622880152335846,-135.41472005115,0.622694770848645,-127.168858967013,0.322862933371912,133.086231194848
510666666666.667,0.32134658054556,153.509777455594,0.63067717378988,-135.938925279758,0.631551859240047,-127.705974716775,0.327540342831512,134.970092535995
511000000000,0.32107944257037,154.350331963176,0.645328556200052,-137.550981405276,0.64629581792528,-129.167541115763,0.340336767659996,133.600954048711
511333333333.333,0.328966859734197,155.609551566319,0.652556188209818,-141.044273419672,0.653986659352638,-131.324188353352,0.337187930005029,129.16344389638
511666666666.667,0.314925240345616,156.202803689211,0.648101415724724,-142.300980926379,0.648312776496909,-134.436493989676,0.32139856868237,126.551668590725
512000000000,0.303226619420146,155.02153426798,0.650165804843999,-143.698115263355,0.652348171711205,-136.488149904416,0.314415786040363,126.107728264133
512333333333.333,0.3043881736264,154.018924594194,0.656561047936632,-145.858834823113,0.657493911002576,-138.268020750455,0.312030116710547,125.256000746759
512666666666.667,0.304439693085511,153.018329842494,0.661778248307683,-148.438618988814,0.662848652265892,-140.796187759379,0.311148570914944,124.345786920441
513000000000,0.298229653953741,149.955216244066,0.657118586423637,-151.980687639531,0.659700449366361,-144.137431435195,0.301918566816697,121.358955333419
513333333333.333,0.300896915354703,145.394162703161,0.638000090918521,-153.548837314892,0.638438649097867,-145.848144210236,0.271614569796617,121.93405766836
513666666666.667,0.295141541306707,143.59633876645,0.634789594965525,-153.43026436942,0.635367299777214,-146.010675767941,0.258921545303515,126.250522193468
514000000000,0.272911196732657,144.497312607053,0.648224895020537,-154.654285119391,0.648132519006549,-146.98677488799,0.267306197973033,127.780254299418
514333333333.333,0.257270913740207,146.707527719343,0.662019101049735,-156.701738766446,0.662035883905722,-149.234481418221,0.277283657546933,123.892720280806
514666666666.667,0.266542540756707,148.412631251676,0.668363991410026,-159.971405673217,0.66746904930325,-152.366298517871,0.260968060879813,117.664277978788
515000000000,0.253225747693377,148.49104374562,0.659428788829013,-162.15712528457,0.661357928611115,-154.768062953616,0.250412935312718,117.163215939058
515333333333.333,0.229640894755774,147.637635864405,0.658348238687433,-164.09915934269,0.661204940503792,-156.480643743097,0.253215148345579,117.357745997564
515666666666.667,0.229256240268374,146.336382636396,0.660937271072396,-165.857796297524,0.659757987579145,-158.373576247909,0.245598641722517,115.229772291362
516000000000,0.234417129080851,146.474263443334,0.666897996854381,-167.991244172364,0.669238844194398,-160.428398172131,0.242733013839962,116.895375919105
516333333333.333,0.22423014341985,145.170072565933,0.662259796433457,-171.275226224676,0.661926948846368,-163.740384784531,0.223197301698979,112.861637519292
516666666666.667,0.223228124575834,139.89022545024,0.646657231348216,-172.642950698,0.647026086757363,-164.870415959092,0.194558831124366,117.775077836743
517000000000,0.225490662820304,138.628876179109,0.650949057741769,-173.116316148844,0.650671046142924,-165.990670993295,0.187645428207978,125.831821592079
517333333333.333,0.200038274137014,142.033027549017,0.660278410667058,-174.77089512178,0.660102758425954,-167.380156010734,0.199863622287598,127.503344290847
517666666666.667,0.174926397144257,148.127956316946,0.671166427747457,-176.745327886034,0.671895936164814,-169.625622190806,0.201594987581534,120.977621636064
518000000000,0.182527777635212,150.136240363129,0.675502680461031,-179.610949548968,0.675322214377701,-172.712484553326,0.175534968889303,117.860586489618
518333333333.333,0.178776593701794,150.77866878543,0.669227914452323,177.855082919913,0.669035813964054,-175.225365257756,0.169424617553829,118.609787464151
518666666666.667,0.156966357719982,152.532018655944,0.663353255797866,175.999637428011,0.663715042707547,-177.077072158184,0.167668804871506,118.148054790243
519000000000,0.156644021390845,150.721520387849,0.665026810796349,174.163836926481,0.665352098526759,-179.070781360472,0.160017915241638,120.001035687098
519333333333.333,0.160628363887981,149.863816619964,0.67176870199693,172.309026312836,0.672281604019172,179.047143989609,0.15517937930931,124.381005813932
519666666666.667,0.151813547920916,152.655980490188,0.667703931349676,169.555581768247,0.667531151569531,176.004841369438,0.145997748356326,126.746130693476
520000000000,0.148738922094652,153.248588129645,0.663007460327096,167.709264201907,0.662738477816274,174.185684586695,0.135935517111464,134.141660036251
520333333333.333,0.154623686220104,153.585425675324,0.660187195925968,166.158586420846,0.660312292266233,172.494580143302,0.130338081412289,141.738448852896
520666666666.667,0.139510495596813,160.846504750514,0.661741050857982,164.500979516336,0.661831182672495,170.856035750025,0.135406509964697,140.391017301657
521000000000,0.12976685515988,171.597508915202,0.668315888481231,162.698484710773,0.668079206937818,169.001449226384,0.125972317140105,138.693050263989
521333333333.333,0.130882949274893,171.631864083412,0.672555033722136,160.081154071659,0.672259947970376,166.298882375403,0.126497498634529,142.612418797188
521666666666.667,0.134665764332795,174.236650490796,0.670439086611712,157.695679598745,0.670695677882449,163.980760300939,0.127378923641459,141.970665333961
522000000000,0.130889488038219,179.852106425714,0.66444705673913,155.390084568654,0.665056564567682,161.634974438142,0.123296891987772,143.613401834269
522333333333.333,0.131893583171348,179.261970859777,0.661996361792036,153.635317548097,0.662232893305885,160.007969676673,0.127266219785684,152.36434588578
522666666666.667,0.136863643946289,176.732496689929,0.666178119807989,151.872326505529,0.667627201781452,158.163822608535,0.13558531629748,157.554933292908
523000000000,0.143653660298721,-179.070464507885,0.664269372849388,149.435451780414,0.665597231943629,155.814557540382,0.135053946693571,161.29079329404
523333333333.333,0.151755917784822,-174.918613165299,0.663887143025112,147.402727419954,0.665305574891554,153.814365073436,0.141027377062946,166.96193224916
523666666666.667,0.156446101697884,-174.878936661707,0.661170924408526,145.112247862643,0.662428463481718,151.604141068335,0.14817109033791,169.548107240513
524000000000,0.157533253663783,-169.353241504619,0.656431617696768,143.346253333496,0.656492581999821,149.821466065309,0.152874637614518,169.748763587983
524333333333.333,0.167840841184683,-162.647155043892,0.660337115523761,141.57121057433,0.659767404552304,147.998083125873,0.15528998476522,170.068938430256
524666666666.667,0.1678630470338,-163.056960125297,0.660150103451463,139.099793236027,0.661149580697358,145.65465833696,0.165069784334132,169.091424864727
525000000000,0.16894241567399,-162.217577618008,0.660508058948428,137.064762978199,0.661749367650744,143.506089089394,0.168465138521581,168.269599859574
525333333333.333,0.180956543681015,-161.184717707261,0.657693797844854,134.854542998483,0.65916731448721,141.133841243294,0.175573341839483,171.192283355622
525666666666.667,0.189349502158652,-164.04000869882,0.655161703365789,133.010373663128,0.656551571144046,139.501998345249,0.189935906215792,173.605209469336
526000000000,0.193779366448791,-165.875173963898,0.658720317315128,130.919538682592,0.658150645761436,137.247743075114,0.199326637265552,173.715402122097
526333333333.333,0.205148125575942,-164.739120532363,0.650905179240494,128.450921345063,0.651845987621196,134.972636883537,0.202925222580957,176.637965810347
526666666666.667,0.221570464588239,-162.917927838714,0.648855666404092,126.794658022209,0.649528240416613,133.319576342176,0.211137245395714,177.858022908327
527000000000,0.227744126120569,-163.231074552109,0.647750447634016,124.679375888729,0.649295707273392,131.240561343462,0.210574958320294,175.599630601157
527333333333.333,0.226618415122839,-161.365493225306,0.644099889690084,122.684248333222,0.644759172031737,129.589732600731,0.208426682563514,175.705983750104
527666666666.667,0.237975517540277,-159.808238802003,0.647949537011844,121.055847000828,0.649292510990048,127.771770323908,0.225963909222152,173.007003298036
528000000000,0.242808464439288,-161.756746037689,0.645650181763715,118.302157724615,0.646990063198647,125.297955720137,0.236303127277909,169.354262643582
528333333333.333,0.241606988691939,-161.942483925638,0.643549168045761,116.554673627367,0.644373852413021,123.431453217781,0.238354467410951,167.333645077103
528666666666.667,0.250542787740005,-163.069580271668,0.643538594679153,114.527785099683,0.641164797874118,121.550753991491,0.246163415287488,166.205805178434
529000000000,0.266613052919151,-166.224176243151,0.643281188474851,112.751127726571,0.641921999628382,119.731095262195,0.265934028788737,167.903914449402
529333333333.333,0.276438759161172,-167.643938776414,0.645548006184225,110.668806639393,0.64580998993061,117.478214799851,0.27994190805259,168.83710558153
529666666666.667,0.28148587903985,-167.928478749186,0.639562226288119,108.18897815393,0.641114468470377,114.95527043425,0.281876314409526,169.745258542293
530000000000,0.288130042249436,-168.080292380852,0.63317372018219,106.390267251642,0.634446233778655,113.47615624169,0.290111995897728,169.492370494427
530333333333.333,0.292560543079172,-168.894480368101,0.630738684560715,104.794545943716,0.631892087058223,111.727919999539,0.290624957782445,169.203574633466
530666666666.667,0.285738758741162,-168.155918793237,0.631142249640107,103.266206623746,0.632140623163086,110.105640308002,0.281747849514595,169.443862350936
531000000000,0.289274181107045,-167.305945813001,0.636778752393487,101.611168204528,0.637389109200728,108.534026490251,0.295878928804918,167.986689322576
531333333333.333,0.301601202161597,-169.915155133832,0.639717656244038,98.8251613772058,0.640448886803418,105.652321277258,0.303972285132275,166.060352924645
531666666666.667,0.302744807045887,-171.138387075505,0.63170896413248,96.4516930885982,0.632689185814467,103.13388613166,0.303364663386639,163.436116561326
532000000000,0.304356792405109,-171.986952443066,0.624353152945173,94.7255430364889,0.625620095202369,101.503955402152,0.301772874825913,161.512815601457
532333333333.333,0.31737675704955,-174.224649985956,0.62527880174371,93.5909400984355,0.626894355388822,100.192347776752,0.311389648819975,161.896618371468
532666666666.667,0.328447550036533,-175.820203546723,0.626868672670422,91.7322645968245,0.627719799010498,98.2802524505152,0.318552829858462,161.652187914678
533000000000,0.328098673620215,-175.824311258344,0.627190760701043,89.4312038774751,0.627662189850634,96.1050756557432,0.325004856526599,159.924464893155
533333333333.333,0.325666256678732,-176.408059405363,0.625177561074913,87.4761745879518,0.625578577098137,94.0718110333197,0.329337356301319,159.040697525726
533666666666.667,0.325586795930597,-178.007731944338,0.621368319590467,85.842939738566,0.62156797842848,92.2001619361258,0.329485219660112,158.361825929877
534000000000,0.324706737670601,-178.305237058478,0.622944271208204,84.210461341007,0.623521151475305,90.576014530257,0.332952360600328,157.538065572659
534333333333.333,0.325058581218576,-177.82534549953,0.625749518660225,81.8476140882104,0.626058040266487,88.6130435035072,0.334255303972387,155.62046808622
534666666666.667,0.334720718664614,179.832656411583,0.625411205324655,79.5832664473156,0.626175261371169,86.2314421728775,0.333169432395949,155.196357945365
535000000000,0.338688833089391,177.296646172663,0.619567047731761,77.4489008280921,0.620460421976134,84.1650052705944,0.33626637475881,153.686558792786
535333333333.333,0.337392056437268,176.506076509233,0.614566858601809,76.086134906917,0.614756588972024,82.6798590762764,0.33620736633685,152.171969922126
535666666666.667,0.340543698766577,176.453027042702,0.616089635439274,74.9506383096483,0.616483075556335,81.4222298098937,0.33449923495894,151.162701954786
536000000000,0.347605884215747,175.283663278684,0.622032977570954,72.948291391869,0.622994971829351,79.4921240810191,0.336561998734514,150.388049670972
536333333333.333,0.34375814334906,174.111360799834,0.623594389418287,70.6812482582918,0.624240790154223,77.2445292020816,0.344547621014494,149.055550724409
536666666666.667,0.337003354739104,173.159486103296,0.621809701694418,68.4845683259863,0.622306363969374,74.9045100162655,0.348824074848415,147.08140574425
537000000000,0.333389793592439,171.609088930921,0.617162922009132,66.9638137712317,0.617982477543588,72.8969073039883,0.34355659629128,146.227631465667
537333333333.333,0.329996434371512,170.142123218181,0.615749192205054,65.3039499052849,0.616605457226092,71.6130983078501,0.346294120589227,146.407625767117
537666666666.667,0.328574825651609,170.903244356845,0.620530169402574,63.5162396878134,0.621890549281651,69.8477107811385,0.350462947723506,144.348990339526
538000000000,0.337306035594185,170.138984839893,0.620671350662436,61.1155958867286,0.621871501453259,67.5599137495195,0.339889467475368,143.732341097203
538333333333.333,0.343697166625748,167.902887336319,0.616151261761309,59.2432824934962,0.617166061497689,65.7026991300839,0.337283646727645,143.52052677923
538666666666.667,0.342512112915354,166.273139308907,0.613389752693793,57.8821040037828,0.613772266916333,64.1579814673355,0.334900304283441,141.990216246305
539000000000,0.337581422422656,166.87637682727,0.61536529490739,56.2347447297623,0.61639811122256,62.9104371085204,0.329200858382807,140.254218547263
539333333333.333,0.336595792740205,166.852141561387,0.623860142460715,54.4573447765715,0.625137603526275,61.1690193400653,0.328384204419309,138.907859678529
539666666666.667,0.333218629952877,163.978546964137,0.627971487364536,51.5749845693612,0.628574121344062,58.4136667687102,0.328078463692143,136.932418170747
540000000000,0.325885859667749,161.937473806573,0.622841609874739,49.1181479220018,0.623960655339154,55.9753360977606,0.326380066773698,136.225690797618
540333333333.333,0.320989987840567,160.892472755567,0.615626371936313,47.4568009612858,0.616677463702175,54.1105298316615,0.325404703577899,136.68218617297
540666666666.667,0.310579668554025,159.432160820234,0.614114989394704,46.165062973774,0.614906759686155,52.9940271631636,0.332867030631782,136.729304034551
541000000000,0.306974989371877,160.088965412045,0.620771273626957,44.7829876671324,0.621089747960976,51.5794515012942,0.337479001531719,134.774917915649
541333333333.333,0.317704451421349,160.304159645904,0.622059860220629,42.4092615869964,0.62257104594157,49.0883828233149,0.323151241230177,134.18893933615
541666666666.667,0.323288476867792,159.520830751682,0.620257971648185,40.7081134774346,0.620723154007832,47.3493858223329,0.316194909809095,133.603176719483
542000000000,0.314628714439113,157.555625921991,0.621644870152004,39.0913089103468,0.62211733277972,45.6818697741112,0.309733337816421,131.940841299128
