! Python used to change reference impedance from 50 to 1.
# Hz S RI R 1
47000000000.000	-4.7221100536E-001	+4.3210708365E-002	+9.4443979718E-002	+8.5384377133E-001	+1.0314201162E-001	+8.5459143152E-001	-4.4822786770E-001	+1.2019277994E-001
47050000000.000	-4.6444039767E-001	+4.6838447119E-002	+1.0749756296E-001	+8.6151271403E-001	+1.0887293751E-001	+8.6273112918E-001	-4.4995173795E-001	+1.2139003767E-001
47100000000.000	-4.6431812007E-001	+4.0813880264E-002	+1.1130952455E-001	+8.6392165918E-001	+1.0906573820E-001	+8.6591891609E-001	-4.5404195694E-001	+1.2058952694E-001
47150000000.000	-4.7640724895E-001	+3.0489060217E-002	+9.2296547876E-002	+8.8545125164E-001	+9.1902322097E-002	+8.8672843494E-001	-4.6726459135E-001	+1.1594307226E-001
47200000000.000	-4.5230709386E-001	+5.6471637382E-002	+1.6184361095E-001	+8.6755673984E-001	+1.6606005675E-001	+8.6824852447E-001	-4.3514188942E-001	+1.3975082048E-001
47250000000.000	-4.4870091824E-001	+4.0245422471E-002	+1.5456705036E-001	+8.5168801918E-001	+1.5850423919E-001	+8.5254152198E-001	-4.3106239279E-001	+1.2116590371E-001
47300000000.000	-4.5963866865E-001	+2.8934002619E-002	+1.4174203405E-001	+8.3612443809E-001	+1.4662228453E-001	+8.3673279423E-001	-4.4437012362E-001	+1.0643212221E-001
47350000000.000	-4.5753289343E-001	+2.9351744619E-002	+1.1639717090E-001	+8.5458940805E-001	+1.2438334100E-001	+8.5499992977E-001	-4.4638730797E-001	+1.1028060227E-001
47400000000.000	-4.6209886252E-001	+2.6369400462E-002	+1.2462685091E-001	+8.7615430485E-001	+1.3964742991E-001	+8.7491344379E-001	-4.4926812200E-001	+1.1145102201E-001
47450000000.000	-4.6406781842E-001	+4.4855023190E-002	+1.4470296646E-001	+8.6644554152E-001	+1.4544791095E-001	+8.6681459419E-001	-4.5116619166E-001	+1.2837122862E-001
47500000000.000	-4.6691613321E-001	+4.0072523172E-002	+1.5073952721E-001	+8.7136793402E-001	+1.4849790135E-001	+8.7269888654E-001	-4.5117368413E-001	+1.2859543340E-001
47550000000.000	-4.7187959052E-001	+7.0136174686E-002	+1.5657310623E-001	+8.8315606521E-001	+1.4795728010E-001	+8.8539701459E-001	-4.4509812715E-001	+1.5714475877E-001
47600000000.000	-4.6666365704E-001	+6.2292015336E-002	+1.8338753511E-001	+8.8212834623E-001	+1.9740309918E-001	+8.7985812550E-001	-4.4266102768E-001	+1.4033655360E-001
47650000000.000	-4.5961263304E-001	+7.7709076997E-002	+1.8902460967E-001	+8.6138919554E-001	+2.0103032910E-001	+8.5943746199E-001	-4.3737199834E-001	+1.5385142216E-001
47700000000.000	-4.1926073405E-001	+6.1184527922E-002	+2.1988228304E-001	+8.5020890509E-001	+2.2853467094E-001	+8.4904657358E-001	-4.0206089753E-001	+1.3207565820E-001
47750000000.000	-4.8687880889E-001	+3.0120846280E-002	+1.5079138303E-001	+8.1297072908E-001	+1.5497529549E-001	+8.1301254678E-001	-4.7493909162E-001	+1.1513377843E-001
47800000000.000	-4.6797409168E-001	+7.0613159542E-002	+1.7008393094E-001	+8.3857795850E-001	+1.7336310652E-001	+8.3907437687E-001	-4.4957865726E-001	+1.5251098573E-001
47850000000.000	-4.3772234447E-001	+7.8872968128E-002	+1.6376636204E-001	+8.3646111614E-001	+1.6858782918E-001	+8.3653022500E-001	-4.1872533711E-001	+1.5912663127E-001
47900000000.000	-4.2744652557E-001	+5.6635500525E-002	+1.5807878324E-001	+8.5532203486E-001	+1.6321533758E-001	+8.5517889978E-001	-4.0977419260E-001	+1.3525742455E-001
47950000000.000	-4.4266469434E-001	+4.4305860379E-002	+1.6565447630E-001	+8.6432363056E-001	+1.7072835225E-001	+8.6398621373E-001	-4.2829543594E-001	+1.2032440992E-001
48000000000.000	-4.7585955792E-001	-1.3571013466E-002	+1.7022600993E-001	+9.5704101188E-001	+1.9507082193E-001	+9.5276976894E-001	-4.7294130787E-001	+1.6278966604E-001
48050000000.000	-4.5397215056E-001	+7.2294022774E-002	+2.2148756454E-001	+8.5109665117E-001	+2.2811602954E-001	+8.4972270240E-001	-4.3088896241E-001	+1.4547156956E-001
48100000000.000	-4.5036667298E-001	+6.2805237889E-002	+2.1399370238E-001	+8.4914553543E-001	+2.1756947028E-001	+8.4873990532E-001	-4.3047211264E-001	+1.4123066043E-001
48150000000.000	-4.7426418249E-001	+7.1031618927E-002	+2.2419561675E-001	+8.3701350717E-001	+2.3463791171E-001	+8.3480485797E-001	-4.5309188401E-001	+1.5171859437E-001
48200000000.000	-4.7329700975E-001	+8.6037832749E-002	+2.2014407289E-001	+8.2726211245E-001	+2.2757662153E-001	+8.2607740512E-001	-4.5182198110E-001	+1.6563624821E-001
48250000000.000	-4.0378463197E-001	+9.8046393353E-002	+1.5306907822E-001	+8.2566546477E-001	+1.5821739942E-001	+8.2532453667E-001	-3.9029628318E-001	+1.7712674289E-001
48300000000.000	-4.4753192431E-001	+7.1555445418E-002	+1.9810077460E-001	+8.7765319016E-001	+2.0304542979E-001	+8.7730866264E-001	-4.2736780379E-001	+1.5614800156E-001
48350000000.000	-4.3930442988E-001	+7.5178802254E-002	+2.2463009780E-001	+8.7073794775E-001	+2.3412446491E-001	+8.6903228233E-001	-4.1723028307E-001	+1.5768328291E-001
48400000000.000	-4.4928444474E-001	+8.9790448066E-002	+2.3263889089E-001	+8.5256305842E-001	+2.4834179819E-001	+8.4838142049E-001	-4.2566204196E-001	+1.7144837391E-001
48450000000.000	-4.3173491945E-001	+8.2651744380E-002	+2.3880906432E-001	+8.4948535773E-001	+2.4893283925E-001	+8.4696618737E-001	-4.0797434224E-001	+1.6326781400E-001
48500000000.000	-4.4941864289E-001	+8.6111525921E-002	+2.3584440509E-001	+8.3939217443E-001	+2.4448304839E-001	+8.3764927631E-001	-4.2658621121E-001	+1.6670797185E-001
48550000000.000	-4.3532597786E-001	+8.2217594529E-002	+2.4495776297E-001	+8.4290230900E-001	+2.5284496160E-001	+8.4141570477E-001	-4.1165549992E-001	+1.6231519842E-001
48600000000.000	-4.3747297160E-001	+8.3057584668E-002	+2.4748831765E-001	+8.3560140073E-001	+2.5632345163E-001	+8.3321642104E-001	-4.1364643565E-001	+1.6209859147E-001
48650000000.000	-4.4157270346E-001	+8.6621694187E-002	+2.4247851309E-001	+8.2722731718E-001	+2.5056067807E-001	+8.2540157036E-001	-4.1914706703E-001	+1.6537795134E-001
48700000000.000	-4.3393114347E-001	+8.6124421476E-002	+2.4505456110E-001	+8.3465230486E-001	+2.5249940284E-001	+8.3325060369E-001	-4.1177361815E-001	+1.6656157875E-001
48750000000.000	-4.3642516941E-001	+7.4252407661E-002	+2.4448657487E-001	+8.2810663956E-001	+2.5266100515E-001	+8.2632370550E-001	-4.1339083571E-001	+1.5584063279E-001
48800000000.000	-4.5764428152E-001	+7.2727238763E-002	+2.2226766212E-001	+8.3411420524E-001	+2.3472701236E-001	+8.3114534279E-001	-4.3401858395E-001	+1.5380348260E-001
48850000000.000	-4.5073500160E-001	+1.2122507373E-001	+2.7616170487E-001	+8.5496091503E-001	+2.8764963435E-001	+8.5157180087E-001	-4.2302089217E-001	+2.0340636443E-001
48900000000.000	-4.4051262497E-001	+1.0172661449E-001	+2.6262357772E-001	+8.4817795371E-001	+2.7238769355E-001	+8.4560029249E-001	-4.1358744989E-001	+1.8540193490E-001
48950000000.000	-4.4242105465E-001	+1.0153424926E-001	+2.6959944505E-001	+8.4567990259E-001	+2.7664308602E-001	+8.4441799787E-001	-4.1256925695E-001	+1.8535458502E-001
49000000000.000	-4.3883634669E-001	+9.6623219288E-002	+2.6755020003E-001	+8.5376218743E-001	+2.8055550779E-001	+8.5061185762E-001	-4.0649570739E-001	+1.7906500262E-001
49050000000.000	-4.5143773187E-001	+9.9538841572E-002	+2.8261542855E-001	+8.6173633786E-001	+2.9391738512E-001	+8.5732575568E-001	-4.1447937783E-001	+1.8018069337E-001
49100000000.000	-4.5063300160E-001	+1.2369433628E-001	+3.0948946434E-001	+8.5615039288E-001	+3.1865464467E-001	+8.5277786327E-001	-4.1305948230E-001	+1.9295279241E-001
49150000000.000	-4.4011243945E-001	+1.3006846964E-001	+3.1596580734E-001	+8.3301006618E-001	+3.3306331420E-001	+8.2685733734E-001	-4.1176362202E-001	+1.9781599236E-001
49200000000.000	-4.3366635396E-001	+1.4491114775E-001	+3.1603920508E-001	+8.1558914320E-001	+3.2837210149E-001	+8.1089770039E-001	-4.0856409223E-001	+2.1398724586E-001
49250000000.000	-4.1078827834E-001	+1.3830404190E-001	+3.2122958064E-001	+7.9982882991E-001	+3.3131065425E-001	+7.9578394814E-001	-3.9004568226E-001	+2.0744711085E-001
49300000000.000	-4.0880476589E-001	+1.2150844566E-001	+2.8010814621E-001	+7.7359015727E-001	+2.8972353485E-001	+7.7046155859E-001	-3.9904767472E-001	+2.0081367262E-001
49350000000.000	-3.8213977703E-001	+1.1237027394E-001	+2.8047193788E-001	+8.1287363981E-001	+2.8909231375E-001	+8.1057028422E-001	-3.5958904193E-001	+1.9516788090E-001
49400000000.000	-4.1115042269E-001	+9.4342726363E-002	+2.7407043489E-001	+8.2600974992E-001	+2.8080809746E-001	+8.2423355646E-001	-3.8480566977E-001	+1.8359523371E-001
49450000000.000	-4.1239307042E-001	+9.9670355838E-002	+2.9229014265E-001	+8.3301784868E-001	+3.0286232435E-001	+8.2963083928E-001	-3.8327760918E-001	+1.8393060549E-001
49500000000.000	-4.1588165786E-001	+9.4074689010E-002	+3.0055093521E-001	+8.3392660678E-001	+3.1315229009E-001	+8.2983070706E-001	-3.8584703709E-001	+1.7765846002E-001
49550000000.000	-4.3545408660E-001	+8.2595128010E-002	+3.0978728474E-001	+8.5347574221E-001	+3.1969243141E-001	+8.5104482098E-001	-4.1144480803E-001	+1.7105192126E-001
49600000000.000	-4.3904226033E-001	+1.0665162544E-001	+3.1940374330E-001	+8.1955132782E-001	+3.2998195768E-001	+8.1618451446E-001	-4.0638553258E-001	+1.8638703632E-001
49650000000.000	-4.3802147099E-001	+1.0949466739E-001	+3.0523474552E-001	+8.2983065719E-001	+3.1971683969E-001	+8.2509504885E-001	-4.1677632851E-001	+1.8910425364E-001
49700000000.000	-4.4522425475E-001	+1.4537873167E-001	+3.4157238890E-001	+8.1749599169E-001	+3.5050487269E-001	+8.1406282829E-001	-4.0757137246E-001	+2.0721749416E-001
49750000000.000	-4.3680084469E-001	+1.4130876587E-001	+3.3398426978E-001	+8.2036567429E-001	+3.4109320095E-001	+8.1785545199E-001	-4.0590071415E-001	+2.1472487546E-001
49800000000.000	-4.3414818224E-001	+1.5055316160E-001	+3.4120278696E-001	+8.2659391672E-001	+3.5060761971E-001	+8.2240949696E-001	-4.0380735106E-001	+2.2553117049E-001
49850000000.000	-4.1699463040E-001	+1.7049339316E-001	+3.5289933063E-001	+8.1180408609E-001	+3.6556845333E-001	+8.0751841605E-001	-3.8945395604E-001	+2.4542654855E-001
49900000000.000	-3.9708567221E-001	+1.4376493616E-001	+3.4832919763E-001	+8.2206924856E-001	+3.5754829973E-001	+8.1885223652E-001	-3.6316523886E-001	+2.2385608590E-001
49950000000.000	-3.9532109269E-001	+1.3849993725E-001	+3.5973798344E-001	+8.1816645189E-001	+3.6907311965E-001	+8.1468388183E-001	-3.6135071835E-001	+2.1592817438E-001
50000000000.000	-4.0871946271E-001	+1.4409526734E-001	+3.6544482251E-001	+8.0826172399E-001	+3.7543126199E-001	+8.0459009375E-001	-3.7617406593E-001	+2.2075903918E-001
50050000000.000	-3.9780406335E-001	+1.4280525642E-001	+3.6738212676E-001	+8.0683202289E-001	+3.7946641036E-001	+8.0182640928E-001	-3.6476957902E-001	+2.2029345723E-001
50100000000.000	-3.9233229734E-001	+1.2917824104E-001	+3.7639541733E-001	+8.0148425499E-001	+3.8836090374E-001	+7.9578059180E-001	-3.5755597556E-001	+2.0795250269E-001
50150000000.000	-3.8830207683E-001	+1.3473839018E-001	+3.7622373300E-001	+7.9337555922E-001	+3.8618902066E-001	+7.8895569721E-001	-3.5314201014E-001	+2.1384482865E-001
50200000000.000	-4.0454257828E-001	+1.0640611923E-001	+3.7698122754E-001	+7.7223505531E-001	+3.8663692308E-001	+7.6778549036E-001	-3.6574541346E-001	+1.8295717073E-001
50250000000.000	-4.2090833292E-001	+1.2065135754E-001	+3.4852934688E-001	+7.7294518434E-001	+3.5970402549E-001	+7.6847063585E-001	-3.8469461628E-001	+1.9703465953E-001
50300000000.000	-4.2493978210E-001	+1.3720492485E-001	+3.3613194064E-001	+7.9694296979E-001	+3.5133554143E-001	+7.9164959814E-001	-3.8750022618E-001	+2.1238995293E-001
50350000000.000	-4.1658974736E-001	+1.4736220639E-001	+3.5018432472E-001	+8.1192513244E-001	+3.6251043060E-001	+8.0807536063E-001	-3.7814709321E-001	+2.2192287898E-001
50400000000.000	-4.1238088781E-001	+1.4737632671E-001	+3.6243597140E-001	+8.1756625471E-001	+3.7234619737E-001	+8.1362425541E-001	-3.7360349550E-001	+2.2108990452E-001
50450000000.000	-4.1812207107E-001	+1.4593356044E-001	+3.6204297655E-001	+8.3015076757E-001	+3.7229504687E-001	+8.2589740181E-001	-3.8013428243E-001	+2.1728801519E-001
50500000000.000	-4.0524906971E-001	+1.6190618534E-001	+4.0742982204E-001	+8.2210224666E-001	+4.2129668471E-001	+8.1534569593E-001	-3.6646544975E-001	+2.3072724928E-001
50550000000.000	-4.1045081928E-001	+1.6413807242E-001	+4.1244334727E-001	+8.2157619347E-001	+4.2166497613E-001	+8.1680152086E-001	-3.7913777075E-001	+2.3121438053E-001
50600000000.000	-4.0336311431E-001	+1.6296449822E-001	+4.3657735142E-001	+8.2196001996E-001	+4.5026272785E-001	+8.1552264145E-001	-3.7368506886E-001	+2.4637184930E-001
50650000000.000	-4.0294301180E-001	+1.7082743849E-001	+4.4389943464E-001	+7.9042173859E-001	+4.5988052622E-001	+7.8165515089E-001	-3.6257339165E-001	+2.5291461218E-001
50700000000.000	-3.9893439357E-001	+1.8266311618E-001	+4.4046493482E-001	+7.6805869470E-001	+4.4944903613E-001	+7.6253022986E-001	-3.5499369405E-001	+2.5848633394E-001
50750000000.000	-3.8043280754E-001	+1.9285952845E-001	+4.2446891970E-001	+7.5620310371E-001	+4.3331253369E-001	+7.5118706848E-001	-3.3676883741E-001	+2.6418590737E-001
50800000000.000	-3.5819185668E-001	+1.8864614978E-001	+4.0312519993E-001	+7.6346606259E-001	+4.1394849241E-001	+7.5795658013E-001	-3.2215724155E-001	+2.5853740283E-001
50850000000.000	-3.4923770330E-001	+1.5337079301E-001	+4.1503031492E-001	+7.8329502906E-001	+4.2382797520E-001	+7.7931815076E-001	-3.1087165725E-001	+2.2917891115E-001
50900000000.000	-3.6026342874E-001	+1.4242211047E-001	+4.3327509827E-001	+7.7708031219E-001	+4.4337403770E-001	+7.7227459942E-001	-3.1804249574E-001	+2.1582725524E-001
50950000000.000	-3.8947071087E-001	+1.2914966129E-001	+4.0768798825E-001	+7.6234064899E-001	+4.1889971709E-001	+7.5689860482E-001	-3.5188416239E-001	+2.0032043044E-001
51000000000.000	-3.8892246204E-001	+1.5419563057E-001	+4.1985437380E-001	+7.8266387577E-001	+4.3028728009E-001	+7.7744177308E-001	-3.5306357625E-001	+2.2762078970E-001
51050000000.000	-3.8738612564E-001	+1.5430726569E-001	+4.3119357671E-001	+7.8094191830E-001	+4.4101009038E-001	+7.7660314073E-001	-3.4884779831E-001	+2.2965833065E-001
51100000000.000	-3.9207423860E-001	+1.5762850015E-001	+4.3584069308E-001	+7.7705627231E-001	+4.4623987023E-001	+7.7176124502E-001	-3.5078319025E-001	+2.3299720646E-001
51150000000.000	-3.8980603157E-001	+1.6395407870E-001	+4.3317360509E-001	+7.7429940525E-001	+4.4333190012E-001	+7.6878174171E-001	-3.4827766689E-001	+2.3873929680E-001
51200000000.000	-3.8795580424E-001	+1.6633579810E-001	+4.3400249335E-001	+7.8177926594E-001	+4.4143033956E-001	+7.7826506461E-001	-3.4511435037E-001	+2.4099541435E-001
51250000000.000	-3.8802172534E-001	+1.6614272100E-001	+4.3564561412E-001	+7.9576511405E-001	+4.4471535790E-001	+7.9130444148E-001	-3.4634773135E-001	+2.3970452776E-001
51300000000.000	-4.3636668214E-001	+1.7474775737E-001	+5.0292995951E-001	+8.3635607072E-001	+5.1315688712E-001	+8.3101932414E-001	-3.5106099583E-001	+2.6925466857E-001
51350000000.000	-3.8979542970E-001	+2.1560962110E-001	+5.0023069436E-001	+7.7132060816E-001	+5.1233168995E-001	+7.6445594264E-001	-3.4013466265E-001	+2.7760432126E-001
51400000000.000	-3.6542206627E-001	+2.1127970536E-001	+4.9739126819E-001	+7.5346300755E-001	+5.0570334096E-001	+7.4861246966E-001	-3.1918776172E-001	+2.7443463412E-001
51450000000.000	-3.4607038224E-001	+2.1819910154E-001	+4.8715005862E-001	+7.3318647636E-001	+4.9797623481E-001	+7.2659268657E-001	-3.0628128923E-001	+2.7906105757E-001
51500000000.000	-3.3785427179E-001	+1.7552018547E-001	+4.8471232098E-001	+7.5759666754E-001	+4.8945387216E-001	+7.5562862057E-001	-2.9275284619E-001	+2.4509765703E-001
51550000000.000	-3.4176225807E-001	+1.7566381819E-001	+4.9591489404E-001	+7.4763908333E-001	+5.0082715053E-001	+7.4662923383E-001	-2.9533132983E-001	+2.4156606001E-001
51600000000.000	-3.4751408561E-001	+1.6066200088E-001	+4.9954353916E-001	+7.3538221890E-001	+5.0249663307E-001	+7.3366564529E-001	-3.0042185970E-001	+2.2239328527E-001
51650000000.000	-3.4646012756E-001	+1.6525809220E-001	+4.9526883958E-001	+7.2164113150E-001	+4.9850943153E-001	+7.1983011173E-001	-3.0556357270E-001	+2.2561244976E-001
51700000000.000	-3.6088594529E-001	+1.6017237709E-001	+4.7008285109E-001	+7.1989522280E-001	+4.7609238221E-001	+7.1709179897E-001	-3.2514864249E-001	+2.2522179703E-001
51750000000.000	-3.6842190229E-001	+1.7619637218E-001	+4.6088224903E-001	+7.4352719573E-001	+4.6765103419E-001	+7.4011356077E-001	-3.2985189764E-001	+2.4645979680E-001
51800000000.000	-3.6517507507E-001	+1.7551385119E-001	+4.7827685948E-001	+7.5620576860E-001	+4.8402754853E-001	+7.5308643851E-001	-3.2052855945E-001	+2.4376600372E-001
51850000000.000	-3.5860245852E-001	+1.7783243705E-001	+4.9361094291E-001	+7.6100616085E-001	+4.9509979301E-001	+7.6043691890E-001	-3.1384573580E-001	+2.4589373607E-001
51900000000.000	-3.6440292542E-001	+1.7393318206E-001	+5.0677294444E-001	+7.6228891246E-001	+5.0829763066E-001	+7.6226881069E-001	-3.2201661272E-001	+2.4403632450E-001
51950000000.000	-3.7182155214E-001	+1.8394726273E-001	+5.1483955713E-001	+7.5319056703E-001	+5.1832651685E-001	+7.5137015537E-001	-3.2679480805E-001	+2.5022623803E-001
52000000000.000	-3.7291016259E-001	+1.9120476890E-001	+5.1690826558E-001	+7.5786720365E-001	+5.2204306430E-001	+7.5510054051E-001	-3.2662481795E-001	+2.5946323835E-001
52050000000.000	-3.8194914094E-001	+2.0418063359E-001	+5.4012072578E-001	+7.6478946678E-001	+5.4313011665E-001	+7.6313934553E-001	-3.2902352226E-001	+2.6782280262E-001
52100000000.000	-3.7758049090E-001	+2.3771976535E-001	+5.6963072731E-001	+7.6427477791E-001	+5.7503043043E-001	+7.6044002141E-001	-3.3395299204E-001	+2.9820486627E-001
52150000000.000	-3.3791415230E-001	+2.4182465511E-001	+5.6405383656E-001	+6.9346554436E-001	+5.6884858907E-001	+6.9009489621E-001	-2.9751835776E-001	+3.0809954307E-001
52200000000.000	-3.1775405881E-001	+2.3048478051E-001	+5.3954408872E-001	+6.9275188434E-001	+5.4598510842E-001	+6.8830558866E-001	-2.7371677630E-001	+3.0176714198E-001
52250000000.000	-2.9883559690E-001	+2.1037967446E-001	+5.1937844782E-001	+7.0835658001E-001	+5.2333050143E-001	+7.0573280151E-001	-2.4573338261E-001	+2.7870628095E-001
52300000000.000	-3.0652467399E-001	+1.8964230075E-001	+5.3352696938E-001	+7.2446963797E-001	+5.3634218051E-001	+7.2274938944E-001	-2.5369643759E-001	+2.5049573559E-001
52350000000.000	-3.1970102626E-001	+1.8586239711E-001	+5.4699501506E-001	+7.2226887184E-001	+5.5096032557E-001	+7.2085775209E-001	-2.7103328420E-001	+2.4434080146E-001
52400000000.000	-3.2175961617E-001	+1.9442529574E-001	+5.5356118012E-001	+7.1700117326E-001	+5.5872151811E-001	+7.1314067145E-001	-2.7417634401E-001	+2.5385898454E-001
52450000000.000	-3.1484268987E-001	+1.8536584853E-001	+5.6354873760E-001	+7.1073939908E-001	+5.6833145878E-001	+7.0764794412E-001	-2.6863264666E-001	+2.4404500942E-001
52500000000.000	-3.2156228268E-001	+1.6942586016E-001	+5.6484106497E-001	+6.8658096888E-001	+5.6899506475E-001	+6.8388357832E-001	-2.7833649391E-001	+2.2941089041E-001
52550000000.000	-3.3953692240E-001	+1.8579577480E-001	+5.4571135412E-001	+6.9389731581E-001	+5.4918402925E-001	+6.9118778541E-001	-2.9562790144E-001	+2.4857636765E-001
52600000000.000	-3.3850994524E-001	+1.9631834354E-001	+5.4301850436E-001	+7.0132924056E-001	+5.4666461230E-001	+6.9906789911E-001	-2.9269282494E-001	+2.6050052524E-001
52650000000.000	-3.3589397417E-001	+1.9949679503E-001	+5.4810110499E-001	+7.0825742881E-001	+5.4979709470E-001	+7.0824565838E-001	-2.8814524157E-001	+2.6289949829E-001
52700000000.000	-3.3660143727E-001	+2.0278396469E-001	+5.5376264365E-001	+7.1531770327E-001	+5.5547330888E-001	+7.1468501413E-001	-2.8837097782E-001	+2.6575937271E-001
52750000000.000	-3.3566880846E-001	+2.1305762161E-001	+5.6196858149E-001	+7.2482905537E-001	+5.6799380775E-001	+7.2160804352E-001	-2.8724591259E-001	+2.7661069326E-001
52800000000.000	-3.2448721305E-001	+2.2476231313E-001	+5.8531192447E-001	+7.2678115950E-001	+5.9491268279E-001	+7.1956978851E-001	-2.7168934561E-001	+2.8872439236E-001
52850000000.000	-3.0853582792E-001	+2.1878767949E-001	+5.9509716714E-001	+7.1168572354E-001	+5.9961492116E-001	+7.0767395874E-001	-2.5432112012E-001	+2.7863342473E-001
