! Python used to change reference impedance from 50 to 1.
# Hz S RI R 1
47000000000.000	-4.7265963623E-001	+4.1981586523E-002	+9.0801034490E-002	+8.5475165169E-001	+9.7672731260E-002	+8.5520162191E-001	-4.5005775544E-001	+1.1555740463E-001
47050000000.000	-4.6512519020E-001	+4.5548538861E-002	+1.0024372639E-001	+8.6275488244E-001	+1.0305660323E-001	+8.6330013672E-001	-4.5169495734E-001	+1.1622551805E-001
47100000000.000	-4.6510704402E-001	+3.9526924578E-002	+1.0314229629E-001	+8.6523475390E-001	+1.0330295356E-001	+8.6650576394E-001	-4.5606635215E-001	+1.1558831861E-001
47150000000.000	-4.7720557361E-001	+2.9143788001E-002	+8.3964980655E-002	+8.8662809452E-001	+8.6352269838E-002	+8.8719904311E-001	-4.6900630170E-001	+1.1112871124E-001
47200000000.000	-4.5343868567E-001	+5.5398380577E-002	+1.5426426483E-001	+8.6931271865E-001	+1.5972527975E-001	+8.6938548811E-001	-4.3701128667E-001	+1.3553246170E-001
47250000000.000	-4.4972455130E-001	+3.9594985276E-002	+1.4751705735E-001	+8.5361615408E-001	+1.5166009318E-001	+8.5403994587E-001	-4.3249370031E-001	+1.1725490026E-001
47300000000.000	-4.5985185986E-001	+2.7988477791E-002	+1.3606547740E-001	+8.3744611284E-001	+1.4145129217E-001	+8.3767297948E-001	-4.4460390853E-001	+1.0162856975E-001
47350000000.000	-4.5816982970E-001	+2.8227299702E-002	+1.0972943455E-001	+8.5522883570E-001	+1.1788959548E-001	+8.5542156379E-001	-4.4760912748E-001	+1.0456388349E-001
47400000000.000	-4.6233755190E-001	+2.5137294644E-002	+1.1705937509E-001	+8.7775708575E-001	+1.3318737973E-001	+8.7627752947E-001	-4.5108162291E-001	+1.0539442899E-001
47450000000.000	-4.6450161021E-001	+4.3614169484E-002	+1.3870751160E-001	+8.6712581479E-001	+1.3939124405E-001	+8.6739098003E-001	-4.5309653293E-001	+1.2416900460E-001
47500000000.000	-4.6760538132E-001	+3.8679161939E-002	+1.4511474380E-001	+8.7223519328E-001	+1.4254330552E-001	+8.7348346034E-001	-4.5286871786E-001	+1.2394844008E-001
47550000000.000	-4.7273616013E-001	+6.8660043352E-002	+1.5108313708E-001	+8.8398956928E-001	+1.4193792944E-001	+8.8616503365E-001	-4.4684320574E-001	+1.5237793493E-001
47600000000.000	-4.6762086862E-001	+6.0717494683E-002	+1.7850055811E-001	+8.8311290610E-001	+1.9126483629E-001	+8.8111510439E-001	-4.4459074026E-001	+1.3554282635E-001
47650000000.000	-4.6093231154E-001	+7.6021567166E-002	+1.8423234406E-001	+8.6241780217E-001	+1.9434263506E-001	+8.6085740984E-001	-4.3961850263E-001	+1.4923972617E-001
47700000000.000	-4.2229536469E-001	+6.0891662539E-002	+2.1389493827E-001	+8.5286387202E-001	+2.2002913162E-001	+8.5228116674E-001	-4.0550964791E-001	+1.2934339531E-001
47750000000.000	-4.8739628271E-001	+2.4338160926E-002	+1.4708926335E-001	+8.1055847736E-001	+1.4885767077E-001	+8.1099355682E-001	-4.7610447011E-001	+1.0647480704E-001
47800000000.000	-4.7018914837E-001	+6.8266772792E-002	+1.6663877158E-001	+8.3959954338E-001	+1.6676178568E-001	+8.4060874277E-001	-4.5175504756E-001	+1.4718393441E-001
47850000000.000	-4.4051528216E-001	+7.8246852994E-002	+1.6149114777E-001	+8.3658112917E-001	+1.6312361117E-001	+8.3718388681E-001	-4.2093886125E-001	+1.5472423532E-001
47900000000.000	-4.2856025028E-001	+5.6869960124E-002	+1.5487594020E-001	+8.5516415791E-001	+1.5691863576E-001	+8.5548702805E-001	-4.1110210747E-001	+1.3067956879E-001
47950000000.000	-4.4319169246E-001	+4.3863751968E-002	+1.6187873545E-001	+8.6478982475E-001	+1.6413135807E-001	+8.6493055229E-001	-4.2975959284E-001	+1.1529275478E-001
48000000000.000	-4.7638625437E-001	-1.4261554641E-002	+1.6746470408E-001	+9.5749072588E-001	+1.8749569937E-001	+9.5415554321E-001	-4.7538270925E-001	+1.5752889511E-001
48050000000.000	-4.5463985484E-001	+7.1428770084E-002	+2.1906873053E-001	+8.5173931312E-001	+2.2196338794E-001	+8.5120462476E-001	-4.3293712425E-001	+1.4083478413E-001
48100000000.000	-4.5110748513E-001	+6.1887057895E-002	+2.1146258293E-001	+8.4977770524E-001	+2.1154657511E-001	+8.5013985180E-001	-4.3238225848E-001	+1.3664416974E-001
48150000000.000	-4.7488849904E-001	+6.9863042812E-002	+2.2133989157E-001	+8.3801888592E-001	+2.2881167960E-001	+8.3655649162E-001	-4.5489242681E-001	+1.4694541009E-001
48200000000.000	-4.7398330415E-001	+8.3991720596E-002	+2.1729353238E-001	+8.2896089572E-001	+2.2157373077E-001	+8.2850728611E-001	-4.5357736429E-001	+1.6032755130E-001
48250000000.000	-4.0616474958E-001	+1.0483025830E-001	+1.5225294648E-001	+8.2004130246E-001	+1.5320986020E-001	+8.2038817847E-001	-3.9239029261E-001	+1.7817353891E-001
48300000000.000	-4.4765997695E-001	+7.1060469604E-002	+1.9610760387E-001	+8.7816001261E-001	+1.9657424918E-001	+8.7873980390E-001	-4.2927097159E-001	+1.5129720164E-001
48350000000.000	-4.3975439863E-001	+7.4535642396E-002	+2.2314816780E-001	+8.7118883464E-001	+2.2778392794E-001	+8.7061472884E-001	-4.1946343220E-001	+1.5332410681E-001
48400000000.000	-4.4981877653E-001	+8.9006816416E-002	+2.3165270083E-001	+8.5283715526E-001	+2.4227061164E-001	+8.5002454948E-001	-4.2769637654E-001	+1.6728569965E-001
48450000000.000	-4.3237032506E-001	+8.1915025127E-002	+2.3818189025E-001	+8.4956005709E-001	+2.4252547057E-001	+8.4864494892E-001	-4.0983416520E-001	+1.5901575214E-001
48500000000.000	-4.5010721119E-001	+8.5400575130E-002	+2.3528017641E-001	+8.3940083330E-001	+2.3867342010E-001	+8.3906100940E-001	-4.2842853598E-001	+1.6226891450E-001
48550000000.000	-4.3594637792E-001	+8.1587597918E-002	+2.4372296040E-001	+8.4313627218E-001	+2.4785851001E-001	+8.4267926743E-001	-4.1374995493E-001	+1.5788012010E-001
48600000000.000	-4.3811821589E-001	+8.2428278037E-002	+2.4624160498E-001	+8.3581187736E-001	+2.5071227937E-001	+8.3467565478E-001	-4.1584507206E-001	+1.5786874021E-001
48650000000.000	-4.4214736408E-001	+8.5996351361E-002	+2.4161764367E-001	+8.2731317430E-001	+2.4505461470E-001	+8.2678639880E-001	-4.2133213132E-001	+1.6147419334E-001
48700000000.000	-4.3432773497E-001	+8.5541663735E-002	+2.4479193025E-001	+8.3475937809E-001	+2.4715507608E-001	+8.3480261075E-001	-4.1359446018E-001	+1.6309594949E-001
48750000000.000	-4.3656595835E-001	+7.3586744160E-002	+2.4465192094E-001	+8.2822064300E-001	+2.4737596167E-001	+8.2803480208E-001	-4.1414278667E-001	+1.5235122043E-001
48800000000.000	-4.5780805545E-001	+7.1229677849E-002	+2.2275507500E-001	+8.3327487094E-001	+2.2862950362E-001	+8.3208458542E-001	-4.3441297933E-001	+1.4858980601E-001
48850000000.000	-4.5175756850E-001	+1.1985371915E-001	+2.7516977100E-001	+8.5444250888E-001	+2.8081119697E-001	+8.5300202559E-001	-4.2511543244E-001	+1.9779360660E-001
48900000000.000	-4.4153744266E-001	+1.0069710720E-001	+2.6166894303E-001	+8.4808439446E-001	+2.6546707039E-001	+8.4736318668E-001	-4.1603407092E-001	+1.8023639895E-001
48950000000.000	-4.4337140365E-001	+1.0057726015E-001	+2.6913407902E-001	+8.4565768684E-001	+2.6983234369E-001	+8.4634658656E-001	-4.1523444167E-001	+1.8054663754E-001
49000000000.000	-4.3969606325E-001	+9.5725066499E-002	+2.6640621533E-001	+8.5401887389E-001	+2.7358433038E-001	+8.5260348041E-001	-4.0913970060E-001	+1.7466107767E-001
49050000000.000	-4.5219341160E-001	+9.8422803104E-002	+2.8260069051E-001	+8.6179303561E-001	+2.8708216278E-001	+8.5949625893E-001	-4.1699693903E-001	+1.7611252897E-001
49100000000.000	-4.5157631442E-001	+1.2234639944E-001	+3.0948816270E-001	+8.5624557574E-001	+3.1214410349E-001	+8.5521275565E-001	-4.1510979258E-001	+1.8870738292E-001
49150000000.000	-4.4135446439E-001	+1.2859165520E-001	+3.1641673591E-001	+8.3309538919E-001	+3.2604497166E-001	+8.2986325972E-001	-4.1408389420E-001	+1.9330924966E-001
49200000000.000	-4.3538911142E-001	+1.4342617508E-001	+3.1626777499E-001	+8.1627657959E-001	+3.2177657500E-001	+8.1428476264E-001	-4.1120369780E-001	+2.0961297491E-001
49250000000.000	-4.1316248976E-001	+1.3744041509E-001	+3.2219359934E-001	+8.0141853486E-001	+3.2585205631E-001	+7.9993800263E-001	-3.9296528713E-001	+2.0358792529E-001
49300000000.000	-4.1141165970E-001	+1.1921688548E-001	+2.8303527320E-001	+7.7257417744E-001	+2.8574870372E-001	+7.7194507267E-001	-4.0165305585E-001	+1.9542227336E-001
49350000000.000	-3.8480759695E-001	+1.1353801439E-001	+2.8168075548E-001	+8.1202749979E-001	+2.8395567861E-001	+8.1185046467E-001	-3.6257695965E-001	+1.9297408044E-001
49400000000.000	-4.1369030500E-001	+9.4478599733E-002	+2.7453016080E-001	+8.2417526839E-001	+2.7536124027E-001	+8.2434798284E-001	-3.8757790263E-001	+1.7909203852E-001
49450000000.000	-4.1416025923E-001	+1.0134215890E-001	+2.9335421340E-001	+8.3127575039E-001	+2.9669147795E-001	+8.3047240539E-001	-3.8538031456E-001	+1.8068459894E-001
49500000000.000	-4.1562431758E-001	+9.5835006785E-002	+3.0025602034E-001	+8.3226044449E-001	+3.0594005265E-001	+8.3064989470E-001	-3.8667643001E-001	+1.7409614645E-001
49550000000.000	-4.3460401908E-001	+8.3077150598E-002	+3.0962684745E-001	+8.5281799996E-001	+3.1233670211E-001	+8.5291979915E-001	-4.1236630102E-001	+1.6613071552E-001
49600000000.000	-4.3837698858E-001	+1.0635851579E-001	+3.1960961701E-001	+8.1952546887E-001	+3.2318543643E-001	+8.1886104218E-001	-4.0817651374E-001	+1.8134570700E-001
49650000000.000	-4.3763011842E-001	+1.0889033889E-001	+3.0543700534E-001	+8.2993125465E-001	+3.1283061027E-001	+8.2785540887E-001	-4.1882651023E-001	+1.8423339737E-001
49700000000.000	-4.4483010242E-001	+1.4469249219E-001	+3.4236843548E-001	+8.1734818190E-001	+3.4427500191E-001	+8.1687863628E-001	-4.0971266423E-001	+2.0282281235E-001
49750000000.000	-4.3626424261E-001	+1.4030397325E-001	+3.3391121675E-001	+8.2065352168E-001	+3.3529083567E-001	+8.2046011992E-001	-4.0773291346E-001	+2.1027532390E-001
49800000000.000	-4.3355415556E-001	+1.4887502055E-001	+3.4129320878E-001	+8.2703354419E-001	+3.4473927818E-001	+8.2530779322E-001	-4.0534368308E-001	+2.2056706130E-001
49850000000.000	-4.1792671006E-001	+1.6694758217E-001	+3.5470407993E-001	+8.1335348626E-001	+3.6129868261E-001	+8.1172762872E-001	-3.9238225981E-001	+2.3852048423E-001
49900000000.000	-3.9722743635E-001	+1.4193895372E-001	+3.4901080285E-001	+8.2096174577E-001	+3.5198191363E-001	+8.2040019899E-001	-3.6511140643E-001	+2.1995907043E-001
49950000000.000	-3.9660983287E-001	+1.3705462973E-001	+3.6036531684E-001	+8.1731693457E-001	+3.6360534398E-001	+8.1651335237E-001	-3.6346558490E-001	+2.1150841597E-001
50000000000.000	-4.0934706027E-001	+1.4298562817E-001	+3.6654670607E-001	+8.0745265843E-001	+3.7001380741E-001	+8.0665281538E-001	-3.7849151536E-001	+2.1593061677E-001
50050000000.000	-3.9843613117E-001	+1.4151505776E-001	+3.6872743230E-001	+8.0583414678E-001	+3.7404910031E-001	+8.0376436101E-001	-3.6718369800E-001	+2.1573536380E-001
50100000000.000	-3.9302628539E-001	+1.2770961769E-001	+3.7743048155E-001	+8.0041229760E-001	+3.8249113383E-001	+7.9794983496E-001	-3.5986977795E-001	+2.0337224266E-001
50150000000.000	-3.8935907053E-001	+1.3311053085E-001	+3.7713268517E-001	+7.9219214308E-001	+3.7985393026E-001	+7.9120920473E-001	-3.5545247174E-001	+2.0916330903E-001
50200000000.000	-4.0579855897E-001	+1.0496930770E-001	+3.7842230819E-001	+7.7103400192E-001	+3.8058671786E-001	+7.7032317951E-001	-3.6798237097E-001	+1.7821577612E-001
50250000000.000	-4.2215884733E-001	+1.1909122223E-001	+3.4995477530E-001	+7.7159162904E-001	+3.5407876657E-001	+7.7033484817E-001	-3.8687351343E-001	+1.9140488360E-001
50300000000.000	-4.2666004498E-001	+1.3575032494E-001	+3.3686230716E-001	+7.9583470940E-001	+3.4509578185E-001	+7.9347195278E-001	-3.9056105220E-001	+2.0675298705E-001
50350000000.000	-4.1848515459E-001	+1.4636878187E-001	+3.5104048280E-001	+8.1102218407E-001	+3.5581962578E-001	+8.1033021231E-001	-3.8170750256E-001	+2.1676471128E-001
50400000000.000	-4.1406878680E-001	+1.4684952784E-001	+3.6318620471E-001	+8.1677870255E-001	+3.6630514481E-001	+8.1580880628E-001	-3.7718990773E-001	+2.1644269065E-001
50450000000.000	-4.1932421997E-001	+1.4538234654E-001	+3.6339830822E-001	+8.2920349255E-001	+3.6586589008E-001	+8.2826395228E-001	-3.8342383508E-001	+2.1283808289E-001
50500000000.000	-4.0626165588E-001	+1.6103594313E-001	+4.0872544688E-001	+8.2103649253E-001	+4.1466671967E-001	+8.1823737714E-001	-3.6971768677E-001	+2.2633830968E-001
50550000000.000	-4.1164939334E-001	+1.6288871880E-001	+4.1305701163E-001	+8.2075149744E-001	+4.1513181285E-001	+8.1957424381E-001	-3.8231794192E-001	+2.2646830894E-001
50600000000.000	-4.0502049735E-001	+1.6166811458E-001	+4.3752264162E-001	+8.2095095800E-001	+4.4374894580E-001	+8.1848956183E-001	-3.7747561834E-001	+2.4147456555E-001
50650000000.000	-4.0493971993E-001	+1.6976326275E-001	+4.4471017972E-001	+7.8968711224E-001	+4.5321211219E-001	+7.8518549203E-001	-3.6669615891E-001	+2.4857847524E-001
50700000000.000	-4.0104505295E-001	+1.8189658014E-001	+4.4138154384E-001	+7.6757911061E-001	+4.4317315319E-001	+7.6621980055E-001	-3.5909902414E-001	+2.5469357898E-001
50750000000.000	-3.8304918028E-001	+1.9250501793E-001	+4.2567440176E-001	+7.5554470149E-001	+4.2825486247E-001	+7.5411000007E-001	-3.4070270567E-001	+2.6096270672E-001
50800000000.000	-3.6008824421E-001	+1.8954385229E-001	+4.0350510975E-001	+7.6249742658E-001	+4.0779597627E-001	+7.6049553938E-001	-3.2549336257E-001	+2.5547416590E-001
50850000000.000	-3.4994658341E-001	+1.5394139773E-001	+4.1469381126E-001	+7.8277125379E-001	+4.1726116966E-001	+7.8212753730E-001	-3.1381041765E-001	+2.2569086378E-001
50900000000.000	-3.6119224912E-001	+1.4288803407E-001	+4.3263642943E-001	+7.7787879014E-001	+4.3679234489E-001	+7.7640916223E-001	-3.2141019614E-001	+2.1294436340E-001
50950000000.000	-3.8841871555E-001	+1.2560883941E-001	+4.0983139150E-001	+7.5916700827E-001	+4.1463584165E-001	+7.5718476316E-001	-3.5276679047E-001	+1.9238417212E-001
51000000000.000	-3.9022072069E-001	+1.5293040800E-001	+4.1971134383E-001	+7.8208463941E-001	+4.2415757425E-001	+7.8013620003E-001	-3.5688179834E-001	+2.2276839173E-001
51050000000.000	-3.8873262010E-001	+1.5342389867E-001	+4.3096606050E-001	+7.8054709248E-001	+4.3477255869E-001	+7.7963366820E-001	-3.5275156970E-001	+2.2533322201E-001
51100000000.000	-3.9327683626E-001	+1.5697553709E-001	+4.3586940593E-001	+7.7640466629E-001	+4.4007470334E-001	+7.7484032490E-001	-3.5461419215E-001	+2.2905688040E-001
51150000000.000	-3.9078562837E-001	+1.6325341513E-001	+4.3298848491E-001	+7.7379889269E-001	+4.3759798411E-001	+7.7152229256E-001	-3.5182944537E-001	+2.3490898993E-001
51200000000.000	-3.8879408592E-001	+1.6537366357E-001	+4.3430932664E-001	+7.8096354352E-001	+4.3540102981E-001	+7.8101570249E-001	-3.4844408329E-001	+2.3698260348E-001
51250000000.000	-3.8905311730E-001	+1.6488784044E-001	+4.3525078847E-001	+7.9527064932E-001	+4.3802330604E-001	+7.9424018303E-001	-3.4974715375E-001	+2.3530943250E-001
51300000000.000	-4.3768829690E-001	+1.7303947013E-001	+5.0274581275E-001	+8.3568234655E-001	+5.0621593550E-001	+8.3435086490E-001	-3.5525556090E-001	+2.6465833063E-001
51350000000.000	-3.9166778934E-001	+2.1399459445E-001	+5.0012691557E-001	+7.7056980898E-001	+5.0519686658E-001	+7.6829697154E-001	-3.4463301479E-001	+2.7314858836E-001
51400000000.000	-3.6774969765E-001	+2.0984458725E-001	+4.9700996302E-001	+7.5298154260E-001	+4.9805432144E-001	+7.5301528923E-001	-3.2408095150E-001	+2.7029967499E-001
51450000000.000	-3.5045072189E-001	+2.1625668457E-001	+4.8819845909E-001	+7.3373873244E-001	+4.9223365836E-001	+7.3174362410E-001	-3.1271393876E-001	+2.7447485803E-001
51500000000.000	-3.3980857250E-001	+1.7523539864E-001	+4.8150670463E-001	+7.5837371827E-001	+4.8164070400E-001	+7.5941709222E-001	-2.9713904826E-001	+2.4266381939E-001
51550000000.000	-3.4415666977E-001	+1.7611765251E-001	+4.9334304205E-001	+7.4919158860E-001	+4.9385153429E-001	+7.5107370822E-001	-3.0008489554E-001	+2.3971149779E-001
51600000000.000	-3.4901956229E-001	+1.6102525556E-001	+4.9810297874E-001	+7.3739497780E-001	+4.9628348415E-001	+7.3884284845E-001	-3.0391989550E-001	+2.2104212012E-001
51650000000.000	-3.4776368767E-001	+1.6690020607E-001	+4.9457524479E-001	+7.2499823982E-001	+4.9306957962E-001	+7.2649505382E-001	-3.0784357987E-001	+2.2511248756E-001
51700000000.000	-3.6045566744E-001	+1.5987089358E-001	+4.7203348969E-001	+7.2067533012E-001	+4.7342406448E-001	+7.2097034348E-001	-3.2525778070E-001	+2.2133839680E-001
51750000000.000	-3.6958308005E-001	+1.7497864294E-001	+4.6094178029E-001	+7.4284068940E-001	+4.6298284221E-001	+7.4242296720E-001	-3.3311569712E-001	+2.4163585742E-001
51800000000.000	-3.6703947524E-001	+1.7496292405E-001	+4.7705585566E-001	+7.5641329601E-001	+4.7862874151E-001	+7.5599513107E-001	-3.2474301477E-001	+2.4011264982E-001
51850000000.000	-3.6033266871E-001	+1.7770647082E-001	+4.9198935426E-001	+7.6175475912E-001	+4.8955961205E-001	+7.6376633433E-001	-3.1786437343E-001	+2.4277053264E-001
51900000000.000	-3.6592923818E-001	+1.7400940019E-001	+5.0552918776E-001	+7.6299480691E-001	+5.0279958906E-001	+7.6583531895E-001	-3.2584320444E-001	+2.4109632178E-001
51950000000.000	-3.7308071228E-001	+1.8398817636E-001	+5.1347159697E-001	+7.5408852166E-001	+5.1280623760E-001	+7.5521663282E-001	-3.3046433458E-001	+2.4728174493E-001
52000000000.000	-3.7407990458E-001	+1.9097769004E-001	+5.1571951393E-001	+7.5875972860E-001	+5.1669460888E-001	+7.5897830487E-001	-3.3036885111E-001	+2.5636255853E-001
52050000000.000	-3.8333199103E-001	+2.0367819279E-001	+5.3852369296E-001	+7.6617996737E-001	+5.3729329178E-001	+7.6764482837E-001	-3.3302885491E-001	+2.6467684095E-001
52100000000.000	-3.7943260859E-001	+2.3710351022E-001	+5.6912413648E-001	+7.6536307661E-001	+5.6943654148E-001	+7.6547655662E-001	-3.3860606914E-001	+2.9512276647E-001
52150000000.000	-3.4040577457E-001	+2.4124582804E-001	+5.6385989471E-001	+6.9543123548E-001	+5.6462943574E-001	+6.9543355943E-001	-3.0317714937E-001	+3.0564038596E-001
52200000000.000	-3.2097783113E-001	+2.3070784309E-001	+5.3974336312E-001	+6.9363954675E-001	+5.4118910478E-001	+6.9312772357E-001	-2.7751703897E-001	+3.0035893832E-001
52250000000.000	-3.0092887594E-001	+2.1251504660E-001	+5.1946765763E-001	+7.0790987610E-001	+5.1860567734E-001	+7.0887419749E-001	-2.4843376222E-001	+2.7772243055E-001
52300000000.000	-3.0716495774E-001	+1.9124387737E-001	+5.3272216982E-001	+7.2501572460E-001	+5.3063636941E-001	+7.2692400529E-001	-2.5608240605E-001	+2.4827278817E-001
52350000000.000	-3.1994401923E-001	+1.8669069944E-001	+5.4623606037E-001	+7.2331003420E-001	+5.4563337582E-001	+7.2535679957E-001	-2.7399892811E-001	+2.4156686606E-001
52400000000.000	-3.2206036597E-001	+1.9476669022E-001	+5.5302911786E-001	+7.1800590005E-001	+5.5367504508E-001	+7.1767277547E-001	-2.7756934240E-001	+2.5129456281E-001
52450000000.000	-3.1553752864E-001	+1.8535528607E-001	+5.6280807109E-001	+7.1171941306E-001	+5.6340787956E-001	+7.1197169458E-001	-2.7244101698E-001	+2.4170644090E-001
52500000000.000	-3.2239924864E-001	+1.6998666782E-001	+5.6426713036E-001	+6.8822587247E-001	+5.6430818856E-001	+6.8892846766E-001	-2.8232966976E-001	+2.2825323120E-001
52550000000.000	-3.3976554610E-001	+1.8725286732E-001	+5.4656458731E-001	+6.9647698947E-001	+5.4590726454E-001	+6.9716629320E-001	-2.9795582209E-001	+2.4893282478E-001
52600000000.000	-3.3786213265E-001	+1.9733358044E-001	+5.4504980752E-001	+7.0303879313E-001	+5.4411402029E-001	+7.0437593390E-001	-2.9332198755E-001	+2.5996386594E-001
52650000000.000	-3.3445983878E-001	+1.9972211187E-001	+5.5078742663E-001	+7.0889816027E-001	+5.4758932939E-001	+7.1265221535E-001	-2.8770478631E-001	+2.6079885331E-001
52700000000.000	-3.3504721920E-001	+2.0142902891E-001	+5.5571010095E-001	+7.1484493642E-001	+5.5328435374E-001	+7.1748459033E-001	-2.8812531363E-001	+2.6152431138E-001
52750000000.000	-3.3534435073E-001	+2.1049334348E-001	+5.6296552136E-001	+7.2300520692E-001	+5.6462378736E-001	+7.2317764009E-001	-2.8883128180E-001	+2.7082082723E-001
52800000000.000	-3.2565508269E-001	+2.2262679368E-001	+5.8455869260E-001	+7.2570768843E-001	+5.8971477542E-001	+7.2206333414E-001	-2.7543936094E-001	+2.8364879681E-001
52850000000.000	-3.0995627127E-001	+2.1743530116E-001	+5.9399448219E-001	+7.1174538129E-001	+5.9414635595E-001	+7.1143317503E-001	-2.5833817273E-001	+2.7511233285E-001
