! Python used to change reference impedance from 50 to 1.
# Hz S RI R 1
47000000000.000	-4.6239061363E-001	+5.2430119716E-002	+2.6617017878E-001	+8.1588903834E-001	+9.0072199184E-002	+8.5605182506E-001	-4.6017622164E-001	+1.3861773376E-001
47050000000.000	-4.5695575319E-001	+5.1760886028E-002	+2.1404907586E-001	+8.4326884119E-001	+9.6531425541E-002	+8.6555489897E-001	-4.4524609987E-001	+1.3289138267E-001
47100000000.000	-4.5731469491E-001	+4.2257564061E-002	+1.8532687107E-001	+8.5292961008E-001	+9.8464771078E-002	+8.6851853417E-001	-4.4281631220E-001	+1.1890473564E-001
47150000000.000	-4.7098660522E-001	+2.9730534503E-002	+1.4554085594E-001	+8.7900590364E-001	+8.1791858955E-002	+8.8796976249E-001	-4.5934638433E-001	+1.0487593582E-001
47200000000.000	-4.4848000333E-001	+5.3787081279E-002	+1.9710578254E-001	+8.6020670300E-001	+1.5502789418E-001	+8.6980476921E-001	-4.3392132253E-001	+1.2561512453E-001
47250000000.000	-4.4648765627E-001	+3.7551488261E-002	+1.7596192409E-001	+8.4822666353E-001	+1.4625258342E-001	+8.5495736669E-001	-4.3318333041E-001	+1.0933828225E-001
47300000000.000	-4.5746175979E-001	+2.5392599732E-002	+1.5472948435E-001	+8.3441196154E-001	+1.3712615617E-001	+8.3848775356E-001	-4.4534926516E-001	+9.5383753323E-002
47350000000.000	-4.5761101019E-001	+2.5424246133E-002	+1.1853071259E-001	+8.5351969313E-001	+1.1342767870E-001	+8.5527633649E-001	-4.4853742748E-001	+9.8484697378E-002
47400000000.000	-4.6277834645E-001	+2.2936117004E-002	+1.2163147352E-001	+8.7689287474E-001	+1.2733784261E-001	+8.7678318174E-001	-4.5174355365E-001	+9.9450292191E-002
47450000000.000	-4.6453175176E-001	+4.2698641787E-002	+1.4053019339E-001	+8.6638374678E-001	+1.3371042621E-001	+8.6774119736E-001	-4.5335098318E-001	+1.1777769463E-001
47500000000.000	-4.6780810974E-001	+3.7308915915E-002	+1.4615319418E-001	+8.7201395101E-001	+1.3724120512E-001	+8.7418477073E-001	-4.5410201440E-001	+1.1686313607E-001
47550000000.000	-4.7318858898E-001	+6.7137306345E-002	+1.5189916089E-001	+8.8378029303E-001	+1.3634059425E-001	+8.8690117374E-001	-4.4894176066E-001	+1.4531866767E-001
47600000000.000	-4.6838127253E-001	+5.9276610587E-002	+1.7799307654E-001	+8.8322866511E-001	+1.8560502850E-001	+8.8228048688E-001	-4.4731780418E-001	+1.2912188546E-001
47650000000.000	-4.6208062105E-001	+7.4639947502E-002	+1.8305168484E-001	+8.6268151472E-001	+1.8913833179E-001	+8.6190677083E-001	-4.4251943785E-001	+1.4355892529E-001
47700000000.000	-4.2452549928E-001	+6.0498306098E-002	+2.1103593920E-001	+8.5422542122E-001	+2.1395048121E-001	+8.5446854977E-001	-4.0868321283E-001	+1.2542063101E-001
47750000000.000	-4.8833616027E-001	+1.9552692952E-002	+1.4505990914E-001	+8.0687565495E-001	+1.4426207809E-001	+8.0770043177E-001	-4.7788840949E-001	+9.5763598475E-002
47800000000.000	-4.7205959648E-001	+6.7040145860E-002	+1.6366996350E-001	+8.3990095717E-001	+1.6172421675E-001	+8.4122653577E-001	-4.5460881812E-001	+1.4063140099E-001
47850000000.000	-4.4232785341E-001	+7.7745533583E-002	+1.5852860258E-001	+8.3688363400E-001	+1.5814081618E-001	+8.3780523163E-001	-4.2394750314E-001	+1.4908233302E-001
47900000000.000	-4.2946886945E-001	+5.6838227946E-002	+1.5120524140E-001	+8.5512397336E-001	+1.5125333462E-001	+8.5579209998E-001	-4.1335148540E-001	+1.2553831406E-001
47950000000.000	-4.4378014145E-001	+4.3334645253E-002	+1.5789897023E-001	+8.6519991953E-001	+1.5834886057E-001	+8.6560979919E-001	-4.3190771876E-001	+1.0992733327E-001
48000000000.000	-4.7689524160E-001	-1.4970204811E-002	+1.6158908477E-001	+9.5825623544E-001	+1.8123228025E-001	+9.5505578901E-001	-4.7814849933E-001	+1.5191474750E-001
48050000000.000	-4.5525932910E-001	+7.0601084047E-002	+2.1400538059E-001	+8.5282468942E-001	+2.1619588744E-001	+8.5245590660E-001	-4.3517346764E-001	+1.3570176176E-001
48100000000.000	-4.5173874267E-001	+6.0996716873E-002	+2.0579542763E-001	+8.5098896006E-001	+2.0551617498E-001	+8.5141678152E-001	-4.3460275523E-001	+1.3139136621E-001
48150000000.000	-4.7534296130E-001	+6.8763100507E-002	+2.1575200914E-001	+8.3942755742E-001	+2.2330192897E-001	+8.3798099284E-001	-4.5701858915E-001	+1.4155684340E-001
48200000000.000	-4.7458389584E-001	+8.2185175442E-002	+2.1100089956E-001	+8.3084965583E-001	+2.1654826610E-001	+8.3014427122E-001	-4.5572551356E-001	+1.5458465091E-001
48250000000.000	-4.0953897514E-001	+1.1119872537E-001	+1.4713677429E-001	+8.1467884249E-001	+1.4989819120E-001	+8.1472184648E-001	-3.9512008569E-001	+1.7841471588E-001
48300000000.000	-4.4757463196E-001	+7.0274562865E-002	+1.8854750709E-001	+8.7918618615E-001	+1.9088840338E-001	+8.7944390322E-001	-4.3107657750E-001	+1.4532719108E-001
48350000000.000	-4.4031685263E-001	+7.3694676615E-002	+2.1542424859E-001	+8.7262637811E-001	+2.2207724051E-001	+8.7169714834E-001	-4.2184358087E-001	+1.4767922650E-001
48400000000.000	-4.5051586471E-001	+8.8152414257E-002	+2.2422408748E-001	+8.5440049877E-001	+2.3668609430E-001	+8.5131317597E-001	-4.3014942264E-001	+1.6177802743E-001
48450000000.000	-4.3306057557E-001	+8.1153893129E-002	+2.3023789117E-001	+8.5140885998E-001	+2.3760132627E-001	+8.4973412703E-001	-4.1230320755E-001	+1.5360547671E-001
48500000000.000	-4.5092437601E-001	+8.4552496672E-002	+2.2707725431E-001	+8.4125842124E-001	+2.3345282140E-001	+8.4021382626E-001	-4.3109219919E-001	+1.5684089352E-001
48550000000.000	-4.3673224210E-001	+8.0847679710E-002	+2.3610355492E-001	+8.4488312982E-001	+2.4193274629E-001	+8.4408720599E-001	-4.1639904085E-001	+1.5255262435E-001
48600000000.000	-4.3895505444E-001	+8.1639063977E-002	+2.3799291581E-001	+8.3776158815E-001	+2.4519048585E-001	+8.3599431419E-001	-4.1860721684E-001	+1.5251367643E-001
48650000000.000	-4.4323929967E-001	+8.5215364428E-002	+2.3300576948E-001	+8.2935881332E-001	+2.3915777209E-001	+8.2817795482E-001	-4.2419623396E-001	+1.5608017212E-001
48700000000.000	-4.3544166459E-001	+8.5216036234E-002	+2.3644575569E-001	+8.3687632387E-001	+2.4105422212E-001	+8.3636093657E-001	-4.1651085547E-001	+1.5796992101E-001
48750000000.000	-4.3708485158E-001	+7.3502588273E-002	+2.3679816115E-001	+8.3065645780E-001	+2.4238299106E-001	+8.2973454228E-001	-4.1655285618E-001	+1.4755654783E-001
48800000000.000	-4.5797865109E-001	+7.0167821006E-002	+2.1512753085E-001	+8.3464857923E-001	+2.2432702567E-001	+8.3267725006E-001	-4.3621947288E-001	+1.4265550941E-001
48850000000.000	-4.5285055423E-001	+1.1882696654E-001	+2.6670127936E-001	+8.5611515613E-001	+2.7535440505E-001	+8.5379598773E-001	-4.2835574855E-001	+1.9170251502E-001
48900000000.000	-4.4249867380E-001	+1.0002600432E-001	+2.5290933205E-001	+8.5009210915E-001	+2.5999268997E-001	+8.4846793682E-001	-4.1912633877E-001	+1.7462197327E-001
48950000000.000	-4.4420887455E-001	+9.9859887742E-002	+2.5975852118E-001	+8.4809824009E-001	+2.6464165869E-001	+8.4762650809E-001	-4.1823552831E-001	+1.7510386483E-001
49000000000.000	-4.4067097606E-001	+9.4981569462E-002	+2.5777192163E-001	+8.5616256155E-001	+2.6829363766E-001	+8.5393446906E-001	-4.1220949087E-001	+1.6927190023E-001
49050000000.000	-4.5317382392E-001	+9.7702947993E-002	+2.7280037421E-001	+8.6452735888E-001	+2.8114091910E-001	+8.6118922439E-001	-4.1999679500E-001	+1.7067404368E-001
49100000000.000	-4.5261777546E-001	+1.2155704078E-001	+3.0003714071E-001	+8.5929284673E-001	+3.0612392324E-001	+8.5712264571E-001	-4.1840070709E-001	+1.8340012198E-001
49150000000.000	-4.4239914888E-001	+1.2779292109E-001	+3.0738068657E-001	+8.3639032621E-001	+3.1973755966E-001	+8.3226381994E-001	-4.1726140402E-001	+1.8816465014E-001
49200000000.000	-4.3660056280E-001	+1.4237544854E-001	+3.0767032913E-001	+8.1957909726E-001	+3.1591161741E-001	+8.1665847887E-001	-4.1442932238E-001	+2.0439361462E-001
49250000000.000	-4.1499963052E-001	+1.3631868089E-001	+3.1332804677E-001	+8.0537133156E-001	+3.2013629714E-001	+8.0280357544E-001	-3.9624805226E-001	+1.9876743804E-001
49300000000.000	-4.1178569677E-001	+1.1786710585E-001	+2.7739011512E-001	+7.7383797915E-001	+2.8348077951E-001	+7.7206609395E-001	-4.0349131102E-001	+1.8708353349E-001
49350000000.000	-3.8708193551E-001	+1.1375135419E-001	+2.7228907394E-001	+8.1432961705E-001	+2.7763629527E-001	+8.1319569504E-001	-3.6727510494E-001	+1.8896031160E-001
49400000000.000	-4.1577109057E-001	+9.2712080941E-002	+2.6516974319E-001	+8.2556564400E-001	+2.6844296676E-001	+8.2490530380E-001	-3.9182339386E-001	+1.7273895925E-001
49450000000.000	-4.1676654130E-001	+1.0117712939E-001	+2.8461918468E-001	+8.3375799361E-001	+2.9185911370E-001	+8.3153283801E-001	-3.8994522288E-001	+1.7574376447E-001
49500000000.000	-4.1711629718E-001	+9.7021410842E-002	+2.9079720906E-001	+8.3369744318E-001	+3.0051451312E-001	+8.3072832881E-001	-3.9049778101E-001	+1.7047631204E-001
49550000000.000	-4.3481356343E-001	+8.3462279740E-002	+2.9850010690E-001	+8.5515047843E-001	+3.0580795839E-001	+8.5369794959E-001	-4.1514546295E-001	+1.6199697656E-001
49600000000.000	-4.3870822414E-001	+1.0571385254E-001	+3.0963459168E-001	+8.2244146269E-001	+3.1693154920E-001	+8.2037843735E-001	-4.1091097860E-001	+1.7664536310E-001
49650000000.000	-4.3836102569E-001	+1.0792469053E-001	+2.9526494403E-001	+8.3290063500E-001	+3.0670041976E-001	+8.2933867565E-001	-4.2172360326E-001	+1.7908105213E-001
49700000000.000	-4.4592881717E-001	+1.4355301604E-001	+3.3177903016E-001	+8.2110253082E-001	+3.3838946502E-001	+8.1867536830E-001	-4.1291091958E-001	+1.9762101868E-001
49750000000.000	-4.3763121333E-001	+1.3923109325E-001	+3.2404688220E-001	+8.2401604470E-001	+3.2906719016E-001	+8.2235951968E-001	-4.1123387356E-001	+2.0501751468E-001
49800000000.000	-4.3519359002E-001	+1.4779458881E-001	+3.3101517724E-001	+8.3073747282E-001	+3.3855405538E-001	+8.2735184664E-001	-4.0911815796E-001	+2.1524880572E-001
49850000000.000	-4.2094466193E-001	+1.6541932867E-001	+3.4557381386E-001	+8.1799537561E-001	+3.5613337293E-001	+8.1473894239E-001	-3.9682754972E-001	+2.3258666127E-001
49900000000.000	-3.9777159340E-001	+1.4252798965E-001	+3.3771747795E-001	+8.2426474463E-001	+3.4479683767E-001	+8.2198639953E-001	-3.6832791676E-001	+2.1561766216E-001
49950000000.000	-3.9779168316E-001	+1.3681159966E-001	+3.5059604881E-001	+8.2124389371E-001	+3.5709892261E-001	+8.1910391570E-001	-3.6750969162E-001	+2.0666406553E-001
50000000000.000	-4.1053423527E-001	+1.4280879768E-001	+3.5621849688E-001	+8.1150847169E-001	+3.6416180088E-001	+8.0879839072E-001	-3.8240881765E-001	+2.1139014888E-001
50050000000.000	-3.9987003026E-001	+1.4138611879E-001	+3.5837589533E-001	+8.1002102529E-001	+3.6826261696E-001	+8.0604919910E-001	-3.7117017658E-001	+2.1122247728E-001
50100000000.000	-3.9432465199E-001	+1.2786741242E-001	+3.6730024516E-001	+8.0486652352E-001	+3.7707240793E-001	+8.0033954084E-001	-3.6379853079E-001	+1.9899674796E-001
50150000000.000	-3.9053081923E-001	+1.3348024081E-001	+3.6699978705E-001	+7.9679890190E-001	+3.7496962913E-001	+7.9351912789E-001	-3.5939959031E-001	+2.0511073063E-001
50200000000.000	-4.0622854928E-001	+1.0527197034E-001	+3.6890076062E-001	+7.7588448149E-001	+3.7625665292E-001	+7.7277664408E-001	-3.7122247051E-001	+1.7436326940E-001
50250000000.000	-4.2188845113E-001	+1.1829368370E-001	+3.4101593655E-001	+7.7475852661E-001	+3.4996691302E-001	+7.7149110607E-001	-3.8966711381E-001	+1.8646030799E-001
50300000000.000	-4.2789853553E-001	+1.3474212656E-001	+3.2656747474E-001	+7.9873646681E-001	+3.3978921769E-001	+7.9440876829E-001	-3.9423469383E-001	+2.0153141031E-001
50350000000.000	-4.1984431725E-001	+1.4571433672E-001	+3.4016099604E-001	+8.1453725252E-001	+3.5008588872E-001	+8.1180599850E-001	-3.8562964100E-001	+2.1189177778E-001
50400000000.000	-4.1538413433E-001	+1.4621984908E-001	+3.5200905062E-001	+8.2077917812E-001	+3.6041411296E-001	+8.1763798932E-001	-3.8107858254E-001	+2.1167158848E-001
50450000000.000	-4.2073478636E-001	+1.4472563822E-001	+3.5263387195E-001	+8.3305115676E-001	+3.5994851582E-001	+8.3018262453E-001	-3.8727803581E-001	+2.0784224416E-001
50500000000.000	-4.0795156382E-001	+1.6066674150E-001	+3.9786061114E-001	+8.2562101483E-001	+4.0878301190E-001	+8.2045391068E-001	-3.7400682502E-001	+2.2159220637E-001
50550000000.000	-4.1321268731E-001	+1.6254418888E-001	+4.0231563605E-001	+8.2542059154E-001	+4.0914747400E-001	+8.2194771641E-001	-3.8661518855E-001	+2.2175124040E-001
50600000000.000	-4.0649024035E-001	+1.6144998247E-001	+4.2709375902E-001	+8.2584292341E-001	+4.3727595589E-001	+8.2136436377E-001	-3.8199847864E-001	+2.3699496703E-001
50650000000.000	-4.0626223459E-001	+1.6924526544E-001	+4.3422706225E-001	+7.9500476507E-001	+4.4742719213E-001	+7.8803033359E-001	-3.7108031899E-001	+2.4424641650E-001
50700000000.000	-4.0268230045E-001	+1.8106577286E-001	+4.3183954043E-001	+7.7258649573E-001	+4.3787775524E-001	+7.6898846087E-001	-3.6357814926E-001	+2.5025614192E-001
50750000000.000	-3.8533355627E-001	+1.9179896089E-001	+4.1675359915E-001	+7.6028783776E-001	+4.2286470906E-001	+7.5691669781E-001	-3.4579773473E-001	+2.5681256496E-001
50800000000.000	-3.6238058323E-001	+1.8975452480E-001	+3.9460235567E-001	+7.6592848818E-001	+4.0235308975E-001	+7.6214083497E-001	-3.3014594915E-001	+2.5207462189E-001
50850000000.000	-3.5155498789E-001	+1.5414949756E-001	+4.0481385081E-001	+7.8672513015E-001	+4.1074816695E-001	+7.8433099676E-001	-3.1786249442E-001	+2.2220273839E-001
50900000000.000	-3.6284802459E-001	+1.4313208019E-001	+4.2243914273E-001	+7.8283121095E-001	+4.3026908983E-001	+7.7936764167E-001	-3.2542932981E-001	+2.0963620683E-001
50950000000.000	-3.8876761233E-001	+1.2289614646E-001	+4.0149062500E-001	+7.6048061996E-001	+4.1005792377E-001	+7.5659327595E-001	-3.5488134204E-001	+1.8499254649E-001
51000000000.000	-3.9227766089E-001	+1.5274209884E-001	+4.0887736490E-001	+7.8641239291E-001	+4.1707332169E-001	+7.8260297620E-001	-3.6178781579E-001	+2.1826192539E-001
51050000000.000	-3.9040065636E-001	+1.5322792299E-001	+4.2116018877E-001	+7.8507043281E-001	+4.2824457192E-001	+7.8230436553E-001	-3.5735715941E-001	+2.2108931206E-001
51100000000.000	-3.9498046540E-001	+1.5651153085E-001	+4.2552933375E-001	+7.8139732655E-001	+4.3350098079E-001	+7.7771486540E-001	-3.5918848933E-001	+2.2476814925E-001
51150000000.000	-3.9279330965E-001	+1.6277610360E-001	+4.2264555282E-001	+7.7870978567E-001	+4.3183105093E-001	+7.7391354261E-001	-3.5657720344E-001	+2.3064227946E-001
51200000000.000	-3.9099737705E-001	+1.6510504872E-001	+4.2404759928E-001	+7.8578113810E-001	+4.2910784242E-001	+7.8363197178E-001	-3.5336134523E-001	+2.3288825316E-001
51250000000.000	-3.9124252376E-001	+1.6487461831E-001	+4.2495509624E-001	+8.0001981404E-001	+4.3154703010E-001	+7.9703447530E-001	-3.5467883683E-001	+2.3138160391E-001
51300000000.000	-4.3971416483E-001	+1.7314566788E-001	+4.9186218556E-001	+8.4137159054E-001	+4.9961467335E-001	+8.3762196938E-001	-3.6042431185E-001	+2.6116841580E-001
51350000000.000	-3.9353063116E-001	+2.1397596531E-001	+4.8970625408E-001	+7.7645376513E-001	+4.9954466951E-001	+7.7122944056E-001	-3.4942678025E-001	+2.6948801767E-001
51400000000.000	-3.6966295504E-001	+2.0968951457E-001	+4.8686683426E-001	+7.5883102067E-001	+4.9315273998E-001	+7.5543096389E-001	-3.2886011718E-001	+2.6667930373E-001
51450000000.000	-3.5390045727E-001	+2.1528293740E-001	+4.7936398348E-001	+7.3995587951E-001	+4.8766029325E-001	+7.3518854307E-001	-3.1788047436E-001	+2.7035665048E-001
51500000000.000	-3.4057435831E-001	+1.7539774285E-001	+4.7100344418E-001	+7.6373607376E-001	+4.7532956235E-001	+7.6215721748E-001	-3.0112008300E-001	+2.3862572369E-001
51550000000.000	-3.4586621627E-001	+1.7601432459E-001	+4.8346707040E-001	+7.5460600626E-001	+4.8793583155E-001	+7.5394643594E-001	-3.0480004399E-001	+2.3585133906E-001
51600000000.000	-3.5073859544E-001	+1.6076294391E-001	+4.8844039080E-001	+7.4260713460E-001	+4.9147965722E-001	+7.4075912930E-001	-3.0849806376E-001	+2.1699081711E-001
51650000000.000	-3.4960012778E-001	+1.6756365207E-001	+4.8450147999E-001	+7.3128130117E-001	+4.8810283362E-001	+7.2931913946E-001	-3.1233884055E-001	+2.2201055668E-001
51700000000.000	-3.6157300983E-001	+1.5992158046E-001	+4.6273338557E-001	+7.2577375054E-001	+4.6903223733E-001	+7.2289905408E-001	-3.2905158779E-001	+2.1719151793E-001
51750000000.000	-3.7132244716E-001	+1.7488231976E-001	+4.4967182903E-001	+7.4776422083E-001	+4.5738706935E-001	+7.4383724131E-001	-3.3812347387E-001	+2.3740662888E-001
51800000000.000	-3.6887473814E-001	+1.7472699181E-001	+4.6571959272E-001	+7.6188175503E-001	+4.7261390030E-001	+7.5818956938E-001	-3.2979415927E-001	+2.3624742886E-001
51850000000.000	-3.6221925853E-001	+1.7758127822E-001	+4.8098404007E-001	+7.6757220848E-001	+4.8318979174E-001	+7.6658595936E-001	-3.2291309797E-001	+2.3908501856E-001
51900000000.000	-3.6778639845E-001	+1.7377258430E-001	+4.9419793895E-001	+7.6942822277E-001	+4.9633671182E-001	+7.6902227240E-001	-3.3087497036E-001	+2.3738507632E-001
51950000000.000	-3.7508774483E-001	+1.8367925001E-001	+5.0222295000E-001	+7.6072231359E-001	+5.0691336916E-001	+7.5825441610E-001	-3.3552689283E-001	+2.4366687055E-001
52000000000.000	-3.7635195129E-001	+1.9070865699E-001	+5.0463429182E-001	+7.6531764914E-001	+5.1035776224E-001	+7.6227216225E-001	-3.3554282812E-001	+2.5275981164E-001
52050000000.000	-3.8564016054E-001	+2.0354227839E-001	+5.2782630206E-001	+7.7271433469E-001	+5.3110501681E-001	+7.7100791508E-001	-3.3818364534E-001	+2.6111462669E-001
52100000000.000	-3.8184055033E-001	+2.3688407754E-001	+5.5778210190E-001	+7.7287073462E-001	+5.6333388212E-001	+7.6913582933E-001	-3.4397913319E-001	+2.9120746645E-001
52150000000.000	-3.4359611522E-001	+2.4111592477E-001	+5.5455613837E-001	+7.0271835266E-001	+5.6001083473E-001	+6.9908637111E-001	-3.0920673204E-001	+3.0193335183E-001
52200000000.000	-3.2368405057E-001	+2.3055868192E-001	+5.3014770938E-001	+7.0076402165E-001	+5.3631618993E-001	+6.9682869249E-001	-2.8394911975E-001	+2.9659461857E-001
52250000000.000	-3.0322212814E-001	+2.1351180985E-001	+5.0871844806E-001	+7.1393837906E-001	+5.1328175733E-001	+7.1105345743E-001	-2.5445882447E-001	+2.7572640781E-001
52300000000.000	-3.0897420937E-001	+1.9162343065E-001	+5.2142341827E-001	+7.3177594019E-001	+5.2519605817E-001	+7.2953754166E-001	-2.6109163930E-001	+2.4594823681E-001
52350000000.000	-3.2198483285E-001	+1.8680219213E-001	+5.3576117944E-001	+7.3007953605E-001	+5.4029073084E-001	+7.2829427817E-001	-2.7879219653E-001	+2.3897414779E-001
52400000000.000	-3.2430872532E-001	+1.9487211138E-001	+5.4227766159E-001	+7.2493835164E-001	+5.4824727675E-001	+7.2086128233E-001	-2.8247078815E-001	+2.4855578100E-001
52450000000.000	-3.1793848956E-001	+1.8568105680E-001	+5.5149129778E-001	+7.1942317593E-001	+5.5741118032E-001	+7.1572886918E-001	-2.7730791457E-001	+2.3900410695E-001
52500000000.000	-3.2318652008E-001	+1.7079658262E-001	+5.5536937585E-001	+6.9588760666E-001	+5.6049657888E-001	+6.9259315462E-001	-2.8544030148E-001	+2.2553828995E-001
52550000000.000	-3.4258415988E-001	+1.8689056183E-001	+5.3515559518E-001	+7.0283995383E-001	+5.3917186969E-001	+7.0000010543E-001	-3.0410671199E-001	+2.4476316728E-001
52600000000.000	-3.4055387689E-001	+1.9739662048E-001	+5.3378375099E-001	+7.1000123427E-001	+5.3775550146E-001	+7.0765679980E-001	-2.9975241802E-001	+2.5671984164E-001
52650000000.000	-3.3717902222E-001	+1.9989164296E-001	+5.3943036548E-001	+7.1623893451E-001	+5.4101580313E-001	+7.1632625919E-001	-2.9420637510E-001	+2.5824026526E-001
52700000000.000	-3.3776126269E-001	+2.0177679129E-001	+5.4482056179E-001	+7.2209640641E-001	+5.4710922459E-001	+7.2112682989E-001	-2.9414103143E-001	+2.5934244347E-001
52750000000.000	-3.3817552981E-001	+2.1082265631E-001	+5.5209128982E-001	+7.3016627797E-001	+5.5797077085E-001	+7.2718696313E-001	-2.9443987428E-001	+2.6846850145E-001
52800000000.000	-3.2870139463E-001	+2.2318706491E-001	+5.7348109403E-001	+7.3282811003E-001	+5.8309215909E-001	+7.2577277451E-001	-2.8132001165E-001	+2.8100239104E-001
52850000000.000	-3.1287216187E-001	+2.1854967331E-001	+5.8262101766E-001	+7.1937513487E-001	+5.8716100448E-001	+7.1560995076E-001	-2.6443383949E-001	+2.7274224866E-001
