Freq_Hz,S11_mag_mean,S11_mag_std,S11_phase_mean,S11_phase_std,S21_mag_mean,S21_mag_std,S21_phase_mean,S21_phase_std,S12_mag_mean,S12_mag_std,S12_phase_mean,S12_phase_std,S22_mag_mean,S22_mag_std,S22_phase_mean,S22_phase_std
140000000000,0.449973085853121,0.000696116639332843,58.1500527531807,206.207177632624,0.843468470114781,5.51646450919037e-05,-104.285030762307,1.12413633191013,0.842302677623033,6.51108867246483e-05,-103.824983418147,1.174424078644,0.447478683365069,0.000195250184099735,154.711884650295,0.545211078988506
140100000000,0.452015000026184,0.000195663997655541,177.880800600805,2.51343916648362,0.842516809489411,8.85191554510605e-05,-104.606173621275,1.13093041134873,0.842219767249131,0.000122535242485155,-104.186262227799,1.17761444267134,0.446299043113178,0.000121949608664798,154.798923747037,0.497636340557859
140200000000,0.451906171568714,0.000114248511535659,177.334267471919,2.51849125169829,0.841681709818966,0.000112972493047546,-105.039441267301,1.12020709544551,0.840656650594167,0.000147599532454258,-104.540338083479,1.16596085718732,0.443856943450851,4.04329895354404e-05,154.819038464096,0.477880074226448
140300000000,0.454665844224658,0.00030427802937333,176.677357739618,2.50581527431674,0.841353188218404,0.000272301926084647,-105.329202524114,1.12887923159415,0.840840668367076,0.000289221086683156,-104.668484611882,1.15862650619429,0.445328941767001,0.000346666697731524,154.899451552251,0.464466110646702
140400000000,0.457077508874395,0.000570634320664293,175.858419169343,2.48863267412434,0.847748282456747,0.0003679332194295,-105.688796594688,1.16259117616438,0.847625290452239,0.000393099120130207,-105.06286245223,1.21091394196932,0.448830850653937,0.00047552960981743,154.469665309789,0.46529147788964
140500000000,0.45613076392631,0.000938498194468685,175.371097297154,2.47536517079644,0.848647576343709,0.000331770254754296,-105.96707501893,1.16925734718985,0.849370040050032,0.000362038214676337,-105.475349545278,1.16422067376489,0.449188801678143,0.000561824148484571,153.879136083802,0.486695102327351
140600000000,0.45544846060197,0.00123562185451081,174.172854052549,2.47016193631049,0.85599036822518,0.000255010272301535,-107.020395178592,1.19137876901629,0.856270079748226,0.000261822975702543,-106.651599517049,1.21704337458109,0.451426884040674,0.000587537208507185,152.563026232715,0.499770623475331
140700000000,0.446708160560776,0.00167449679800758,173.415464859262,2.51655885282082,0.850236550572541,0.000197715354091841,-107.794692037014,1.17791695098814,0.849838551572464,0.000226676231554614,-107.214685615387,1.17930454985367,0.447639001496629,0.000537636986868026,151.810021413826,0.524888565980686
140800000000,0.43762108714531,0.00119426468369949,172.927347021908,2.53266170172709,0.847090882522293,0.000306298039176971,-108.429060015737,1.17535629192621,0.847037418950387,0.000330394198328692,-107.696830426689,1.16754215288597,0.444945726758362,0.000986768993499461,151.094879376334,0.527235153717104
140900000000,0.432168625470575,0.00111396252016994,173.099681003486,2.5358026545647,0.844527499555569,0.000465749185628813,-108.717049964192,1.15432155654124,0.844532640719916,0.000434633562887202,-107.978224365167,1.19057799676114,0.441199515513591,0.00105197460820181,150.639702062859,0.524932618879897
141000000000,0.433653043227958,0.00115814557186803,173.404838534821,2.59360736390044,0.845644375963143,0.00059293573647685,-108.882517556221,1.18501089374041,0.845701869829506,0.000572452096381919,-108.299754623187,1.20172085887978,0.439595890784747,0.00121479132207999,150.25235963219,0.549236948980437
141100000000,0.439304818553276,0.0011790237339354,172.796233226957,2.62416497919257,0.850233862599268,0.000607505398549196,-109.217415989612,1.18508774654172,0.850374119284439,0.000593178399494217,-108.714345012799,1.22984918633209,0.439035864774667,0.00131621336232458,149.637158757242,0.581125939697858
141200000000,0.442085594243811,0.00113653063140961,172.203084826602,2.6081910420446,0.854907927259658,0.000404725012501133,-109.90451714579,1.18945868348801,0.855221038559359,0.000471792801075166,-109.267687796679,1.24210326354998,0.438299525618487,0.00137476408904783,149.232606476707,0.609223856138488
141300000000,0.443361564801825,0.0012200421601833,171.551120830549,2.59949974500329,0.856628265696277,0.000531323957735447,-110.524890680743,1.18034506007843,0.856810558264227,0.000593099902037873,-109.944651389279,1.22591875978889,0.44080246194177,0.00137069371948122,148.756381099968,0.611352604216958
141400000000,0.442839214010456,0.00137157854947153,171.238354658115,2.60586946751357,0.860181131134325,0.000578338929705536,-111.128840763889,1.20519959414434,0.859624692050971,0.000572223276094861,-110.546397445516,1.24155857549611,0.443130869364056,0.00113582301532873,148.167381878785,0.601881428982033
141500000000,0.443569004479434,0.00151538217373487,170.446171643074,2.6282688784008,0.860179385586613,0.000718370169042151,-112.060827506283,1.18858845843678,0.859181889255616,0.000713957066506199,-111.415909088155,1.22886905194024,0.445376552937973,0.00102514642702523,146.989444745822,0.593668919986262
141600000000,0.443522428152224,0.00128580021145406,169.595368397784,2.54057100232168,0.866306302935366,0.000886411172805833,-112.494373574291,1.16855985659094,0.86541907703905,0.000779041991823055,-111.99087106959,1.2302782149159,0.444517895286045,0.00102202568619196,146.910066509907,0.546438664566736
141700000000,0.43861985171997,0.00120616730108915,169.04515677109,2.5823355253784,0.864098120241655,0.000853647030773705,-113.760480709434,1.18757249356385,0.862394367503997,0.000727219199558004,-113.088142989957,1.22169998256405,0.445857300640885,0.0010662972762506,145.559087886779,0.546157564030475
141800000000,0.439764203947386,0.00132943692973043,168.586891230726,2.604566318757,0.858029913720718,0.000971345106644801,-114.47363036912,1.15649207685977,0.855739366503144,0.000791387652024932,-113.899255224837,1.22506566732035,0.440796985186858,0.00129506770415042,144.749833573441,0.546781764120592
141900000000,0.437785965818741,0.00158092093385461,167.865766320046,2.54816063006903,0.850850690666152,0.00105476705073082,-114.848665974084,1.11698544428014,0.849004054408389,0.000847874175068905,-114.071221577399,1.20664082556877,0.433941926064139,0.00159299043345033,143.85404870562,0.521194798702379
142000000000,0.435303849726327,0.00171258450251722,167.788316859734,2.54514071622074,0.851008980610299,0.00112510859202724,-115.072514186297,1.12707850447981,0.848629994017812,0.000812383839270494,-114.369406769519,1.20132498279139,0.426878415723501,0.0015170882077355,143.701719939455,0.50949296233953
142100000000,0.435983893504325,0.00167020044473491,167.350637867587,2.53135563470532,0.850953208972324,0.000969950481762834,-115.398726036119,1.12869665625779,0.849178883606176,0.000649263233816893,-114.553935165306,1.20827942156996,0.424178577267971,0.00135056703206153,143.835459608307,0.459880685818892
142200000000,0.433339264569537,0.00162476321619481,166.747708803113,2.53720246129179,0.85303066260795,0.00108453375429546,-115.625051229356,1.163362849603,0.850513853585796,0.000674788789787465,-114.907966509969,1.2153714877083,0.42268803089121,0.00123950682298429,144.165805253175,0.479743277083269
142300000000,0.429919790210082,0.00158547393569483,166.259453110325,2.52734641565947,0.856976938042891,0.00106562055611691,-116.126756355072,1.14923763465614,0.855518471060582,0.000650080134030833,-115.405800127859,1.23772082280642,0.425065283154633,0.00143159799615847,144.023789522829,0.498364446523971
142400000000,0.427207316762061,0.00169985025104473,165.533032995517,2.53666622679969,0.859355377787069,0.00106596469875086,-116.632869399718,1.16301409621779,0.855952625678625,0.000578438973503147,-115.947691967497,1.24773720057154,0.427034215774435,0.00177521033334704,143.710525426096,0.517938828270642
142500000000,0.427301765087952,0.0018543056532262,164.581475169892,2.54719898713097,0.864804881741378,0.000972484043163649,-117.293195147595,1.12402989298467,0.863664835846077,0.000530926243865537,-116.716416100105,1.2595665299362,0.428959369603095,0.00207936150197475,142.764879614965,0.530137982231751
142600000000,0.423355034580895,0.0018301961683386,164.096637646735,2.58215371526235,0.863158095841531,0.000971194177270588,-117.898490620345,1.1269185254767,0.859646351087928,0.000444388085819648,-117.124989813767,1.26680247387054,0.427312705888294,0.0020428369909714,141.918105617714,0.548616515912059
142700000000,0.422695937905156,0.00218843067404428,163.00944555626,2.53849566593331,0.866335570797557,0.000922631773127846,-118.779557787197,1.11270024118606,0.864086925417414,0.000332119890440329,-118.151707056367,1.25815218555277,0.427840014924564,0.00196072638465439,140.452939691979,0.576734696226326
142800000000,0.415975402342427,0.00270207147119775,162.692012846057,2.56779294788754,0.859712670739545,0.00100433737818528,-119.191352379619,1.11364533164778,0.858770468413753,0.0005513642726809,-118.511624564645,1.2068661752815,0.420950550666192,0.00211098802683747,139.313312130306,0.619620372417442
142900000000,0.412784296860884,0.00229163067000877,163.000523792507,2.549884789262,0.859093726197581,0.00130615974988412,-119.618878168678,1.14334174557457,0.858677754362263,0.00101887292671935,-119.003579487761,1.25403652147763,0.415342494673217,0.00196254684698843,139.048564140029,0.601499486455544
143000000000,0.413409229463028,0.00229331031778214,162.944985493445,2.58300090781786,0.860795333112944,0.00132286328725238,-119.921046691668,1.21066005479339,0.861071349981475,0.00100133178318145,-119.284821452979,1.23217153934845,0.413413961291421,0.00183901944667758,138.843008352156,0.603499787023717
143100000000,0.413343441735244,0.00232418206623498,162.646881284147,2.62209299209262,0.864589660078832,0.00132894651582626,-120.404730477984,1.2165073378212,0.863312425520051,0.00103059580913822,-119.845238981801,1.23706196008641,0.410204587143726,0.00202775935568775,138.915560900504,0.603698840792047
143200000000,0.414054687031223,0.00231175366740119,162.144531303024,2.59659580430678,0.866266479660792,0.00124443540749272,-121.048071729305,1.18405436326277,0.866567482594679,0.000955418632114239,-120.460299133495,1.23403662347713,0.409616138098056,0.00221607959092014,139.017828577049,0.589742050432076
143300000000,0.414178547598204,0.00238657590341713,161.613965890102,2.60745129828213,0.867886656141332,0.00129587368457336,-121.745407624684,1.16440505605874,0.866807422038925,0.000989821403789531,-121.079000668559,1.23158584538075,0.409789755127481,0.00247797143733486,138.8465153729,0.587412833549866
143400000000,0.414769453415511,0.00267520709958886,160.654504565689,2.6140866478765,0.870592738303028,0.0014080675039605,-122.279606411474,1.17761065622792,0.87005965925531,0.00114683255257653,-121.780688886726,1.2537892195734,0.412392448663179,0.00256767774795786,137.875124335788,0.596074715893106
143500000000,0.411088643117075,0.00285304652588849,160.35360778768,2.59707413832863,0.873053982932577,0.00127922792797832,-123.010895998696,1.20110234304946,0.873065325220391,0.00113330574671444,-122.336866095756,1.25376045142992,0.410209700974597,0.00261055331726284,137.064452248344,0.602407960047314
143600000000,0.409851418595829,0.00294469836102743,160.067742276729,2.57890776547335,0.872257526706097,0.00129461051016749,-124.037117531744,1.18412891823878,0.871684703453154,0.00119275517055661,-123.274233933562,1.2706047901234,0.408771545937686,0.00262505401543825,136.000924952607,0.603227563991935
143700000000,0.410736270162269,0.00293934709735627,159.729171083648,2.60554922048107,0.870836882474916,0.0013485227404412,-124.54154324347,1.16166473170722,0.871545830284107,0.00129408904263955,-123.745219840392,1.24388193604502,0.404246662743069,0.00268219814630913,135.707842511586,0.602520479806704
143800000000,0.406090399340881,0.00299268466809011,158.838171078202,2.6068077839121,0.868979878352646,0.00135602361667833,-125.442135634186,1.1330657343751,0.868995695800429,0.00137955487111553,-124.539709154754,1.26175579906886,0.407198933741215,0.00296633402613002,135.012034778133,0.596877269045692
143900000000,0.40558324795681,0.00272017642444077,158.029223090665,2.67000260157724,0.864210685663609,0.00138914823470112,-125.835857876054,1.13681711279991,0.864436499305355,0.00137750277371084,-125.065424646793,1.26454378015344,0.402073018568564,0.00322102698610113,133.958416144801,0.5795591411195
144000000000,0.399864451559657,0.00265656699331504,157.040296481215,2.60783488656982,0.862936639686942,0.00135503731100451,-125.964935576481,1.1261784141492,0.86209552461494,0.00137461621391667,-124.912979054406,1.23121621256897,0.393297739778021,0.00372287445870756,133.4976939325,0.501790044247508
144100000000,0.397002155601858,0.00261172705153042,156.63238441766,2.56404189702439,0.869087929022666,0.00122155956910029,-126.451848701704,1.15924069494388,0.867636811031982,0.00121717058753655,-125.187388536332,1.2525910000724,0.391855089361521,0.00324792419159146,133.986336675755,0.470174647990774
144200000000,0.394573454853342,0.00273355808478746,155.849069469212,2.59086320978437,0.873809495465963,0.00112071443543499,-126.998453856268,1.16688853544736,0.872687140556006,0.00107350066892157,-125.799385996536,1.27564318191738,0.392431213073297,0.0029196626712845,133.293567513387,0.529530330029065
144300000000,0.391839449607967,0.00279522849828853,155.344505977713,2.59136475332316,0.876664951149964,0.00110359025605292,-127.579592320449,1.17737197212278,0.876721128202418,0.00107666760411004,-126.687458286894,1.30885678286429,0.39087359959146,0.00292791005407557,132.600783030745,0.587191026779653
144400000000,0.390296149971411,0.00292143081004612,155.030463489445,2.57872266171395,0.877366113972203,0.00104660129854294,-128.237330130972,1.18565240942084,0.877176924515892,0.00112152637079281,-127.458113470554,1.32303082575076,0.391033893401525,0.00295766462330833,131.964790682054,0.604816659128622
144500000000,0.387811316492094,0.00302435831122656,154.328108634612,2.57635789248397,0.875700321077122,0.00105080240654152,-128.903518682075,1.20899508892602,0.876149876969106,0.00108544822580634,-128.247584281315,1.30722872032302,0.389444310422341,0.00296078537193144,130.953037912623,0.618664211479758
144600000000,0.384961846994134,0.00319476676839589,153.45899149126,2.58139573824745,0.876012028063736,0.00099427602836737,-129.614479510238,1.2072852865003,0.8759095930365,0.00106710340476354,-128.834010862037,1.28806215861392,0.386347871104138,0.00309949571176839,130.200138934779,0.617828509240135
144700000000,0.378639293812905,0.00346409168550747,153.273092388613,2.58138811695837,0.86981085935699,0.000812673338503571,-130.097725174895,1.21325513813944,0.868861258966245,0.000889381134818546,-129.253330989256,1.24691590168928,0.380788491705076,0.00339055550250182,130.059142403958,0.592996089997161
144800000000,0.375769475949169,0.0035312697788781,152.7307800354,2.53341043317754,0.873983657759414,0.0014303684918059,-130.096935326527,1.17424230726381,0.872767982660721,0.00131495635796984,-129.374985182827,1.25392495945839,0.379338794786865,0.00363086933476625,129.339241916291,0.57338058460414
144900000000,0.374289479024702,0.00328998212102864,152.721170025843,2.59387444364877,0.878040113466939,0.00143195315069472,-130.664682458279,1.19722718086926,0.876059750794294,0.0013394256722869,-130.012512920924,1.32502992018359,0.372747534113127,0.00365819901323471,129.056582387879,0.570441683908208
145000000000,0.375001929863001,0.00353058073282075,152.640166957171,2.60148644270325,0.881498077680929,0.00133200937252509,-131.298502292235,1.1863843403907,0.880014680243061,0.00124333488458468,-130.494034016192,1.3403911952708,0.371408092531333,0.00370128271625103,128.998480179452,0.574365421336551
145100000000,0.375485053693481,0.00371774771223115,152.088002904985,2.60331200565534,0.885992592840535,0.00141944562053878,-131.865582877596,1.19088997919022,0.884922602901159,0.00126526777397022,-131.06638634947,1.32651964491502,0.370582593347571,0.00361546241173578,128.442121840741,0.585743725854242
145200000000,0.37452449721328,0.00373755917561356,151.47426570618,2.60267184840553,0.889689281761097,0.00147828101441257,-132.623372619191,1.21785400843924,0.888205023108966,0.00131888376501086,-131.772650137567,1.32161678714629,0.37056087099204,0.00357860843595345,128.026610737127,0.58803064241809
145300000000,0.370153601232024,0.00371237947577999,150.746664404521,2.59363209278104,0.889096493503771,0.00154147608491555,-133.483719879198,1.24968674145735,0.888487333131103,0.00135542687096584,-132.618103833159,1.30390900204893,0.368879370543679,0.00364051993187815,127.440310472076,0.577450339459015
145400000000,0.364077176619501,0.00363799908633175,150.468041179568,2.56707607931886,0.885977267512314,0.00170984947147379,-134.103284761539,1.26017321940815,0.885977343682622,0.00137713241701898,-133.246007144772,1.30210578302062,0.365743706770923,0.0037095735966725,126.916839019617,0.559544560378082
145500000000,0.361159040326422,0.00369239864200768,150.218438690477,2.58631482312824,0.885345439903715,0.00170413928523956,-134.577783853311,1.20701607509285,0.885002131241802,0.00145104961046499,-133.787141712051,1.27763580898167,0.363948758990003,0.00399593685523221,126.447319277431,0.565493110034324
145600000000,0.35978318600635,0.00390563626652052,149.83424968007,2.60455872318794,0.887824842133772,0.00165106363864488,-135.244354843965,1.19517122948374,0.8875182186761,0.00145070402237405,-134.273325180718,1.29170770219547,0.361571702269773,0.00430878670604218,125.844832675649,0.558789168589318
145700000000,0.358178759654312,0.00404959089241468,149.252956435027,2.62426800389227,0.886371906938189,0.00158486134187745,-135.787750149691,1.20245710962486,0.885910987955903,0.00144458373981178,-135.044234047985,1.29744910431452,0.358016465489816,0.00450187909664668,125.046071543724,0.569620091243451
145800000000,0.358023258464236,0.00418615929415863,148.814793358867,2.65592191477511,0.888219637128797,0.00156615564417935,-136.061754256244,1.21139310534491,0.888170977299769,0.0014236713058009,-135.415078190488,1.29773373947232,0.353220669863025,0.00456096537586188,124.544471387917,0.586950768615014
145900000000,0.357159720071397,0.00425979701299007,147.745525901778,2.67212786658938,0.891482572898715,0.00158575574769112,-136.820738407452,1.24678638650251,0.891257632718796,0.00142907366311061,-136.14694364782,1.34487084256307,0.35482351356055,0.00460097270629998,124.014983887586,0.60253725913501
146000000000,0.353808649592426,0.00414364252772311,146.698122808561,2.72182024628057,0.891976659071742,0.0015667670508195,-137.441715778237,1.25905301324922,0.891622795785616,0.00140986576379311,-136.717183292967,1.30348168303134,0.352977858129536,0.00477582107025212,122.960364680301,0.604042079018992
146100000000,0.34581106874824,0.00398164106820831,145.681473504925,2.60517728318437,0.89373385905594,0.00166140658514328,-137.963251612891,1.24895679517277,0.894088201311327,0.00146144480150159,-137.052470231183,1.28979941814918,0.349713285293898,0.0046517073103469,121.76471887214,0.49381189581298
146200000000,0.340256560532494,0.00403011293904961,145.562533732824,2.59519937721108,0.898634764281601,0.0017976138842398,-138.605657120043,1.28484788553745,0.898198615347055,0.00155074143572515,-138.006187784837,1.31482783080576,0.344705305664917,0.0041291877007273,121.218666113381,0.525630921777558
146300000000,0.336219649095933,0.00418614184130928,144.86492044502,2.59230945874203,0.899208041092497,0.00188174735784261,-139.406205992211,1.26149460289068,0.898093482838339,0.00155745646026954,-138.81980817675,1.30626535573044,0.339932063327001,0.00440351367879245,120.738112879286,0.559920390322764
146400000000,0.332490030923859,0.00415873356695899,144.404284041219,2.57450139479168,0.897208971168292,0.00195962705433514,-140.11684875454,1.26153972401663,0.894300196514813,0.00160970712482069,-139.55857646008,1.29350304417114,0.333668648687183,0.00453635234675116,120.269457492296,0.597304387653124
