!  2-Port S-parameters saved by WinCal
! VAR ChuckHeaterState=Unknown
! VAR ChuckTemp=NaN
! VAR ChuckTempUnits=C
! VAR NAME=S6
! VAR FILENAME=S6.S2P
! VAR DATE=8/1/2024 12:11:52 PM
! VAR PHYS_PORTS=1,2
! VAR ObjTypeName=DATASET
! VAR IndexType=Frequency
!
# Hz S DB R 1
47000000000.000 -6.6275543055E+000 +1.7319504040E+002  -1.2865452874E+000 +8.7715438062E+001  -1.2729829166E+000 +7.9575940636E+001  -6.6764102319E+000 +1.7198468174E+002 
47033333333.333 -6.6961665154E+000 +1.7108683048E+002  -1.2137935765E+000 +8.5614217128E+001  -1.2116852653E+000 +7.9306474446E+001  -6.6925726367E+000 +1.7023739601E+002 
47066666666.667 -6.7192006986E+000 +1.7067903474E+002  -1.1986604563E+000 +8.4298218346E+001  -1.1883180190E+000 +7.9170297654E+001  -6.6662605926E+000 +1.6952620702E+002 
47100000000.000 -6.7243868749E+000 +1.7042839789E+002  -1.1824831957E+000 +8.3479675926E+001  -1.1834344373E+000 +7.9165448987E+001  -6.6628195846E+000 +1.6900830466E+002 
47133333333.333 -6.6773439100E+000 +1.7059870299E+002  -1.1467758521E+000 +8.3391655815E+001  -1.1419345676E+000 +7.9666509333E+001  -6.6312847432E+000 +1.6893937279E+002 
47166666666.667 -6.0008014951E+000 +1.6774763066E+002  -3.5684034281E-001 +8.3282904302E+001  -3.5892908895E-001 +7.7790469916E+001  -5.9916139639E+000 +1.6600068283E+002 
47200000000.000 -6.9720584959E+000 +1.6688084200E+002  -1.0870921095E+000 +7.8801190926E+001  -1.0766421491E+000 +7.5407768269E+001  -6.9711320383E+000 +1.6520101681E+002 
47233333333.333 -7.0749776155E+000 +1.6834093557E+002  -1.2238117341E+000 +7.8583727978E+001  -1.2211871948E+000 +7.5886766328E+001  -7.0856589199E+000 +1.6672157913E+002 
47266666666.667 -7.0091020420E+000 +1.6966070011E+002  -1.3449401319E+000 +7.8539084931E+001  -1.3387430494E+000 +7.6189255205E+001  -7.0381156078E+000 +1.6821285422E+002 
47300000000.000 -6.7462690286E+000 +1.6970086211E+002  -1.4123851165E+000 +7.8924184279E+001  -1.4059647527E+000 +7.7080558900E+001  -6.7417204678E+000 +1.6846259603E+002 
47333333333.333 -6.9397541864E+000 +1.6815574915E+002  -1.3342065933E+000 +8.0192847104E+001  -1.3248423258E+000 +7.8672474044E+001  -6.9209524440E+000 +1.6679643546E+002 
47366666666.667 -6.8246852171E+000 +1.6856953746E+002  -1.1659564266E+000 +7.9629802099E+001  -1.1551942990E+000 +7.7990802264E+001  -6.7998700656E+000 +1.6704329601E+002 
47400000000.000 -6.9711682839E+000 +1.6987740919E+002  -9.8934670508E-001 +7.9679927979E+001  -9.8785450453E-001 +7.7710347631E+001  -6.9597600982E+000 +1.6822238052E+002 
47433333333.333 -6.5772112007E+000 +1.6767333076E+002  -1.0804238919E+000 +7.7606315752E+001  -1.0758613506E+000 +7.6636540053E+001  -6.5383236119E+000 +1.6604711658E+002 
47466666666.667 -6.7349213928E+000 +1.6758213041E+002  -1.0620200966E+000 +7.7500754428E+001  -1.0622020453E+000 +7.6847890405E+001  -6.7113581113E+000 +1.6563446506E+002 
47500000000.000 -6.6725589387E+000 +1.6781022961E+002  -1.0318707328E+000 +7.7318671549E+001  -1.0316359281E+000 +7.6845108470E+001  -6.7032007270E+000 +1.6554037954E+002 
47533333333.333 -6.4169947568E+000 +1.6687475504E+002  -9.9180395775E-001 +7.7134462747E+001  -9.8146132295E-001 +7.6908114870E+001  -6.5538561884E+000 +1.6461312825E+002 
47566666666.667 -6.7544011585E+000 +1.6575548751E+002  -7.8579935711E-001 +7.6667457166E+001  -7.8731535422E-001 +7.5780521609E+001  -6.9541822976E+000 +1.6487061223E+002 
47600000000.000 -6.7312234066E+000 +1.6480909541E+002  -8.4663052106E-001 +7.5125818749E+001  -8.4361428808E-001 +7.3826293768E+001  -6.7707311286E+000 +1.6404012224E+002 
47633333333.333 -6.8099723985E+000 +1.6392167945E+002  -9.8052704232E-001 +7.4393321438E+001  -9.7559543709E-001 +7.3177048502E+001  -6.8387887556E+000 +1.6299386779E+002 
47666666666.667 -7.3451284030E+000 +1.6151467703E+002  -9.7228637345E-001 +7.3912870033E+001  -9.6807159869E-001 +7.2682322485E+001  -7.3876358963E+000 +1.6105429178E+002 
47700000000.000 -8.1104685192E+000 +1.6704173002E+002  -1.2996595881E+000 +7.0945540217E+001  -1.2846201484E+000 +6.9983011072E+001  -7.9170009012E+000 +1.6656856822E+002 
47733333333.333 -6.3242288352E+000 +1.6974249236E+002  -1.6436968197E+000 +7.6521758002E+001  -1.6376779489E+000 +7.5852796985E+001  -6.2647054982E+000 +1.6726843421E+002 
47766666666.667 -6.3864111289E+000 +1.6522084585E+002  -1.3461310890E+000 +7.6204889426E+001  -1.3406324988E+000 +7.5557616094E+001  -6.3995760729E+000 +1.6308133201E+002 
47800000000.000 -6.6053366427E+000 +1.6351219456E+002  -1.3276100762E+000 +7.5218795565E+001  -1.3248469932E+000 +7.4755125161E+001  -6.6559524940E+000 +1.6157781703E+002 
47833333333.333 -7.0330529926E+000 +1.6176745848E+002  -1.3199290398E+000 +7.5470047311E+001  -1.3116688681E+000 +7.5072658314E+001  -7.1078801037E+000 +1.5997714468E+002 
47866666666.667 -7.3499073691E+000 +1.6331572127E+002  -1.2381700731E+000 +7.6128158965E+001  -1.2333165259E+000 +7.5624027911E+001  -7.4422777456E+000 +1.6185302303E+002 
47900000000.000 -7.4022694420E+000 +1.6513830469E+002  -1.1075260681E+000 +7.5970735848E+001  -1.1140986076E+000 +7.5414373499E+001  -7.4522107734E+000 +1.6400001278E+002 
47933333333.333 -7.3219182184E+000 +1.6665183199E+002  -1.0443269971E+000 +7.5567614834E+001  -1.0420224325E+000 +7.5098314460E+001  -7.3359694573E+000 +1.6560364501E+002 
47966666666.667 -7.1552851333E+000 +1.6675422089E+002  -1.0088414824E+000 +7.5971093597E+001  -9.9579120700E-001 +7.5309803203E+001  -7.1027368600E+000 +1.6601304364E+002 
48000000000.000 -6.5954412635E+000 +1.7217190829E+002  -2.1583447554E-001 +7.6438146882E+001  -2.1577410171E-001 +7.4830785438E+001  -6.1980436527E+000 +1.6469403623E+002 
48033333333.333 -6.7764934083E+000 +1.6292871088E+002  -1.0061056417E+000 +7.1214099011E+001  -1.0039287036E+000 +7.0589393215E+001  -6.8533137602E+000 +1.6223221733E+002 
48066666666.667 -6.9784138001E+000 +1.6381441062E+002  -1.1109218747E+000 +7.1992265572E+001  -1.1060406373E+000 +7.1525223123E+001  -6.9739810836E+000 +1.6260013634E+002 
48100000000.000 -7.0307648949E+000 +1.6437220328E+002  -1.1140743310E+000 +7.2145587716E+001  -1.1098866699E+000 +7.1955203995E+001  -7.0006221301E+000 +1.6301975767E+002 
48133333333.333 -6.5399398641E+000 +1.6640433986E+002  -1.0702214441E+000 +7.0827459095E+001  -1.0723576040E+000 +7.0712357786E+001  -6.4779511407E+000 +1.6465354780E+002 
48166666666.667 -6.5584139040E+000 +1.6322418535E+002  -1.2723110760E+000 +7.1384062535E+001  -1.2725305853E+000 +7.0851572790E+001  -6.5479381348E+000 +1.6140547936E+002 
48200000000.000 -6.4008450387E+000 +1.6075660340E+002  -1.4578203743E+000 +7.1104016344E+001  -1.4632551398E+000 +7.0732370711E+001  -6.4230499644E+000 +1.5879707595E+002 
48233333333.333 -7.7197068016E+000 +1.5839058407E+002  -1.4741795505E+000 +7.6088872316E+001  -1.4765400879E+000 +7.5714030498E+001  -7.7918760382E+000 +1.5713798478E+002 
48266666666.667 -7.2466912741E+000 +1.6342674752E+002  -1.0085350606E+000 +7.4417459966E+001  -1.0143970556E+000 +7.4184739546E+001  -7.2564011019E+000 +1.6202774874E+002 
48300000000.000 -6.9876650949E+000 +1.6262052985E+002  -8.4161533687E-001 +7.3337802364E+001  -8.4507399299E-001 +7.3091156592E+001  -7.0024084522E+000 +1.6125057299E+002 
48333333333.333 -7.1420552382E+000 +1.6185332039E+002  -8.8448479281E-001 +7.2159993564E+001  -8.8061283590E-001 +7.1641735098E+001  -7.1445213910E+000 +1.6050717358E+002 
48366666666.667 -7.0089452536E+000 +1.6483511012E+002  -9.1460653590E-001 +7.0909120590E+001  -9.0355677465E-001 +7.0460440941E+001  -6.9659466409E+000 +1.6341724451E+002 
48400000000.000 -6.9837875812E+000 +1.6070673829E+002  -1.0163630553E+000 +7.0998322606E+001  -1.0230090943E+000 +6.9991877205E+001  -6.9770705594E+000 +1.5920985623E+002 
48433333333.333 -7.1893774895E+000 +1.6034374043E+002  -1.0409155476E+000 +7.0727773654E+001  -1.0396401792E+000 +7.0031664545E+001  -7.1917602040E+000 +1.5890124462E+002 
48466666666.667 -7.2393621908E+000 +1.6199201297E+002  -1.0815054735E+000 +7.0315564781E+001  -1.0833040005E+000 +6.9856386396E+001  -7.2304805766E+000 +1.6062780067E+002 
48500000000.000 -7.0255054576E+000 +1.6114336288E+002  -1.1213744387E+000 +7.0516012189E+001  -1.1291916142E+000 +6.9984916258E+001  -7.0073237170E+000 +1.5963262325E+002 
48533333333.333 -7.2234174384E+000 +1.6057763974E+002  -1.0706336311E+000 +7.0341546670E+001  -1.0691277886E+000 +6.9797931289E+001  -7.2168904141E+000 +1.5908433921E+002 
48566666666.667 -7.1371186039E+000 +1.6142247029E+002  -1.1297611320E+000 +7.0028721277E+001  -1.1295799291E+000 +6.9517257123E+001  -7.1244952241E+000 +1.5993240917E+002 
48600000000.000 -7.3046857067E+000 +1.6094326946E+002  -1.1315920192E+000 +6.9580752983E+001  -1.1283169550E+000 +6.9101130059E+001  -7.2811230710E+000 +1.5952647138E+002 
48633333333.333 -7.2167495733E+000 +1.6144329979E+002  -1.1693403863E+000 +6.9389781068E+001  -1.1759801595E+000 +6.8876212593E+001  -7.1659520090E+000 +1.6008150834E+002 
48666666666.667 -7.2410590417E+000 +1.6058227600E+002  -1.1792693754E+000 +6.9857764716E+001  -1.1768912051E+000 +6.9509826847E+001  -7.1872709627E+000 +1.5908354596E+002 
48700000000.000 -7.3724377415E+000 +1.6097595501E+002  -1.1840416370E+000 +6.9521838953E+001  -1.1779850331E+000 +6.9131785747E+001  -7.3259574180E+000 +1.5935238401E+002 
48733333333.333 -7.3689886188E+000 +1.6229890147E+002  -1.2447510633E+000 +6.9502393801E+001  -1.2423309291E+000 +6.9152501474E+001  -7.3199415319E+000 +1.6056320234E+002 
48766666666.667 -7.1015343142E+000 +1.6317691671E+002  -1.2861235996E+000 +7.0295572081E+001  -1.2883466365E+000 +6.9790324959E+001  -7.0960621375E+000 +1.6138164330E+002 
48800000000.000 -6.8190910521E+000 +1.6250881393E+002  -1.1947515747E+000 +7.1478112865E+001  -1.1971264617E+000 +7.0741592422E+001  -6.8124589741E+000 +1.6081375358E+002 
48833333333.333 -6.2065818027E+000 +1.5951956716E+002  -5.4075257422E-001 +7.2246117434E+001  -5.4482966226E-001 +7.0442123442E+001  -6.2169767226E+000 +1.5778528308E+002 
48866666666.667 -7.1136649684E+000 +1.5751957571E+002  -9.6075726811E-001 +6.8706070805E+001  -9.5163877579E-001 +6.8190420464E+001  -7.0890598394E+000 +1.5568070685E+002 
48900000000.000 -7.1407720417E+000 +1.5824329488E+002  -9.6977492299E-001 +6.8649686087E+001  -9.7165395574E-001 +6.8283317612E+001  -7.1224222327E+000 +1.5625525201E+002 
48933333333.333 -7.1244719402E+000 +1.5828514630E+002  -9.7802356347E-001 +6.8268079618E+001  -9.8049330926E-001 +6.8129917240E+001  -7.1436083906E+000 +1.5622993214E+002 
48966666666.667 -7.1190427839E+000 +1.5719219940E+002  -1.0438761628E+000 +6.8318318934E+001  -1.0495181503E+000 +6.8009501375E+001  -7.1792028822E+000 +1.5500194545E+002 
49000000000.000 -7.2926825300E+000 +1.5832306990E+002  -9.5722392521E-001 +6.8635085270E+001  -9.5182241081E-001 +6.7941689232E+001  -7.3815524856E+000 +1.5630226737E+002 
49033333333.333 -7.1971218670E+000 +1.5865277933E+002  -8.8603290209E-001 +6.8384647063E+001  -8.9733208242E-001 +6.7855613028E+001  -7.3447053073E+000 +1.5677193368E+002 
49066666666.667 -7.0143960089E+000 +1.5819879532E+002  -7.9967275923E-001 +6.7685550074E+001  -8.0138098144E-001 +6.7331591387E+001  -7.2299305328E+000 +1.5692522944E+002 
49100000000.000 -7.0999793928E+000 +1.5620176385E+002  -7.6051536298E-001 +6.6533756606E+001  -7.5919871104E-001 +6.6170572517E+001  -7.2457043941E+000 +1.5602663868E+002 
49133333333.333 -7.2081599635E+000 +1.5571172577E+002  -8.7058838894E-001 +6.5656698906E+001  -8.6984374481E-001 +6.5077281323E+001  -7.2099058707E+000 +1.5555498360E+002 
49166666666.667 -7.2650441388E+000 +1.5542659798E+002  -9.6980963154E-001 +6.5202428895E+001  -9.6929967027E-001 +6.4569619593E+001  -7.2038195549E+000 +1.5507612298E+002 
49200000000.000 -7.2525597035E+000 +1.5333977616E+002  -1.0627646467E+000 +6.4963033248E+001  -1.0715403455E+000 +6.4636826488E+001  -7.1776558550E+000 +1.5280156752E+002 
49233333333.333 -7.6707608919E+000 +1.5410016650E+002  -1.1320705718E+000 +6.4351217440E+001  -1.1244645721E+000 +6.4036255283E+001  -7.5081935632E+000 +1.5360597442E+002 
49266666666.667 -7.9288011862E+000 +1.5542769718E+002  -1.4058227014E+000 +6.4368725163E+001  -1.4027993665E+000 +6.4050947734E+001  -7.6500156964E+000 +1.5453614089E+002 
49300000000.000 -7.6784649826E+000 +1.5528377350E+002  -1.4165554062E+000 +6.6834032913E+001  -1.4173081665E+000 +6.6641314827E+001  -7.4151849888E+000 +1.5295984141E+002 
49333333333.333 -8.3133409956E+000 +1.5500407057E+002  -1.1690041460E+000 +6.6740023097E+001  -1.1660160583E+000 +6.6540057034E+001  -8.1645044764E+000 +1.5253990701E+002 
49366666666.667 -7.9264545503E+000 +1.6112653339E+002  -1.2645087817E+000 +6.7359616660E+001  -1.2640627575E+000 +6.7350971091E+001  -7.8034233924E+000 +1.5793024565E+002 
49400000000.000 -7.7554209160E+000 +1.5887579142E+002  -1.0123539203E+000 +6.6998717685E+001  -1.0142092362E+000 +6.6924984406E+001  -7.7753861447E+000 +1.5618056001E+002 
49433333333.333 -7.6221364893E+000 +1.5865044145E+002  -9.5038670653E-001 +6.6448185668E+001  -9.4800327845E-001 +6.6300461605E+001  -7.6568926374E+000 +1.5637766916E+002 
49466666666.667 -7.6701976397E+000 +1.5889796147E+002  -9.3952597163E-001 +6.5907167771E+001  -9.4088893312E-001 +6.5639841070E+001  -7.6947396767E+000 +1.5676438981E+002 
49500000000.000 -7.6119424624E+000 +1.5929817573E+002  -9.2930982372E-001 +6.5414852378E+001  -9.2793964897E-001 +6.5088205252E+001  -7.6525867756E+000 +1.5713564150E+002 
49533333333.333 -7.4607542040E+000 +1.6009689145E+002  -9.1410466693E-001 +6.5332494997E+001  -9.1740863844E-001 +6.5087456597E+001  -7.5164465506E+000 +1.5791592563E+002 
49566666666.667 -7.1903734712E+000 +1.5816676335E+002  -8.9239555822E-001 +6.3451974131E+001  -8.8795956493E-001 +6.3230248166E+001  -7.1480388166E+000 +1.5647268622E+002 
49600000000.000 -7.2044682652E+000 +1.5817960911E+002  -1.0294121073E+000 +6.4278446894E+001  -1.0278316776E+000 +6.3938284153E+001  -7.2496700060E+000 +1.5619813118E+002 
49633333333.333 -7.1482152206E+000 +1.5776238795E+002  -1.0262176995E+000 +6.4734716756E+001  -1.0346458912E+000 +6.4363996328E+001  -7.1843729423E+000 +1.5596498698E+002 
49666666666.667 -6.9313565059E+000 +1.5976276105E+002  -7.2091391446E-001 +6.5690140031E+001  -7.1787953301E-001 +6.4876646764E+001  -6.8352593230E+000 +1.5553777484E+002 
49700000000.000 -6.9049337193E+000 +1.5377795885E+002  -9.6042759181E-001 +6.2765800784E+001  -9.6615428302E-001 +6.2551972523E+001  -7.0033640888E+000 +1.5350156876E+002 
49733333333.333 -7.0189957783E+000 +1.5382013544E+002  -9.8739215419E-001 +6.3216372487E+001  -9.9049969885E-001 +6.3121786830E+001  -7.0309015920E+000 +1.5290694681E+002 
49766666666.667 -7.0026026802E+000 +1.5314008846E+002  -9.5752236970E-001 +6.3191038228E+001  -9.6071256291E-001 +6.3119218639E+001  -6.9927179546E+000 +1.5212804905E+002 
49800000000.000 -6.9547869865E+000 +1.5144380870E+002  -9.5379598708E-001 +6.2780965800E+001  -9.5148790559E-001 +6.2507400007E+001  -6.9162358364E+000 +1.5051567228E+002 
49833333333.333 -7.4348940020E+000 +1.4699629318E+002  -1.1379408989E+000 +6.3404494852E+001  -1.1393300455E+000 +6.2972738238E+001  -7.2777858424E+000 +1.4561499105E+002 
49866666666.667 -7.7715725757E+000 +1.5123249438E+002  -8.3986675107E-001 +6.3223280260E+001  -8.3376018547E-001 +6.2768100652E+001  -7.7472802598E+000 +1.4943185814E+002 
49900000000.000 -7.7506172416E+000 +1.5119653004E+002  -8.7480174545E-001 +6.2255819976E+001  -8.7016550490E-001 +6.2008308553E+001  -7.7435349605E+000 +1.4967796205E+002 
49933333333.333 -7.9462037023E+000 +1.5127355875E+002  -8.9357289822E-001 +6.2002970646E+001  -8.9440269668E-001 +6.1825919911E+001  -7.9021979141E+000 +1.4971856966E+002 
49966666666.667 -8.1166979744E+000 +1.5359140936E+002  -8.8352913263E-001 +6.1462467416E+001  -8.7511681739E-001 +6.1216614915E+001  -8.1045150078E+000 +1.5197668623E+002 
50000000000.000 -7.6917938859E+000 +1.5197174392E+002  -9.4929715482E-001 +6.1184010354E+001  -9.5884353687E-001 +6.1104400229E+001  -7.6427332241E+000 +1.5051543504E+002 
50033333333.333 -7.8694291714E+000 +1.5163079756E+002  -9.5701724283E-001 +6.1031369904E+001  -9.6180464241E-001 +6.0821926114E+001  -7.7901044122E+000 +1.5004844436E+002 
50066666666.667 -8.0209544320E+000 +1.5166517429E+002  -9.6621453748E-001 +6.0715228356E+001  -9.7092415474E-001 +6.0482399477E+001  -7.9224193674E+000 +1.4992217136E+002 
50100000000.000 -8.1748175879E+000 +1.5339331009E+002  -9.8520348573E-001 +6.0132315229E+001  -9.9580925028E-001 +5.9991651425E+001  -8.1038308792E+000 +1.5130465695E+002 
50133333333.333 -8.0656671460E+000 +1.5240681326E+002  -1.0655779009E+000 +6.0145083173E+001  -1.0765918030E+000 +5.9986097830E+001  -8.0097503081E+000 +1.5027731075E+002 
50166666666.667 -8.3240298737E+000 +1.5377125030E+002  -1.1128913971E+000 +5.9760354530E+001  -1.1160011194E+000 +5.9694383781E+001  -8.2991027743E+000 +1.5139885315E+002 
50200000000.000 -7.9653641363E+000 +1.5770908998E+002  -1.2976338268E+000 +5.9835125011E+001  -1.2990212365E+000 +5.9662206108E+001  -8.0174843861E+000 +1.5544520285E+002 
50233333333.333 -7.6212289620E+000 +1.5630015657E+002  -1.3591112225E+000 +6.1061274383E+001  -1.3537233873E+000 +6.1013028386E+001  -7.6725131265E+000 +1.5417633118E+002 
50266666666.667 -7.4015179439E+000 +1.5418672909E+002  -1.2409132929E+000 +6.1984580877E+001  -1.2315968735E+000 +6.1821346112E+001  -7.4646955190E+000 +1.5222520090E+002 
50300000000.000 -7.3892893098E+000 +1.5299130348E+002  -1.0938391949E+000 +6.2564553274E+001  -1.0958841623E+000 +6.2126287510E+001  -7.4666020649E+000 +1.5115966947E+002 
50333333333.333 -7.4651018687E+000 +1.5179278453E+002  -9.7094280920E-001 +6.2258126896E+001  -9.7256088014E-001 +6.1898114314E+001  -7.5337659901E+000 +1.5005259910E+002 
50366666666.667 -7.5719468135E+000 +1.5137224679E+002  -8.9866222108E-001 +6.1773593368E+001  -8.8876930677E-001 +6.1515149494E+001  -7.6415019693E+000 +1.4972395902E+002 
50400000000.000 -7.6209290696E+000 +1.5136621227E+002  -8.5344332927E-001 +6.1418165095E+001  -8.4909588175E-001 +6.1228969286E+001  -7.7062250997E+000 +1.4988152351E+002 
50433333333.333 -7.5925789967E+000 +1.5164026888E+002  -8.2018134415E-001 +6.1374085589E+001  -8.1053424011E-001 +6.1236827197E+001  -7.6981192609E+000 +1.5036886581E+002 
50466666666.667 -7.2400115075E+000 +1.5132696674E+002  -4.9831566702E-001 +6.1931376178E+001  -5.0392441421E-001 +6.2079185688E+001  -7.3276816769E+000 +1.5049481442E+002 
50500000000.000 -7.6706185498E+000 +1.4916452284E+002  -6.4221412556E-001 +5.8811561498E+001  -6.4175063471E-001 +5.8458877008E+001  -7.7502597660E+000 +1.4839839916E+002 
50533333333.333 -7.6115900053E+000 +1.4964882796E+002  -6.5753984974E-001 +5.8875513382E+001  -6.5959336934E-001 +5.8703292559E+001  -7.6281910854E+000 +1.4949425785E+002 
50566666666.667 -7.5985578440E+000 +1.4779662772E+002  -6.4111633281E-001 +5.8349317476E+001  -6.3965956380E-001 +5.8486957658E+001  -7.4331095497E+000 +1.4798630946E+002 
50600000000.000 -7.7403846365E+000 +1.4900065289E+002  -5.3336357795E-001 +5.7226637219E+001  -5.4071579764E-001 +5.7006515499E+001  -7.4323812095E+000 +1.4755573135E+002 
50633333333.333 -7.7048527459E+000 +1.4843288916E+002  -6.9416534226E-001 +5.6262857107E+001  -6.9666128649E-001 +5.5728756093E+001  -7.4687063682E+000 +1.4614048620E+002 
50666666666.667 -7.6466252211E+000 +1.4786269619E+002  -8.4995483620E-001 +5.5717075095E+001  -8.4379670027E-001 +5.5399284007E+001  -7.5423940822E+000 +1.4514483362E+002 
50700000000.000 -7.6318597033E+000 +1.4641703767E+002  -9.8546987179E-001 +5.5421546677E+001  -9.8527114478E-001 +5.5429443324E+001  -7.6054632613E+000 +1.4387183297E+002 
50733333333.333 -7.7857444720E+000 +1.4451765639E+002  -1.1151682502E+000 +5.5751383410E+001  -1.1238306031E+000 +5.5794342041E+001  -7.8112575298E+000 +1.4217892471E+002 
50766666666.667 -8.2171744209E+000 +1.4368568436E+002  -1.1664844264E+000 +5.6605023720E+001  -1.1644239739E+000 +5.6632808430E+001  -8.2370779750E+000 +1.4198438920E+002 
