!  2-Port S-parameters saved by WinCal
! VAR ChuckHeaterState=Unknown
! VAR ChuckTemp=NaN
! VAR ChuckTempUnits=C
! VAR NAME=S6 2
! VAR FILENAME=S6 2.S2P
! VAR DATE=8/1/2024 12:10:27 PM
! VAR PHYS_PORTS=1,2
! VAR ObjTypeName=DATASET
! VAR IndexType=Frequency
!
# Hz S DB R 1
47000000000.000 -6.6167222726E+000 +1.7342077534E+002  -1.2851673989E+000 +8.7776907528E+001  -1.2820317138E+000 +8.0016981534E+001  -6.6619474414E+000 +1.7250064893E+002 
47033333333.333 -6.6878514575E+000 +1.7132008211E+002  -1.2228234134E+000 +8.5729868899E+001  -1.2129267376E+000 +7.9790555765E+001  -6.6876716491E+000 +1.7074221156E+002 
47066666666.667 -6.7104175210E+000 +1.7088698698E+002  -1.1983913626E+000 +8.4444138935E+001  -1.1891817477E+000 +7.9605576678E+001  -6.6630818104E+000 +1.7004102006E+002 
47100000000.000 -6.7173915437E+000 +1.7067635735E+002  -1.1921916098E+000 +8.3677872317E+001  -1.1829567236E+000 +7.9592831090E+001  -6.6596896954E+000 +1.6957280886E+002 
47133333333.333 -6.6760482612E+000 +1.7086461061E+002  -1.1511137431E+000 +8.3522880072E+001  -1.1502183831E+000 +8.0108376876E+001  -6.6328064970E+000 +1.6952710979E+002 
47166666666.667 -5.9984873023E+000 +1.6807884865E+002  -3.7099962788E-001 +8.3387756187E+001  -3.6135812003E-001 +7.8237707824E+001  -5.9939905310E+000 +1.6664947821E+002 
47200000000.000 -6.9641236411E+000 +1.6717625489E+002  -1.0973824594E+000 +7.8993522079E+001  -1.0812011940E+000 +7.5876021784E+001  -6.9745488779E+000 +1.6583092598E+002 
47233333333.333 -7.0581050588E+000 +1.6863675874E+002  -1.2284922890E+000 +7.8747474347E+001  -1.2170125414E+000 +7.6366984530E+001  -7.0804311933E+000 +1.6732291752E+002 
47266666666.667 -7.0179350670E+000 +1.6993438557E+002  -1.3432524653E+000 +7.8643008617E+001  -1.3381740264E+000 +7.6612224793E+001  -7.0504321360E+000 +1.6876230260E+002 
47300000000.000 -6.7538453093E+000 +1.7006934016E+002  -1.4105645415E+000 +7.9068878912E+001  -1.4117002628E+000 +7.7506828285E+001  -6.7482343112E+000 +1.6908760044E+002 
47333333333.333 -6.9326482581E+000 +1.6860488667E+002  -1.3453835191E+000 +8.0308837532E+001  -1.3345361948E+000 +7.9188720996E+001  -6.9217278782E+000 +1.6747963477E+002 
47366666666.667 -6.8183316615E+000 +1.6901364778E+002  -1.1706585735E+000 +7.9755771452E+001  -1.1665522569E+000 +7.8458576426E+001  -6.7846735224E+000 +1.6774585027E+002 
47400000000.000 -6.9548317120E+000 +1.7004133854E+002  -1.0022006404E+000 +7.9853443534E+001  -1.0000448669E+000 +7.8171194051E+001  -6.9466311856E+000 +1.6872629590E+002 
47433333333.333 -6.5620545786E+000 +1.6796830091E+002  -1.0870158306E+000 +7.7790047238E+001  -1.0840202791E+000 +7.7128357181E+001  -6.5507368245E+000 +1.6666341518E+002 
47466666666.667 -6.7240211966E+000 +1.6789781405E+002  -1.0746085701E+000 +7.7702903991E+001  -1.0695363729E+000 +7.7301002852E+001  -6.7042912334E+000 +1.6630403695E+002 
47500000000.000 -6.6633203769E+000 +1.6814816459E+002  -1.0368740613E+000 +7.7478480353E+001  -1.0351954613E+000 +7.7278080835E+001  -6.6983786855E+000 +1.6623484263E+002 
47533333333.333 -6.4049248767E+000 +1.6722937088E+002  -9.9254088716E-001 +7.7286063328E+001  -9.9016079911E-001 +7.7327869082E+001  -6.5447227320E+000 +1.6532304751E+002 
47566666666.667 -6.7475228270E+000 +1.6616706569E+002  -7.9188431666E-001 +7.6833496922E+001  -7.8885460017E-001 +7.6214460860E+001  -6.9236377132E+000 +1.6558175575E+002 
47600000000.000 -6.6992213120E+000 +1.6516299365E+002  -8.5522597363E-001 +7.5344623942E+001  -8.4711309556E-001 +7.4289830096E+001  -6.7497827290E+000 +1.6470691254E+002 
47633333333.333 -6.7828882608E+000 +1.6431241947E+002  -9.8006845847E-001 +7.4609860538E+001  -9.7986257692E-001 +7.3670983103E+001  -6.8208968262E+000 +1.6367942825E+002 
47666666666.667 -7.3088824378E+000 +1.6191759568E+002  -9.7408209433E-001 +7.4136474719E+001  -9.6681414435E-001 +7.3179738116E+001  -7.3558648771E+000 +1.6166591416E+002 
47700000000.000 -8.0295119388E+000 +1.6674345279E+002  -1.2527710982E+000 +7.1276210583E+001  -1.2487907868E+000 +7.0618543260E+001  -7.8558251545E+000 +1.6661844470E+002 
47733333333.333 -6.3581916066E+000 +1.7064971056E+002  -1.6810195104E+000 +7.6615056864E+001  -1.6768553139E+000 +7.6201029344E+001  -6.2677339404E+000 +1.6832182500E+002 
47766666666.667 -6.3653844294E+000 +1.6569434487E+002  -1.3472318999E+000 +7.6337485995E+001  -1.3441623641E+000 +7.5969819408E+001  -6.3683997565E+000 +1.6379904593E+002 
47800000000.000 -6.5722413780E+000 +1.6386177091E+002  -1.3277934295E+000 +7.5383248890E+001  -1.3299330927E+000 +7.5231302634E+001  -6.6230545488E+000 +1.6224683975E+002 
47833333333.333 -7.0073111006E+000 +1.6208108135E+002  -1.3212632655E+000 +7.5604325883E+001  -1.3133025106E+000 +7.5531896872E+001  -7.0861938409E+000 +1.6058827623E+002 
47866666666.667 -7.3308784832E+000 +1.6356484921E+002  -1.2469944360E+000 +7.6297829060E+001  -1.2388393129E+000 +7.6044385829E+001  -7.4191369903E+000 +1.6246014606E+002 
47900000000.000 -7.3913283651E+000 +1.6538537835E+002  -1.1171093594E+000 +7.6148716240E+001  -1.1198586024E+000 +7.5967089029E+001  -7.4307407632E+000 +1.6459959214E+002 
47933333333.333 -7.3025507730E+000 +1.6691484517E+002  -1.0479808930E+000 +7.5729714390E+001  -1.0494611612E+000 +7.5526821492E+001  -7.3082875490E+000 +1.6616057844E+002 
47966666666.667 -7.1391429105E+000 +1.6699377803E+002  -1.0043845457E+000 +7.6164737260E+001  -1.0042485783E+000 +7.5828973340E+001  -7.0920535459E+000 +1.6660589780E+002 
48000000000.000 -6.5777120535E+000 +1.7240635115E+002  -2.2413163416E-001 +7.6550191126E+001  -2.2061863011E-001 +7.5369457023E+001  -6.1775786800E+000 +1.6525985971E+002 
48033333333.333 -6.7636595939E+000 +1.6317326504E+002  -1.0123547133E+000 +7.1354672755E+001  -1.0092455868E+000 +7.1117038831E+001  -6.8398845090E+000 +1.6279409452E+002 
48066666666.667 -6.9647574003E+000 +1.6407288721E+002  -1.1094564231E+000 +7.2119764462E+001  -1.1063860534E+000 +7.1985076152E+001  -6.9579963127E+000 +1.6317668019E+002 
48100000000.000 -7.0091469069E+000 +1.6463509481E+002  -1.1140106254E+000 +7.2296518000E+001  -1.1159676147E+000 +7.2444233550E+001  -6.9859022380E+000 +1.6357205564E+002 
48133333333.333 -6.5249612917E+000 +1.6662183117E+002  -1.0698202293E+000 +7.0960902100E+001  -1.0727391908E+000 +7.1208760699E+001  -6.4655810316E+000 +1.6522229714E+002 
48166666666.667 -6.5488153641E+000 +1.6349173269E+002  -1.2718744231E+000 +7.1531975675E+001  -1.2673954676E+000 +7.1338250779E+001  -6.5407004347E+000 +1.6204215387E+002 
48200000000.000 -6.3977633119E+000 +1.6123575130E+002  -1.4398379653E+000 +7.1221757082E+001  -1.4304507684E+000 +7.1269942926E+001  -6.4098447604E+000 +1.5964691672E+002 
48233333333.333 -7.6490728825E+000 +1.5789860088E+002  -1.5408655141E+000 +7.6137024726E+001  -1.5385149775E+000 +7.6139828323E+001  -7.7380251687E+000 +1.5695890362E+002 
48266666666.667 -7.2469016768E+000 +1.6365762911E+002  -1.0204085781E+000 +7.4579594518E+001  -1.0194422040E+000 +7.4708392486E+001  -7.2550266983E+000 +1.6257535916E+002 
48300000000.000 -6.9792588081E+000 +1.6288317153E+002  -8.5020262126E-001 +7.3490944945E+001  -8.5287591190E-001 +7.3608484686E+001  -6.9924784003E+000 +1.6179756440E+002 
48333333333.333 -7.1273922177E+000 +1.6212053453E+002  -8.8071125463E-001 +7.2282531674E+001  -8.8076645810E-001 +7.2210933210E+001  -7.1265800430E+000 +1.6107159990E+002 
48366666666.667 -6.9922706304E+000 +1.6512329372E+002  -9.2157712334E-001 +7.1079692485E+001  -9.0725039257E-001 +7.0998069861E+001  -6.9491332518E+000 +1.6396044162E+002 
48400000000.000 -6.9707858134E+000 +1.6096636411E+002  -1.0173140635E+000 +7.1117448352E+001  -1.0148246956E+000 +7.0542176128E+001  -6.9608071295E+000 +1.5974122189E+002 
48433333333.333 -7.1814016211E+000 +1.6064235829E+002  -1.0373231242E+000 +7.0814843519E+001  -1.0422383106E+000 +7.0505038495E+001  -7.1831656839E+000 +1.5944434184E+002 
48466666666.667 -7.2253681149E+000 +1.6226651043E+002  -1.0873243867E+000 +7.0500874264E+001  -1.0867223815E+000 +7.0326457470E+001  -7.2243980245E+000 +1.6121654476E+002 
48500000000.000 -7.0118323565E+000 +1.6143855721E+002  -1.1303550484E+000 +7.0672730063E+001  -1.1324005239E+000 +7.0429067462E+001  -6.9980249812E+000 +1.6023263548E+002 
48533333333.333 -7.2045057458E+000 +1.6083323542E+002  -1.0734832743E+000 +7.0457787156E+001  -1.0763469496E+000 +7.0285442977E+001  -7.1936500706E+000 +1.5971651651E+002 
48566666666.667 -7.1246650325E+000 +1.6166981027E+002  -1.1325905238E+000 +7.0209204737E+001  -1.1282703469E+000 +7.0007632287E+001  -7.1022743993E+000 +1.6049889413E+002 
48600000000.000 -7.2818943602E+000 +1.6120520403E+002  -1.1338003707E+000 +6.9738704983E+001  -1.1364455927E+000 +6.9588980261E+001  -7.2671556737E+000 +1.6012944546E+002 
48633333333.333 -7.1972489360E+000 +1.6169006361E+002  -1.1702680576E+000 +6.9563486967E+001  -1.1703472624E+000 +6.9386289248E+001  -7.1390126610E+000 +1.6060092182E+002 
48666666666.667 -7.2253833029E+000 +1.6082893201E+002  -1.1813450840E+000 +6.9998681142E+001  -1.1751180828E+000 +6.9984823458E+001  -7.1769098467E+000 +1.5963048538E+002 
48700000000.000 -7.3680474496E+000 +1.6118599250E+002  -1.1742983177E+000 +6.9650256505E+001  -1.1688646424E+000 +6.9678414844E+001  -7.3096752289E+000 +1.5985059127E+002 
48733333333.333 -7.3572758305E+000 +1.6253192149E+002  -1.2339398934E+000 +6.9625761466E+001  -1.2386329258E+000 +6.9649500590E+001  -7.3205246191E+000 +1.6107106127E+002 
48766666666.667 -7.1197028757E+000 +1.6354124340E+002  -1.2881914931E+000 +7.0377263776E+001  -1.2842630697E+000 +7.0224317322E+001  -7.0958370057E+000 +1.6195546981E+002 
48800000000.000 -6.8171785616E+000 +1.6291122018E+002  -1.2034891267E+000 +7.1649928992E+001  -1.1950190845E+000 +7.1249210466E+001  -6.8206113153E+000 +1.6150730142E+002 
48833333333.333 -6.2009156440E+000 +1.5997416007E+002  -5.4688360626E-001 +7.2398228077E+001  -5.5326846092E-001 +7.0994873185E+001  -6.2178556025E+000 +1.5850558631E+002 
48866666666.667 -7.0907046942E+000 +1.5789085417E+002  -9.6224308924E-001 +6.8871430640E+001  -9.6034335668E-001 +6.8727640209E+001  -7.0748242384E+000 +1.5647089770E+002 
48900000000.000 -7.1144268195E+000 +1.5867029459E+002  -9.7946559891E-001 +6.8822253630E+001  -9.6678122692E-001 +6.8804337011E+001  -7.1076349313E+000 +1.5697713398E+002 
48933333333.333 -7.1064753546E+000 +1.5870044385E+002  -9.8225970936E-001 +6.8422087529E+001  -9.7945132381E-001 +6.8658862611E+001  -7.1345531760E+000 +1.5693095822E+002 
48966666666.667 -7.0945786593E+000 +1.5761661194E+002  -1.0483618815E+000 +6.8439324029E+001  -1.0429327031E+000 +6.8565789692E+001  -7.1532027838E+000 +1.5578083169E+002 
49000000000.000 -7.2438235236E+000 +1.5870182166E+002  -9.4538408020E-001 +6.8697129266E+001  -9.4078991492E-001 +6.8453274647E+001  -7.3360643525E+000 +1.5700596645E+002 
49033333333.333 -7.1531242466E+000 +1.5885334133E+002  -8.9657769713E-001 +6.8449120169E+001  -8.9325835929E-001 +6.8272837024E+001  -7.2937192604E+000 +1.5724685661E+002 
49066666666.667 -6.9908249170E+000 +1.5830216120E+002  -8.1143708884E-001 +6.7764974263E+001  -8.1541957586E-001 +6.7818234690E+001  -7.2073052667E+000 +1.5732536519E+002 
49100000000.000 -7.0934017517E+000 +1.5635798964E+002  -7.7552408622E-001 +6.6727642214E+001  -7.6799560765E-001 +6.6733413177E+001  -7.2548970753E+000 +1.5646675335E+002 
49133333333.333 -7.1989044094E+000 +1.5593213874E+002  -8.8154336336E-001 +6.5827090953E+001  -8.7484897072E-001 +6.5607711025E+001  -7.2063318301E+000 +1.5613972899E+002 
49166666666.667 -7.2645331741E+000 +1.5569060351E+002  -9.7645315153E-001 +6.5400444236E+001  -9.7848461361E-001 +6.5163097686E+001  -7.2094800683E+000 +1.5565581368E+002 
49200000000.000 -7.2581913712E+000 +1.5364244189E+002  -1.0622210163E+000 +6.5195332976E+001  -1.0698815284E+000 +6.5211246922E+001  -7.1846804963E+000 +1.5344719550E+002 
49233333333.333 -7.6839434493E+000 +1.5441502386E+002  -1.1316592633E+000 +6.4552566106E+001  -1.1325033235E+000 +6.4580315574E+001  -7.5106851637E+000 +1.5427722498E+002 
49266666666.667 -7.9333587923E+000 +1.5594384102E+002  -1.4080080021E+000 +6.4493451944E+001  -1.4041475742E+000 +6.4620950154E+001  -7.6528068489E+000 +1.5532042401E+002 
49300000000.000 -7.6412416560E+000 +1.5568825789E+002  -1.4296952479E+000 +6.7016421641E+001  -1.4264950793E+000 +6.7186376344E+001  -7.3805420203E+000 +1.5375727799E+002 
49333333333.333 -8.2595202677E+000 +1.5520341866E+002  -1.1715007020E+000 +6.6956830134E+001  -1.1802444340E+000 +6.7135960000E+001  -8.1251850745E+000 +1.5311290128E+002 
49366666666.667 -7.9753926683E+000 +1.6156117989E+002  -1.2964314253E+000 +6.7372282057E+001  -1.2940811263E+000 +6.7689200257E+001  -7.8205423421E+000 +1.5869416782E+002 
49400000000.000 -7.7335814840E+000 +1.5919847287E+002  -1.0152949330E+000 +6.7208813199E+001  -1.0110431363E+000 +6.7531995965E+001  -7.7454011087E+000 +1.5680027838E+002 
49433333333.333 -7.6129976562E+000 +1.5893754603E+002  -9.5972242128E-001 +6.6646989849E+001  -9.5672162151E-001 +6.6855079771E+001  -7.6366921255E+000 +1.5697324359E+002 
49466666666.667 -7.6615418711E+000 +1.5919849437E+002  -9.3988752749E-001 +6.6107411463E+001  -9.4662913457E-001 +6.6175810495E+001  -7.6802882324E+000 +1.5736223980E+002 
49500000000.000 -7.5998100916E+000 +1.5958755336E+002  -9.3171589684E-001 +6.5644088121E+001  -9.3674451296E-001 +6.5637805984E+001  -7.6340066218E+000 +1.5776704032E+002 
49533333333.333 -7.4511931966E+000 +1.6040267890E+002  -9.2116138038E-001 +6.5550450187E+001  -9.1447943902E-001 +6.5637479491E+001  -7.5026204784E+000 +1.5857295819E+002 
49566666666.667 -7.1777812953E+000 +1.5847169885E+002  -8.8904316249E-001 +6.3705120413E+001  -8.8254579188E-001 +6.3773289424E+001  -7.1394576874E+000 +1.5711313575E+002 
49600000000.000 -7.1930089017E+000 +1.5846286854E+002  -1.0339827125E+000 +6.4436119533E+001  -1.0346340588E+000 +6.4486078206E+001  -7.2326672084E+000 +1.5684526652E+002 
49633333333.333 -7.1362051095E+000 +1.5805842031E+002  -1.0346784627E+000 +6.4854009590E+001  -1.0352065032E+000 +6.4850719715E+001  -7.1668951426E+000 +1.5658633790E+002 
49666666666.667 -6.9170098767E+000 +1.6004572688E+002  -7.2118467672E-001 +6.5864688277E+001  -7.2458853506E-001 +6.5399694298E+001  -6.8140790258E+000 +1.5615546204E+002 
49700000000.000 -6.8874024276E+000 +1.5405677832E+002  -9.7302018519E-001 +6.2899875075E+001  -9.7430673040E-001 +6.3096390602E+001  -6.9926471743E+000 +1.5409630759E+002 
49733333333.333 -7.0089774088E+000 +1.5413065502E+002  -9.9058765850E-001 +6.3357359604E+001  -9.9121304462E-001 +6.3680072770E+001  -7.0217192789E+000 +1.5352539878E+002 
49766666666.667 -6.9982668523E+000 +1.5349015576E+002  -9.7298648276E-001 +6.3415034256E+001  -9.6965947898E-001 +6.3673330593E+001  -6.9889883219E+000 +1.5279658850E+002 
49800000000.000 -6.9576462036E+000 +1.5188942223E+002  -9.4776540850E-001 +6.3006567401E+001  -9.4937823732E-001 +6.3036446105E+001  -6.9121637395E+000 +1.5121921575E+002 
49833333333.333 -7.3354282162E+000 +1.4748170447E+002  -1.1488976092E+000 +6.3292415113E+001  -1.1412863722E+000 +6.3206514246E+001  -7.1980514812E+000 +1.4645334109E+002 
49866666666.667 -7.7656155872E+000 +1.5152726403E+002  -8.5567087971E-001 +6.3459033600E+001  -8.4868454824E-001 +6.3368837814E+001  -7.7514773566E+000 +1.5002175481E+002 
49900000000.000 -7.7331520667E+000 +1.5159619123E+002  -8.8055951412E-001 +6.2456903012E+001  -8.7861214050E-001 +6.2528976261E+001  -7.7318346930E+000 +1.5040455472E+002 
49933333333.333 -7.9220794692E+000 +1.5163495075E+002  -9.0739726836E-001 +6.2214711100E+001  -9.0037781278E-001 +6.2443073848E+001  -7.8912236296E+000 +1.5033899969E+002 
49966666666.667 -8.0836790438E+000 +1.5396476765E+002  -8.8171383794E-001 +6.1628712429E+001  -8.7925494300E-001 +6.1720377980E+001  -8.0778366200E+000 +1.5271437064E+002 
50000000000.000 -7.6679471003E+000 +1.5232831583E+002  -9.6204157416E-001 +6.1358795717E+001  -9.6018283222E-001 +6.1592062199E+001  -7.6177966390E+000 +1.5119236578E+002 
50033333333.333 -7.8391444373E+000 +1.5194278350E+002  -9.7053001934E-001 +6.1231112587E+001  -9.6923636231E-001 +6.1371323189E+001  -7.7702299472E+000 +1.5076326491E+002 
50066666666.667 -7.9907065518E+000 +1.5201016786E+002  -9.7788425889E-001 +6.0881820732E+001  -9.7378341989E-001 +6.1025120202E+001  -7.8941956462E+000 +1.5057551998E+002 
50100000000.000 -8.1399456014E+000 +1.5374746942E+002  -9.9989705650E-001 +6.0376988118E+001  -1.0014524707E+000 +6.0465222955E+001  -8.0813168214E+000 +1.5197490584E+002 
50133333333.333 -8.0459014802E+000 +1.5271628844E+002  -1.0691342689E+000 +6.0331365419E+001  -1.0755434011E+000 +6.0487243605E+001  -7.9813077763E+000 +1.5096144695E+002 
50166666666.667 -8.3044738901E+000 +1.5404133026E+002  -1.1108971898E+000 +6.0014124765E+001  -1.1132249400E+000 +6.0222804020E+001  -8.2649455257E+000 +1.5197539041E+002 
50200000000.000 -7.9448743134E+000 +1.5798103154E+002  -1.2963229451E+000 +6.0014184977E+001  -1.2995053994E+000 +6.0091445132E+001  -8.0024586729E+000 +1.5602270358E+002 
50233333333.333 -7.6282080074E+000 +1.5668347428E+002  -1.3659654337E+000 +6.1251960311E+001  -1.3605503647E+000 +6.1413020706E+001  -7.6599895259E+000 +1.5482265360E+002 
50266666666.667 -7.3869478535E+000 +1.5466203614E+002  -1.2471836774E+000 +6.2192756997E+001  -1.2518386125E+000 +6.2266325596E+001  -7.4546888522E+000 +1.5293468167E+002 
50300000000.000 -7.3698315709E+000 +1.5342502913E+002  -1.1127255163E+000 +6.2856815145E+001  -1.1029711607E+000 +6.2626447498E+001  -7.4447243933E+000 +1.5187783277E+002 
50333333333.333 -7.4441531683E+000 +1.5222524965E+002  -9.7748879242E-001 +6.2529966818E+001  -9.7762800368E-001 +6.2359853238E+001  -7.5068535098E+000 +1.5077516146E+002 
50366666666.667 -7.5375255335E+000 +1.5172936165E+002  -8.9345840925E-001 +6.1980431692E+001  -8.9308270381E-001 +6.2011438115E+001  -7.6272813596E+000 +1.5040883783E+002 
50400000000.000 -7.5809237912E+000 +1.5171799066E+002  -8.5572615349E-001 +6.1636442984E+001  -8.6380693376E-001 +6.1687667915E+001  -7.6754677582E+000 +1.5051838427E+002 
50433333333.333 -7.5681602333E+000 +1.5196278202E+002  -8.2512321433E-001 +6.1563710557E+001  -8.2167884172E-001 +6.1716870076E+001  -7.6727378801E+000 +1.5101981593E+002 
50466666666.667 -7.2076360044E+000 +1.5163485550E+002  -5.0725526884E-001 +6.2149179580E+001  -5.0300526171E-001 +6.2500983531E+001  -7.2993344886E+000 +1.5117411806E+002 
50500000000.000 -7.6458858225E+000 +1.4951378669E+002  -6.5423554275E-001 +5.9072499436E+001  -6.5503786649E-001 +5.8973219547E+001  -7.7258236328E+000 +1.4906749644E+002 
50533333333.333 -7.5879901390E+000 +1.4999195905E+002  -6.6300974019E-001 +5.9145200268E+001  -6.7020497463E-001 +5.9202168170E+001  -7.6066285662E+000 +1.5015789706E+002 
50566666666.667 -7.5816282455E+000 +1.4817183275E+002  -6.3988546420E-001 +5.8595493348E+001  -6.4432841995E-001 +5.8976963388E+001  -7.4130278612E+000 +1.4863080524E+002 
50600000000.000 -7.7167778640E+000 +1.4936100419E+002  -5.4032174255E-001 +5.7465090677E+001  -5.3843173048E-001 +5.7511234593E+001  -7.4152066238E+000 +1.4825241972E+002 
50633333333.333 -7.6695997861E+000 +1.4878346286E+002  -6.9787085759E-001 +5.6468954899E+001  -6.9992443146E-001 +5.6270633067E+001  -7.4399235366E+000 +1.4684506764E+002 
50666666666.667 -7.6116717212E+000 +1.4823004779E+002  -8.3990210963E-001 +5.5960540551E+001  -8.4566672668E-001 +5.5912822005E+001  -7.5183007409E+000 +1.4589490747E+002 
50700000000.000 -7.6002045851E+000 +1.4677009772E+002  -9.9017327206E-001 +5.5682438811E+001  -9.8429614572E-001 +5.5964155323E+001  -7.5778975408E+000 +1.4456711180E+002 
50733333333.333 -7.7526951581E+000 +1.4491166225E+002  -1.1122910742E+000 +5.6017154878E+001  -1.1194558149E+000 +5.6344088222E+001  -7.7686689038E+000 +1.4292067506E+002 
50766666666.667 -8.1656753217E+000 +1.4401624577E+002  -1.1646633901E+000 +5.6816009716E+001  -1.1669598808E+000 +5.7103814754E+001  -8.1890900328E+000 +1.4263985062E+002 
