!  2-Port S-parameters saved by WinCal
! VAR ChuckHeaterState=Unknown
! VAR ChuckTemp=NaN
! VAR ChuckTempUnits=C
! VAR NAME=S6
! VAR FILENAME=S6.S2P
! VAR DATE=8/1/2024 12:39:49 PM
! VAR PHYS_PORTS=1,2
! VAR ObjTypeName=DATASET
! VAR IndexType=Frequency
!
# Hz S DB R 1
70000000000.000 -7.7675099759E+000 -1.5331024836E+002  -9.6408923723E-001 -6.7793331397E+001  -9.6533635322E-001 -6.7103549658E+001  -7.8164101474E+000 -1.5518921861E+002 
70050000000.000 -7.7700451363E+000 -1.5484509371E+002  -1.0293576468E+000 -6.8176995599E+001  -1.0254318763E+000 -6.7169136783E+001  -7.8187292006E+000 -1.5622754388E+002 
70100000000.000 -7.6013257804E+000 -1.5419888408E+002  -1.1036724970E+000 -6.8036554958E+001  -1.0947252886E+000 -6.7012703956E+001  -7.7710228444E+000 -1.5549682852E+002 
70150000000.000 -7.4028214670E+000 -1.5572479817E+002  -9.0707919559E-001 -6.6439718052E+001  -9.2558924354E-001 -6.6056836122E+001  -7.4793369913E+000 -1.5560036884E+002 
70200000000.000 -7.2786892177E+000 -1.5943108838E+002  -6.6465766143E-001 -7.0537787415E+001  -6.5171730812E-001 -7.1062974159E+001  -7.1565822551E+000 -1.6040727342E+002 
70250000000.000 -7.6522936986E+000 -1.5958184926E+002  -1.0186532943E+000 -7.1580198985E+001  -1.0597431124E+000 -7.0613227321E+001  -7.6148999578E+000 -1.6059122711E+002 
70300000000.000 -7.7755258200E+000 -1.5880365499E+002  -1.2651945063E+000 -7.1920518502E+001  -1.2680519881E+000 -6.9853109614E+001  -7.7604349256E+000 -1.6020241546E+002 
70350000000.000 -7.6027636134E+000 -1.5819401300E+002  -1.2260972482E+000 -7.0233200358E+001  -1.2507310815E+000 -6.9564625360E+001  -7.6406095898E+000 -1.5954080824E+002 
70400000000.000 -7.4996707477E+000 -1.5911558907E+002  -1.2316898737E+000 -6.9986458192E+001  -1.2164862333E+000 -6.9526513281E+001  -7.5117714410E+000 -1.5998296940E+002 
70450000000.000 -7.8211765150E+000 -1.6053558532E+002  -1.1415951000E+000 -7.0468652365E+001  -1.1519516922E+000 -6.9527009270E+001  -7.8233500335E+000 -1.6172036528E+002 
70500000000.000 -7.7590626409E+000 -1.5887050222E+002  -1.1395585542E+000 -7.0653942804E+001  -1.1266945452E+000 -7.0146649381E+001  -7.7714181623E+000 -1.6005724088E+002 
70550000000.000 -7.5979264385E+000 -1.5812822962E+002  -1.1756728192E+000 -7.0973048269E+001  -1.1906849057E+000 -7.0298277512E+001  -7.6196922964E+000 -1.5923038573E+002 
70600000000.000 -7.4090732804E+000 -1.5928600083E+002  -1.2368013370E+000 -7.0655030667E+001  -1.2335854449E+000 -6.9952817049E+001  -7.4187288338E+000 -1.6010383461E+002 
70650000000.000 -7.2991728492E+000 -1.5824645138E+002  -1.1075785421E+000 -7.0213769584E+001  -1.0979787449E+000 -6.9724530991E+001  -7.2703051080E+000 -1.5916181041E+002 
70700000000.000 -7.1905231891E+000 -1.6018675297E+002  -8.7578276386E-001 -7.0534268039E+001  -9.1093014970E-001 -7.0348717385E+001  -7.1171016041E+000 -1.6135104628E+002 
70750000000.000 -7.3892099643E+000 -1.6198647572E+002  -7.6745720969E-001 -7.2674492198E+001  -7.5593609746E-001 -7.1786228457E+001  -7.2870826619E+000 -1.6324108139E+002 
70800000000.000 -8.0546899011E+000 -1.6225443127E+002  -8.7820404628E-001 -7.5136828078E+001  -8.8182282631E-001 -7.4105751101E+001  -7.9213555898E+000 -1.6435865086E+002 
70850000000.000 -7.3080716276E+000 -1.5351473565E+002  -1.5592410384E+000 -7.4106372183E+001  -1.5546894696E+000 -7.3075752257E+001  -7.3959852488E+000 -1.5601268845E+002 
70900000000.000 -6.8318228199E+000 -1.5878717412E+002  -1.2734717768E+000 -7.2214172603E+001  -1.2726139796E+000 -7.0956282238E+001  -6.9521203498E+000 -1.6092940177E+002 
70950000000.000 -6.7031151343E+000 -1.5878047235E+002  -1.1427732885E+000 -7.1608492833E+001  -1.1636702650E+000 -7.1382005485E+001  -7.0783352024E+000 -1.6153128895E+002 
71000000000.000 -6.4400453087E+000 -1.6682500196E+002  -5.1631304447E-001 -7.4337304520E+001  -5.3079871795E-001 -7.3646685847E+001  -6.1623143078E+000 -1.6079823574E+002 
71050000000.000 -7.0200389393E+000 -1.6501978008E+002  -1.1469523694E+000 -7.6284350520E+001  -1.1616272598E+000 -7.4875322306E+001  -6.9574696211E+000 -1.6700404996E+002 
71100000000.000 -7.1764708106E+000 -1.6560039131E+002  -1.2614187106E+000 -7.5114886967E+001  -1.2612726152E+000 -7.4174010277E+001  -7.2001922945E+000 -1.6667373072E+002 
71150000000.000 -7.5605444204E+000 -1.6529215056E+002  -1.2464315330E+000 -7.4781148273E+001  -1.2455176862E+000 -7.4030986687E+001  -7.5350072728E+000 -1.6630161532E+002 
71200000000.000 -7.5696326790E+000 -1.6314655478E+002  -1.1857416383E+000 -7.5228496745E+001  -1.1913745520E+000 -7.4321291939E+001  -7.5661782042E+000 -1.6423855913E+002 
71250000000.000 -7.1564223010E+000 -1.6178780280E+002  -1.2153054766E+000 -7.5918269257E+001  -1.2204119497E+000 -7.5060443512E+001  -7.1446952196E+000 -1.6248171538E+002 
71300000000.000 -7.0810323186E+000 -1.6325837386E+002  -1.2884702629E+000 -7.5979298314E+001  -1.3066145184E+000 -7.5140224069E+001  -6.9509168630E+000 -1.6463260294E+002 
71350000000.000 -6.8828684972E+000 -1.6508506384E+002  -1.3954018133E+000 -7.6360323114E+001  -1.3901945426E+000 -7.5435119817E+001  -6.8428760844E+000 -1.6696961450E+002 
71400000000.000 -7.9219761490E+000 -1.6775909530E+002  -1.4853021915E+000 -7.2936404331E+001  -1.4877479994E+000 -7.2166842837E+001  -7.8528823532E+000 -1.6956833761E+002 
71450000000.000 -7.3389930945E+000 -1.6250140256E+002  -9.6350215591E-001 -7.4095402458E+001  -9.6873884151E-001 -7.3664800703E+001  -7.4288177137E+000 -1.6441128278E+002 
71500000000.000 -7.0063807725E+000 -1.6336237052E+002  -9.4163591826E-001 -7.6859157250E+001  -9.3155844107E-001 -7.6225456706E+001  -7.1191098217E+000 -1.6479507215E+002 
71550000000.000 -6.9782121936E+000 -1.6448869622E+002  -1.1316437056E+000 -7.8070653009E+001  -1.1527471228E+000 -7.6971509129E+001  -7.0505419737E+000 -1.6562115095E+002 
71600000000.000 -7.0267508652E+000 -1.6456388696E+002  -1.2270164744E+000 -7.8111193013E+001  -1.2455474939E+000 -7.6971683025E+001  -7.1056125007E+000 -1.6561984620E+002 
71650000000.000 -6.9991254412E+000 -1.6611844607E+002  -1.2856473279E+000 -7.7703214644E+001  -1.3087431786E+000 -7.6721537508E+001  -6.9904560328E+000 -1.6699954181E+002 
71700000000.000 -7.0658019435E+000 -1.6570192611E+002  -1.3039192794E+000 -7.7769243642E+001  -1.2918420830E+000 -7.7044246465E+001  -7.1023023087E+000 -1.6678430929E+002 
71750000000.000 -6.9690635662E+000 -1.6642870910E+002  -1.3171482285E+000 -7.7290397982E+001  -1.3156638249E+000 -7.6308585668E+001  -6.9863891421E+000 -1.6755158153E+002 
71800000000.000 -6.7215133498E+000 -1.6596649185E+002  -1.0185337842E+000 -7.6353062845E+001  -1.0275558007E+000 -7.5649343881E+001  -6.7698301380E+000 -1.6704841649E+002 
71850000000.000 -6.9472926383E+000 -1.6977181582E+002  -1.2091985774E+000 -7.9787121534E+001  -1.2103782808E+000 -7.8822587578E+001  -6.9761669677E+000 -1.7058154710E+002 
71900000000.000 -7.1639538774E+000 -1.6986852418E+002  -1.3144820464E+000 -7.9650573684E+001  -1.3265073401E+000 -7.8315256508E+001  -7.1664966265E+000 -1.7078193519E+002 
71950000000.000 -7.3104769551E+000 -1.6881940848E+002  -1.3011466766E+000 -7.8709482585E+001  -1.2882227714E+000 -7.7995657621E+001  -7.3772302676E+000 -1.6980579166E+002 
72000000000.000 -7.4897676743E+000 -1.6782571028E+002  -1.2925873950E+000 -7.9495907649E+001  -1.3079751789E+000 -7.8893924433E+001  -7.4391254008E+000 -1.6900832453E+002 
72050000000.000 -7.4006671397E+000 -1.6664345763E+002  -1.4494570024E+000 -7.9301854851E+001  -1.4537902115E+000 -7.8461226527E+001  -7.4471097633E+000 -1.6800340968E+002 
72100000000.000 -7.0854308387E+000 -1.6434682949E+002  -1.3983538521E+000 -7.8425632131E+001  -1.4141906053E+000 -7.7556370083E+001  -7.1792574763E+000 -1.6507577831E+002 
72150000000.000 -6.7259654406E+000 -1.6532765521E+002  -1.2435022136E+000 -7.8066420854E+001  -1.2430701220E+000 -7.7144279654E+001  -6.7605081734E+000 -1.6544092370E+002 
72200000000.000 -6.4772844943E+000 -1.6730460488E+002  -1.0170777400E+000 -7.8812081055E+001  -1.0522735623E+000 -7.7767515580E+001  -6.3490711351E+000 -1.6714361807E+002 
72250000000.000 -6.6541257205E+000 -1.6925807482E+002  -9.1394100695E-001 -8.0338095935E+001  -9.3681974069E-001 -7.9378137652E+001  -6.3809784278E+000 -1.7077805597E+002 
72300000000.000 -6.6816547642E+000 -1.7098675813E+002  -1.0360751868E+000 -8.1218213190E+001  -1.0423647328E+000 -8.0556408684E+001  -6.5813954023E+000 -1.7331945677E+002 
72350000000.000 -6.9298849935E+000 -1.7184146223E+002  -1.0594958949E+000 -8.1980336910E+001  -1.0546275958E+000 -8.1393291310E+001  -6.9238001599E+000 -1.7379336743E+002 
72400000000.000 -7.2322297073E+000 -1.7110332318E+002  -1.1454566175E+000 -8.3587177642E+001  -1.1456571103E+000 -8.2696505633E+001  -7.2477633025E+000 -1.7275806420E+002 
72450000000.000 -6.8234938441E+000 -1.6525767251E+002  -1.6490698520E+000 -8.2869462498E+001  -1.6502544267E+000 -8.1792494275E+001  -6.9368905079E+000 -1.6711269957E+002 
72500000000.000 -6.4431447182E+000 -1.7034182599E+002  -1.4320895461E+000 -8.1629866237E+001  -1.4438180170E+000 -8.0424053115E+001  -6.4997413437E+000 -1.7168383406E+002 
72550000000.000 -6.6795450979E+000 -1.7156981632E+002  -1.3682145599E+000 -8.1640505614E+001  -1.3752207486E+000 -8.0534694053E+001  -6.7718873239E+000 -1.7347084947E+002 
72600000000.000 -6.7926061468E+000 -1.7155691854E+002  -1.3236857294E+000 -7.9872379771E+001  -1.3278584921E+000 -7.9111616673E+001  -7.3754067959E+000 -1.7194381510E+002 
72650000000.000 -7.3368942341E+000 -1.7180863176E+002  -1.0637025767E+000 -8.3023238855E+001  -1.0480970904E+000 -8.2010465085E+001  -6.7042856301E+000 -1.7289302237E+002 
72700000000.000 -7.0303358101E+000 -1.6968327439E+002  -1.1534267384E+000 -8.2781515643E+001  -1.1549359187E+000 -8.2048546565E+001  -6.9247173330E+000 -1.7139703218E+002 
72750000000.000 -6.7813378219E+000 -1.7022511089E+002  -1.1879733956E+000 -8.3818726661E+001  -1.1956066564E+000 -8.2882532516E+001  -6.7539670056E+000 -1.7205638185E+002 
72800000000.000 -6.7019726435E+000 -1.7066150336E+002  -1.2157541225E+000 -8.3909539811E+001  -1.2173928425E+000 -8.3158817541E+001  -6.7477334073E+000 -1.7247599787E+002 
72850000000.000 -6.6102866639E+000 -1.7051053359E+002  -1.2167015356E+000 -8.4455554750E+001  -1.2234270555E+000 -8.3460632680E+001  -6.6941000077E+000 -1.7182054630E+002 
72900000000.000 -6.3809817490E+000 -1.7266882647E+002  -1.2717362813E+000 -8.4818211933E+001  -1.2758527506E+000 -8.3692513818E+001  -6.4349592790E+000 -1.7353495606E+002 
72950000000.000 -6.3523651823E+000 -1.7578589935E+002  -1.3847653471E+000 -8.5183984575E+001  -1.4031188704E+000 -8.4070088114E+001  -6.3548113612E+000 -1.7674388506E+002 
73000000000.000 -7.0737445741E+000 -1.7501310410E+002  -1.1708409282E+000 -8.3789400849E+001  -1.1624748072E+000 -8.3307886970E+001  -7.0411075204E+000 -1.7625801932E+002 
73050000000.000 -6.8849244293E+000 -1.7398551985E+002  -1.2229350398E+000 -8.5553573391E+001  -1.2313849475E+000 -8.4832435197E+001  -6.8914523653E+000 -1.7505696309E+002 
73100000000.000 -6.9903284391E+000 -1.7366456873E+002  -1.2886239767E+000 -8.5889701689E+001  -1.2976561981E+000 -8.4673275298E+001  -6.9799470105E+000 -1.7485513873E+002 
73150000000.000 -6.8913900129E+000 -1.7358962741E+002  -1.3181853840E+000 -8.5947277156E+001  -1.3375078790E+000 -8.4853432316E+001  -6.8506468999E+000 -1.7477850634E+002 
73200000000.000 -6.8204509950E+000 -1.7440572327E+002  -1.3276011186E+000 -8.5904627464E+001  -1.3443108629E+000 -8.4838761705E+001  -6.7843486545E+000 -1.7555989263E+002 
73250000000.000 -6.7840640336E+000 -1.7468231312E+002  -1.3395343191E+000 -8.6010004750E+001  -1.3395418056E+000 -8.5039470806E+001  -6.7302770855E+000 -1.7594572249E+002 
73300000000.000 -6.8221437099E+000 -1.7480824900E+002  -1.3230959587E+000 -8.6422476542E+001  -1.3262143802E+000 -8.5347743777E+001  -6.8057838249E+000 -1.7628073805E+002 
73350000000.000 -6.8242110804E+000 -1.7555032551E+002  -1.3400705668E+000 -8.6319588633E+001  -1.3456453061E+000 -8.5188855674E+001  -6.7468812967E+000 -1.7710755525E+002 
73400000000.000 -6.8710404224E+000 -1.7571836809E+002  -1.2993831477E+000 -8.6173718110E+001  -1.3099688715E+000 -8.5225032672E+001  -6.8496639134E+000 -1.7726052990E+002 
73450000000.000 -6.8228647478E+000 -1.7662141062E+002  -1.0905721035E+000 -8.7503901704E+001  -1.0799170968E+000 -8.7024897851E+001  -6.8432277281E+000 -1.7821980780E+002 
73500000000.000 -7.0809948043E+000 -1.7538795334E+002  -1.3816152216E+000 -8.8341869780E+001  -1.3760585762E+000 -8.7260199755E+001  -7.1061269287E+000 -1.7698945559E+002 
73550000000.000 -6.9188378340E+000 -1.7361283882E+002  -1.4403497921E+000 -8.6803913806E+001  -1.4493491721E+000 -8.6414992651E+001  -6.9584392708E+000 -1.7517573355E+002 
73600000000.000 -6.6387014323E+000 -1.7425064552E+002  -1.3239614915E+000 -8.6847422695E+001  -1.3300369058E+000 -8.6217532531E+001  -6.7230212680E+000 -1.7561277116E+002 
73650000000.000 -6.5058410171E+000 -1.7541632050E+002  -1.2634327504E+000 -8.6998135209E+001  -1.2622907226E+000 -8.6157899238E+001  -6.5266029565E+000 -1.7612702564E+002 
73700000000.000 -6.5428889136E+000 -1.7598364157E+002  -1.0768769850E+000 -8.7600812625E+001  -1.0869959934E+000 -8.6837695197E+001  -6.4833921235E+000 -1.7659954831E+002 
73750000000.000 -6.4556329554E+000 -1.7673290457E+002  -1.0579749428E+000 -8.9184430252E+001  -1.0645015654E+000 -8.8355979982E+001  -6.3400211438E+000 -1.7831771820E+002 
73800000000.000 -6.4436238447E+000 -1.7787121171E+002  -1.1909441253E+000 -9.0011178158E+001  -1.1853328831E+000 -8.9130162010E+001  -6.4233803707E+000 -1.7947143793E+002 
73850000000.000 -6.5651098463E+000 -1.7923104607E+002  -1.2531875803E+000 -9.0017594031E+001  -1.2642697107E+000 -8.9336153913E+001  -6.5229531450E+000 +1.7916678091E+002 
73900000000.000 -6.5788581596E+000 -1.7874637740E+002  -1.2992191256E+000 -9.0383605258E+001  -1.2997415389E+000 -8.9755692814E+001  -6.5795343295E+000 +1.7926541922E+002 
73950000000.000 -6.5831035362E+000 -1.7963923913E+002  -1.3249044213E+000 -9.0938587779E+001  -1.3331211951E+000 -9.0169449097E+001  -6.6526421969E+000 +1.7841683572E+002 
74000000000.000 -6.8174038388E+000 +1.7915512194E+002  -1.4644533343E+000 -9.1850435409E+001  -1.4777999382E+000 -9.0708256760E+001  -7.0135277333E+000 +1.7713159377E+002 
74050000000.000 -6.9226283452E+000 -1.7996072592E+002  -1.7017557318E+000 -8.9137826312E+001  -1.6995664183E+000 -8.8002039561E+001  -6.9766687198E+000 -1.7929794522E+002 
74100000000.000 -7.0764863341E+000 -1.7893116750E+002  -1.3686363363E+000 -8.9015439591E+001  -1.3590513511E+000 -8.7946188350E+001  -7.0176402751E+000 -1.7955760568E+002 
74150000000.000 -6.9736266330E+000 -1.7723474611E+002  -1.2449905717E+000 -8.9628991051E+001  -1.2329618574E+000 -8.8611577017E+001  -6.9159114670E+000 -1.7855720071E+002 
74200000000.000 -6.7477193339E+000 -1.7661678611E+002  -1.2093473062E+000 -9.0026112629E+001  -1.2048114699E+000 -8.9308019290E+001  -6.7583593875E+000 -1.7823137784E+002 
74250000000.000 -6.2968664882E+000 -1.7819532590E+002  -9.6818405489E-001 -9.0476758525E+001  -9.6875697722E-001 -8.9354079662E+001  -6.4526205387E+000 -1.7683162573E+002 
74300000000.000 -6.5059684015E+000 -1.7893044891E+002  -1.1661040383E+000 -9.2312796417E+001  -1.1773614959E+000 -9.1424330554E+001  -6.3722350491E+000 +1.7904964082E+002 
74350000000.000 -6.4774664898E+000 -1.7951176101E+002  -1.2158706261E+000 -9.2468835439E+001  -1.2320822761E+000 -9.1599791164E+001  -6.4020488288E+000 +1.7903124756E+002 
74400000000.000 -6.3976457832E+000 -1.7958129596E+002  -1.1766033233E+000 -9.2399175975E+001  -1.1833424956E+000 -9.1321486540E+001  -6.3346632613E+000 +1.7848532357E+002 
74450000000.000 -6.2818487169E+000 +1.7934865874E+002  -1.1089136023E+000 -9.3108205265E+001  -1.1197992667E+000 -9.2030674286E+001  -6.2755059649E+000 +1.7719378455E+002 
74500000000.000 -6.1669059752E+000 +1.7673814065E+002  -1.2173507911E+000 -9.4647026474E+001  -1.2249677181E+000 -9.4114471201E+001  -6.2536166152E+000 +1.7479945179E+002 
74550000000.000 -6.5563796423E+000 +1.7375626074E+002  -1.5693569347E+000 -9.4268200267E+001  -1.5621933321E+000 -9.3703309111E+001  -6.6566123744E+000 +1.7247039104E+002 
74600000000.000 -6.8763831620E+000 +1.7657052187E+002  -1.3843868005E+000 -9.3514593534E+001  -1.3846590725E+000 -9.2642907436E+001  -6.9719029394E+000 +1.7550700642E+002 
74650000000.000 -6.8252199063E+000 +1.7674631626E+002  -1.3743272108E+000 -9.3983921902E+001  -1.3720727649E+000 -9.2948150487E+001  -6.8540413298E+000 +1.7604815758E+002 
74700000000.000 -6.8291688223E+000 +1.7645678335E+002  -1.3745186034E+000 -9.4012911286E+001  -1.3895862956E+000 -9.2731550846E+001  -6.8043221952E+000 +1.7563951364E+002 
74750000000.000 -6.8165645098E+000 +1.7697790963E+002  -1.3433720522E+000 -9.4008408637E+001  -1.3593718697E+000 -9.3025356521E+001  -6.7745265317E+000 +1.7590666143E+002 
74800000000.000 -6.7354052916E+000 +1.7678607719E+002  -1.3283350004E+000 -9.4218266103E+001  -1.3386041438E+000 -9.3330895846E+001  -6.6897948782E+000 +1.7554138108E+002 
74850000000.000 -6.8257591160E+000 +1.7621685272E+002  -1.3159541013E+000 -9.4713612722E+001  -1.3090080190E+000 -9.3783915497E+001  -6.7724175457E+000 +1.7483628580E+002 
74900000000.000 -6.9409374797E+000 +1.7608030436E+002  -1.2914100456E+000 -9.5003517313E+001  -1.3006030583E+000 -9.4171802496E+001  -6.8779014177E+000 +1.7459218920E+002 
74950000000.000 -7.0215736672E+000 +1.7702837238E+002  -1.3264647533E+000 -9.5447351191E+001  -1.3323654294E+000 -9.4517840765E+001  -6.9619384357E+000 +1.7526258990E+002 
75000000000.000 -6.8584022520E+000 +1.7855108600E+002  -1.3928460141E+000 -9.5434786764E+001  -1.4064807742E+000 -9.4436468559E+001  -6.8589237673E+000 +1.7664789925E+002 
75050000000.000 -6.5357021828E+000 +1.7844638488E+002  -1.3143573487E+000 -9.4519144175E+001  -1.3229920929E+000 -9.3814300682E+001  -6.5982178469E+000 +1.7662298501E+002 
75100000000.000 -6.4747729797E+000 +1.7632980578E+002  -1.2564833772E+000 -9.5837335078E+001  -1.2773916194E+000 -9.4925455757E+001  -6.5912026628E+000 +1.7487445490E+002 
75150000000.000 -6.5332060077E+000 +1.7624484090E+002  -1.2563637317E+000 -9.5514102009E+001  -1.2718445947E+000 -9.4563959233E+001  -6.6418858065E+000 +1.7518198230E+002 
75200000000.000 -6.3845858653E+000 +1.7552221224E+002  -1.1036956744E+000 -9.5888159589E+001  -1.1217153614E+000 -9.5158859628E+001  -6.4425806500E+000 +1.7562209292E+002 
75250000000.000 -6.3229622828E+000 +1.7428430359E+002  -1.0652294932E+000 -9.7378568625E+001  -1.0766138723E+000 -9.6823709749E+001  -6.2451839592E+000 +1.7329182714E+002 
75300000000.000 -6.4326000847E+000 +1.7318007010E+002  -1.1965401283E+000 -9.8434887895E+001  -1.1998564357E+000 -9.7516449226E+001  -6.4411096285E+000 +1.7187236454E+002 
75350000000.000 -6.4999512203E+000 +1.7221602363E+002  -1.3078851788E+000 -9.8762758264E+001  -1.3150740243E+000 -9.7709535253E+001  -6.4856835357E+000 +1.7163166488E+002 
75400000000.000 -6.6307167905E+000 +1.7161894223E+002  -1.4051507179E+000 -9.9060851338E+001  -1.4060480077E+000 -9.7986174259E+001  -6.4846031588E+000 +1.7094599638E+002 
75450000000.000 -6.6918030847E+000 +1.7087793583E+002  -1.5221508298E+000 -9.8786464527E+001  -1.5231119239E+000 -9.7830455277E+001  -6.5018026255E+000 +1.6930940678E+002 
75500000000.000 -7.0290843672E+000 +1.7011332851E+002  -1.5651736423E+000 -9.7897540124E+001  -1.5795568495E+000 -9.6854122719E+001  -6.9073707135E+000 +1.6788202635E+002 
75550000000.000 -7.4283281661E+000 +1.7256994061E+002  -1.4129567414E+000 -9.7197869059E+001  -1.4184060705E+000 -9.6185904446E+001  -7.4095831746E+000 +1.6977876982E+002 
75600000000.000 -7.3056674955E+000 +1.7564834069E+002  -1.3302703938E+000 -9.8068795671E+001  -1.3455682099E+000 -9.6930198200E+001  -7.5032841216E+000 +1.7361282803E+002 
75650000000.000 -6.7725668947E+000 +1.7590644500E+002  -1.2703041640E+000 -9.7527081124E+001  -1.2795229016E+000 -9.6429292991E+001  -6.8483049374E+000 +1.7465201597E+002 
