!  2-Port S-parameters saved by WinCal
! VAR ChuckHeaterState=Unknown
! VAR ChuckTemp=NaN
! VAR ChuckTempUnits=C
! VAR NAME=S6 6
! VAR FILENAME=S6 6.S2P
! VAR DATE=8/1/2024 12:40:50 PM
! VAR PHYS_PORTS=1,2
! VAR ObjTypeName=DATASET
! VAR IndexType=Frequency
!
# Hz S DB R 1
70000000000.000 -7.3030380961E+000 -1.5341157303E+002  -9.6076414994E-001 -5.3750254588E+001  -9.7128632519E-001 -6.7114260691E+001  -7.3725026458E+000 -1.5414196869E+002 
70050000000.000 -7.5778324991E+000 -1.5507706778E+002  -1.0341641269E+000 -5.6943332437E+001  -1.0206724068E+000 -6.7207289441E+001  -7.4977003719E+000 -1.5605170998E+002 
70100000000.000 -7.5109676372E+000 -1.5367215937E+002  -1.1084788572E+000 -5.8790142854E+001  -1.1049121406E+000 -6.7125344272E+001  -7.5363927785E+000 -1.5540770923E+002 
70150000000.000 -7.2215910172E+000 -1.5475320324E+002  -9.0760614652E-001 -5.8605176118E+001  -9.4028294275E-001 -6.6148591300E+001  -7.2591537757E+000 -1.5559470656E+002 
70200000000.000 -6.9622900928E+000 -1.5892163436E+002  -6.6524828377E-001 -6.3793127322E+001  -6.5005492477E-001 -7.1078487945E+001  -6.9283403936E+000 -1.6069302992E+002 
70250000000.000 -7.3586292011E+000 -1.6008095018E+002  -1.0063221737E+000 -6.5792464028E+001  -1.0494877773E+000 -7.0633774000E+001  -7.4118872030E+000 -1.6136476081E+002 
70300000000.000 -7.5821562597E+000 -1.5975459129E+002  -1.2572371714E+000 -6.7071106143E+001  -1.2524827160E+000 -6.9973335149E+001  -7.6160259556E+000 -1.6106222668E+002 
70350000000.000 -7.4841748401E+000 -1.5937867155E+002  -1.2151356672E+000 -6.6200347144E+001  -1.2392428784E+000 -6.9636587593E+001  -7.5142303770E+000 -1.6057065988E+002 
70400000000.000 -7.4475594876E+000 -1.6024499826E+002  -1.2220741782E+000 -6.6608600074E+001  -1.2056526508E+000 -6.9734394173E+001  -7.4608123275E+000 -1.6100199944E+002 
70450000000.000 -7.8091811704E+000 -1.6150968711E+002  -1.1500343692E+000 -6.7775384386E+001  -1.1534029129E+000 -6.9727584080E+001  -7.7931667300E+000 -1.6270329665E+002 
70500000000.000 -7.7699646618E+000 -1.5956211304E+002  -1.1327756694E+000 -6.8534930506E+001  -1.1342377129E+000 -7.0300124594E+001  -7.7913675490E+000 -1.6087042946E+002 
70550000000.000 -7.6219487530E+000 -1.5857269163E+002  -1.1715549403E+000 -6.9280914758E+001  -1.1843063347E+000 -7.0451556536E+001  -7.6502515726E+000 -1.5985216744E+002 
70600000000.000 -7.4225293423E+000 -1.5969246420E+002  -1.2347704003E+000 -6.9309506581E+001  -1.2279285628E+000 -7.0111981768E+001  -7.4330665749E+000 -1.6048207403E+002 
70650000000.000 -7.2829631725E+000 -1.5865792546E+002  -1.0995847649E+000 -6.9038476955E+001  -1.0978292812E+000 -6.9936690826E+001  -7.2763621611E+000 -1.5954215529E+002 
70700000000.000 -7.1737784940E+000 -1.6069981091E+002  -8.7607490990E-001 -6.9464654466E+001  -9.1299425458E-001 -7.0456791501E+001  -7.1140544355E+000 -1.6168868898E+002 
70750000000.000 -7.4153026691E+000 -1.6252413579E+002  -7.6880479855E-001 -7.1549223841E+001  -7.6732278859E-001 -7.1995544481E+001  -7.2997067525E+000 -1.6364584007E+002 
70800000000.000 -8.0997055032E+000 -1.6259850055E+002  -8.8313142393E-001 -7.4064515026E+001  -8.8825133805E-001 -7.4253971418E+001  -7.9563122401E+000 -1.6467772014E+002 
70850000000.000 -7.3400113885E+000 -1.5400830507E+002  -1.5222762021E+000 -7.2992859033E+001  -1.5303429620E+000 -7.3175512576E+001  -7.4223379908E+000 -1.5659345783E+002 
70900000000.000 -6.8918136656E+000 -1.5888472723E+002  -1.2608624494E+000 -7.1210086777E+001  -1.2632897696E+000 -7.1240576870E+001  -7.0160762430E+000 -1.6113687439E+002 
70950000000.000 -6.7569172306E+000 -1.5872434784E+002  -1.1524657990E+000 -7.0606277566E+001  -1.1680001926E+000 -7.1580160496E+001  -7.1363422737E+000 -1.6156586987E+002 
71000000000.000 -6.4636353112E+000 -1.6669256370E+002  -5.1814007905E-001 -7.3416081700E+001  -5.2976978063E-001 -7.3862978235E+001  -6.1959575601E+000 -1.6073709631E+002 
71050000000.000 -7.0306494098E+000 -1.6489636214E+002  -1.1582313518E+000 -7.5390052710E+001  -1.1680873461E+000 -7.5077990594E+001  -6.9773873637E+000 -1.6694318820E+002 
71100000000.000 -7.1759591806E+000 -1.6554800101E+002  -1.2650227002E+000 -7.4197555945E+001  -1.2715486275E+000 -7.4342404170E+001  -7.2088768857E+000 -1.6665090722E+002 
71150000000.000 -7.5543560007E+000 -1.6530655703E+002  -1.2507083531E+000 -7.3902496195E+001  -1.2515557077E+000 -7.4236357251E+001  -7.5348326819E+000 -1.6629596677E+002 
71200000000.000 -7.5781593509E+000 -1.6322476386E+002  -1.2021861223E+000 -7.4332482337E+001  -1.2049420283E+000 -7.4517174432E+001  -7.5596499934E+000 -1.6428153721E+002 
71250000000.000 -7.1704392601E+000 -1.6174870529E+002  -1.2203725887E+000 -7.4994455846E+001  -1.2194319224E+000 -7.5190550004E+001  -7.1390202774E+000 -1.6251315372E+002 
71300000000.000 -7.0843717302E+000 -1.6313033508E+002  -1.3074994297E+000 -7.5145021058E+001  -1.3226766242E+000 -7.5286856191E+001  -6.9445283038E+000 -1.6461145414E+002 
71350000000.000 -6.8502853353E+000 -1.6502235633E+002  -1.4021613413E+000 -7.5543976038E+001  -1.3992939674E+000 -7.5552729209E+001  -6.8261010047E+000 -1.6699612489E+002 
71400000000.000 -7.9075601553E+000 -1.6752047210E+002  -1.4789239842E+000 -7.2069243796E+001  -1.4861582449E+000 -7.2272152241E+001  -7.8544771613E+000 -1.6939236262E+002 
71450000000.000 -7.2928181731E+000 -1.6256248716E+002  -9.6810243209E-001 -7.3296922605E+001  -9.6991696585E-001 -7.3800014865E+001  -7.3860778551E+000 -1.6442414061E+002 
71500000000.000 -6.9796908329E+000 -1.6353409016E+002  -9.4654339950E-001 -7.6001524415E+001  -9.3633430982E-001 -7.6400956085E+001  -7.0873728200E+000 -1.6490645141E+002 
71550000000.000 -6.9469434609E+000 -1.6470888780E+002  -1.1426516718E+000 -7.7281654054E+001  -1.1618594173E+000 -7.7157126425E+001  -7.0213785316E+000 -1.6583436745E+002 
71600000000.000 -7.0189908044E+000 -1.6476421087E+002  -1.2374823120E+000 -7.7402275182E+001  -1.2494818922E+000 -7.7159691292E+001  -7.0867390065E+000 -1.6586208519E+002 
71650000000.000 -6.9918658304E+000 -1.6637029455E+002  -1.2886083391E+000 -7.6998118965E+001  -1.3062756035E+000 -7.6845758975E+001  -6.9750244238E+000 -1.6729364043E+002 
71700000000.000 -7.0657220271E+000 -1.6590200849E+002  -1.3156794146E+000 -7.7005229046E+001  -1.3019018898E+000 -7.7091656784E+001  -7.0869660508E+000 -1.6700749221E+002 
71750000000.000 -6.9511323539E+000 -1.6656689847E+002  -1.3261029657E+000 -7.6513048303E+001  -1.3182101481E+000 -7.6420898335E+001  -6.9757905653E+000 -1.6774177276E+002 
71800000000.000 -6.6902372666E+000 -1.6608880883E+002  -1.0109133403E+000 -7.5619331389E+001  -1.0239419712E+000 -7.5710286711E+001  -6.7557105384E+000 -1.6720792801E+002 
71850000000.000 -6.8986367339E+000 -1.6996406104E+002  -1.2091024431E+000 -7.9047790281E+001  -1.2197335513E+000 -7.8981890867E+001  -6.9438752435E+000 -1.7076648193E+002 
71900000000.000 -7.1282633367E+000 -1.7024414875E+002  -1.3145249683E+000 -7.8980018792E+001  -1.3248315253E+000 -7.8425768207E+001  -7.1239199347E+000 -1.7101276926E+002 
71950000000.000 -7.2774688938E+000 -1.6916139445E+002  -1.2997899470E+000 -7.8028289832E+001  -1.2925718136E+000 -7.8136263478E+001  -7.3532358308E+000 -1.7014978308E+002 
72000000000.000 -7.4791575996E+000 -1.6816282995E+002  -1.2927890055E+000 -7.8916826505E+001  -1.3108526664E+000 -7.9039953868E+001  -7.4274342718E+000 -1.6932718880E+002 
72050000000.000 -7.3923081074E+000 -1.6694705851E+002  -1.4444438046E+000 -7.8595032182E+001  -1.4507911692E+000 -7.8572230413E+001  -7.4313534267E+000 -1.6834874286E+002 
72100000000.000 -7.0780694092E+000 -1.6461532334E+002  -1.3999354909E+000 -7.7773353666E+001  -1.4084303557E+000 -7.7691220930E+001  -7.1659156689E+000 -1.6538116064E+002 
72150000000.000 -6.7202829068E+000 -1.6556938241E+002  -1.2316987444E+000 -7.7397547114E+001  -1.2404610872E+000 -7.7293172305E+001  -6.7592783810E+000 -1.6571386822E+002 
72200000000.000 -6.4683386292E+000 -1.6754043697E+002  -1.0205675963E+000 -7.8201452668E+001  -1.0552106348E+000 -7.7936687597E+001  -6.3407429649E+000 -1.6736690619E+002 
72250000000.000 -6.6430504039E+000 -1.6954394627E+002  -9.1421285401E-001 -7.9746679196E+001  -9.3246222216E-001 -7.9505861672E+001  -6.3691049674E+000 -1.7101713211E+002 
72300000000.000 -6.6682814743E+000 -1.7135402109E+002  -1.0288801310E+000 -8.0643796297E+001  -1.0353002492E+000 -8.0683026967E+001  -6.5726781560E+000 -1.7362180153E+002 
72350000000.000 -6.9286971645E+000 -1.7220645313E+002  -1.0648802350E+000 -8.1375262050E+001  -1.0526300072E+000 -8.1508128505E+001  -6.9087547391E+000 -1.7411375751E+002 
72400000000.000 -7.2661903052E+000 -1.7141901749E+002  -1.1513759623E+000 -8.2950926233E+001  -1.1507002065E+000 -8.2847558474E+001  -7.2563676854E+000 -1.7308653238E+002 
72450000000.000 -6.8014060339E+000 -1.6554841087E+002  -1.6451509834E+000 -8.2161942369E+001  -1.6509592071E+000 -8.1772981513E+001  -6.9153094183E+000 -1.6741978902E+002 
72500000000.000 -6.4617642500E+000 -1.7056115785E+002  -1.4144769128E+000 -8.1063513700E+001  -1.4370004328E+000 -8.0578265827E+001  -6.5083116076E+000 -1.7196117325E+002 
72550000000.000 -6.6874875217E+000 -1.7172142874E+002  -1.3731060273E+000 -8.1080980749E+001  -1.3738209713E+000 -8.0666235172E+001  -6.7769589299E+000 -1.7367865654E+002 
72600000000.000 -6.7837640817E+000 -1.7169056199E+002  -1.3121924111E+000 -7.9325559867E+001  -1.3282313034E+000 -7.9229645697E+001  -7.3814898890E+000 -1.7210681356E+002 
72650000000.000 -7.3303327615E+000 -1.7202515499E+002  -1.0563882889E+000 -8.2450300352E+001  -1.0479229907E+000 -8.2161490439E+001  -6.7011560725E+000 -1.7305239241E+002 
72700000000.000 -7.0336017889E+000 -1.6993843600E+002  -1.1487482298E+000 -8.2253341429E+001  -1.1532618834E+000 -8.2211983685E+001  -6.9234491692E+000 -1.7162390160E+002 
72750000000.000 -6.7925088792E+000 -1.7043456514E+002  -1.1833460319E+000 -8.3333822375E+001  -1.1856617508E+000 -8.3047289397E+001  -6.7528997441E+000 -1.7229123812E+002 
72800000000.000 -6.7219698198E+000 -1.7083305742E+002  -1.2131775508E+000 -8.3372429238E+001  -1.2223186078E+000 -8.3249268054E+001  -6.7517655515E+000 -1.7269418417E+002 
72850000000.000 -6.6282956749E+000 -1.7056618030E+002  -1.2066148758E+000 -8.3845286503E+001  -1.2212349664E+000 -8.3518277857E+001  -6.7133143439E+000 -1.7195118459E+002 
72900000000.000 -6.3972871873E+000 -1.7267710653E+002  -1.2739690746E+000 -8.4331869852E+001  -1.2791029070E+000 -8.3720890822E+001  -6.4532841221E+000 -1.7363842495E+002 
72950000000.000 -6.3558557190E+000 -1.7584203619E+002  -1.3888210772E+000 -8.4640933054E+001  -1.3985801801E+000 -8.4160781028E+001  -6.3508324180E+000 -1.7685605732E+002 
73000000000.000 -7.0467819313E+000 -1.7496055813E+002  -1.1650276051E+000 -8.3250642424E+001  -1.1688746785E+000 -8.3423785830E+001  -7.0297776652E+000 -1.7624987575E+002 
73050000000.000 -6.8578920671E+000 -1.7410036412E+002  -1.2311198660E+000 -8.5062785486E+001  -1.2312160310E+000 -8.4992808750E+001  -6.8750575133E+000 -1.7519511795E+002 
73100000000.000 -6.9815219005E+000 -1.7391596796E+002  -1.2845971494E+000 -8.5406217332E+001  -1.3044925270E+000 -8.4793665590E+001  -6.9605281103E+000 -1.7502193345E+002 
73150000000.000 -6.8924988040E+000 -1.7387099663E+002  -1.3202039251E+000 -8.5453681315E+001  -1.3290221201E+000 -8.4977379428E+001  -6.8456448030E+000 -1.7501071042E+002 
73200000000.000 -6.8312494547E+000 -1.7464995880E+002  -1.3248546705E+000 -8.5438581502E+001  -1.3416248851E+000 -8.4977207467E+001  -6.7846754599E+000 -1.7585191139E+002 
73250000000.000 -6.7984142745E+000 -1.7480280879E+002  -1.3488519470E+000 -8.5587987324E+001  -1.3400348249E+000 -8.5127906727E+001  -6.7269071768E+000 -1.7615093311E+002 
73300000000.000 -6.8191232974E+000 -1.7489672713E+002  -1.3232740761E+000 -8.5986207604E+001  -1.3233817171E+000 -8.5442305519E+001  -6.7984787103E+000 -1.7645062973E+002 
73350000000.000 -6.8135545272E+000 -1.7565817609E+002  -1.3529958246E+000 -8.5892910085E+001  -1.3497386629E+000 -8.5289552581E+001  -6.7398795670E+000 -1.7727595475E+002 
73400000000.000 -6.8537239014E+000 -1.7590876708E+002  -1.3002434277E+000 -8.5825452026E+001  -1.3085597375E+000 -8.5316812489E+001  -6.8443807966E+000 -1.7747067965E+002 
73450000000.000 -6.8012625843E+000 -1.7693065383E+002  -1.0786290204E+000 -8.7078641575E+001  -1.0900277617E+000 -8.7141227285E+001  -6.8109527540E+000 -1.7844575150E+002 
73500000000.000 -7.0652472439E+000 -1.7568204580E+002  -1.3754320939E+000 -8.7895131531E+001  -1.3789338247E+000 -8.7403770712E+001  -7.0880936942E+000 -1.7738793276E+002 
73550000000.000 -6.9170586839E+000 -1.7397159314E+002  -1.4363567270E+000 -8.6401470962E+001  -1.4553478554E+000 -8.6518320510E+001  -6.9620334162E+000 -1.7551460169E+002 
73600000000.000 -6.6400715112E+000 -1.7448101351E+002  -1.3284790020E+000 -8.6438735561E+001  -1.3399421390E+000 -8.6318853783E+001  -6.7252664533E+000 -1.7590559671E+002 
73650000000.000 -6.5206704295E+000 -1.7565154306E+002  -1.2629874902E+000 -8.6594440644E+001  -1.2659162422E+000 -8.6275594954E+001  -6.5201473953E+000 -1.7638833534E+002 
73700000000.000 -6.5526210975E+000 -1.7618493326E+002  -1.0812757741E+000 -8.7179709003E+001  -1.0836790733E+000 -8.6860364816E+001  -6.4915462435E+000 -1.7677226132E+002 
73750000000.000 -6.4473649687E+000 -1.7687316071E+002  -1.0668518254E+000 -8.8799168633E+001  -1.0671187115E+000 -8.8355801837E+001  -6.3480169876E+000 -1.7854368265E+002 
73800000000.000 -6.4262934639E+000 -1.7804931521E+002  -1.1868077247E+000 -8.9652601383E+001  -1.1868122579E+000 -8.9198879716E+001  -6.4233809491E+000 -1.7968893009E+002 
73850000000.000 -6.5425282333E+000 -1.7951421236E+002  -1.2656931968E+000 -8.9611336346E+001  -1.2713848791E+000 -8.9338783752E+001  -6.5147142585E+000 +1.7894146137E+002 
73900000000.000 -6.5843810296E+000 -1.7910700593E+002  -1.3011010160E+000 -8.9995620804E+001  -1.3045777311E+000 -8.9807555007E+001  -6.5724643858E+000 +1.7900409176E+002 
73950000000.000 -6.6062469388E+000 -1.7994028756E+002  -1.3358679114E+000 -9.0570847785E+001  -1.3379000436E+000 -9.0180597204E+001  -6.6544858128E+000 +1.7811942717E+002 
74000000000.000 -6.8480775566E+000 +1.7894222813E+002  -1.4680093892E+000 -9.1499529971E+001  -1.4828628774E+000 -9.0803717356E+001  -7.0319386958E+000 +1.7688621381E+002 
74050000000.000 -6.9470726197E+000 +1.7987736587E+002  -1.7019757706E+000 -8.8712275506E+001  -1.7040209340E+000 -8.7972340184E+001  -6.9885402930E+000 -1.7955549676E+002 
74100000000.000 -7.0916492612E+000 -1.7898940110E+002  -1.3659915410E+000 -8.8697704209E+001  -1.3589722909E+000 -8.8022761430E+001  -7.0304898563E+000 -1.7970440569E+002 
74150000000.000 -6.9731245482E+000 -1.7726597424E+002  -1.2446459131E+000 -8.9319248335E+001  -1.2364586587E+000 -8.8790039177E+001  -6.9279453330E+000 -1.7869721205E+002 
74200000000.000 -6.7355058940E+000 -1.7662110741E+002  -1.2054637249E+000 -8.9645092788E+001  -1.2164568023E+000 -8.9416641563E+001  -6.7556071190E+000 -1.7831086177E+002 
74250000000.000 -6.2785983673E+000 -1.7828757050E+002  -9.5953923743E-001 -9.0044785072E+001  -9.7554294773E-001 -8.9495394765E+001  -6.4409857032E+000 -1.7693120392E+002 
74300000000.000 -6.4979140773E+000 -1.7908827368E+002  -1.1683357442E+000 -9.1988509464E+001  -1.1775542440E+000 -9.1547656330E+001  -6.3639224369E+000 +1.7891350582E+002 
74350000000.000 -6.4763688270E+000 -1.7967961762E+002  -1.2128502737E+000 -9.2060007243E+001  -1.2293743698E+000 -9.1693531427E+001  -6.3930798663E+000 +1.7882872087E+002 
74400000000.000 -6.3986661645E+000 -1.7975063787E+002  -1.1855276691E+000 -9.1981224003E+001  -1.1862212391E+000 -9.1485205085E+001  -6.3242316461E+000 +1.7826833447E+002 
74450000000.000 -6.2874052984E+000 +1.7928529758E+002  -1.1102175988E+000 -9.2675791049E+001  -1.1108363530E+000 -9.2150954152E+001  -6.2800024533E+000 +1.7699929701E+002 
74500000000.000 -6.1638529068E+000 +1.7667607849E+002  -1.2122924981E+000 -9.4224564840E+001  -1.2219103343E+000 -9.4248100340E+001  -6.2573291274E+000 +1.7464970719E+002 
74550000000.000 -6.5584877820E+000 +1.7367745258E+002  -1.5655800889E+000 -9.3837388403E+001  -1.5603857008E+000 -9.3820419622E+001  -6.6676140911E+000 +1.7233956940E+002 
74600000000.000 -6.8535205340E+000 +1.7641444855E+002  -1.3746254057E+000 -9.3044740598E+001  -1.3819863477E+000 -9.2855786329E+001  -6.9488535187E+000 +1.7538663253E+002 
74650000000.000 -6.8110633162E+000 +1.7650890484E+002  -1.3710469745E+000 -9.3610081208E+001  -1.3808959130E+000 -9.3066560830E+001  -6.8357157808E+000 +1.7585038330E+002 
74700000000.000 -6.8212019318E+000 +1.7616724989E+002  -1.3713535864E+000 -9.3600456053E+001  -1.3847511479E+000 -9.2872973283E+001  -6.8027763322E+000 +1.7539300702E+002 
74750000000.000 -6.8131426408E+000 +1.7671359473E+002  -1.3406848773E+000 -9.3601878355E+001  -1.3568788408E+000 -9.3120258190E+001  -6.7629730389E+000 +1.7555693184E+002 
74800000000.000 -6.7367354113E+000 +1.7648616010E+002  -1.3287955772E+000 -9.3845626602E+001  -1.3329915506E+000 -9.3496921242E+001  -6.6809233346E+000 +1.7524706660E+002 
74850000000.000 -6.8338339047E+000 +1.7595141771E+002  -1.3149347848E+000 -9.4304879897E+001  -1.3025107502E+000 -9.3962145186E+001  -6.7800374787E+000 +1.7455983298E+002 
74900000000.000 -6.9482934116E+000 +1.7587049435E+002  -1.2856690236E+000 -9.4631503422E+001  -1.3021828990E+000 -9.4345747933E+001  -6.8804755451E+000 +1.7435415959E+002 
74950000000.000 -7.0162759558E+000 +1.7682662059E+002  -1.3205732007E+000 -9.5128847861E+001  -1.3222734453E+000 -9.4712720209E+001  -6.9624967471E+000 +1.7510935132E+002 
75000000000.000 -6.8564161127E+000 +1.7838314246E+002  -1.3971245201E+000 -9.5054475145E+001  -1.4196731479E+000 -9.4550913724E+001  -6.8481342790E+000 +1.7647783928E+002 
75050000000.000 -6.5266489036E+000 +1.7818365593E+002  -1.3234213497E+000 -9.4216883834E+001  -1.3194997809E+000 -9.3955297502E+001  -6.5928143406E+000 +1.7641761118E+002 
75100000000.000 -6.4712845654E+000 +1.7602506672E+002  -1.2598383396E+000 -9.5333877051E+001  -1.2741821411E+000 -9.5030825510E+001  -6.5686754231E+000 +1.7461848570E+002 
75150000000.000 -6.5337563929E+000 +1.7597231689E+002  -1.2491750390E+000 -9.5121295894E+001  -1.2761122775E+000 -9.4720690911E+001  -6.6331424458E+000 +1.7490731136E+002 
75200000000.000 -6.4003068800E+000 +1.7522217878E+002  -1.1091593251E+000 -9.5475600490E+001  -1.1130519214E+000 -9.5280890521E+001  -6.4382495907E+000 +1.7531491312E+002 
75250000000.000 -6.3399972137E+000 +1.7404571757E+002  -1.0660149558E+000 -9.7021450856E+001  -1.0750389171E+000 -9.6965922980E+001  -6.2497433893E+000 +1.7295393438E+002 
75300000000.000 -6.4323074448E+000 +1.7293626068E+002  -1.1955151080E+000 -9.8108259084E+001  -1.1996971654E+000 -9.7641746280E+001  -6.4446942984E+000 +1.7162023003E+002 
75350000000.000 -6.4949357339E+000 +1.7203415922E+002  -1.3059929451E+000 -9.8449136567E+001  -1.3077077008E+000 -9.7864590522E+001  -6.4943411140E+000 +1.7135409819E+002 
75400000000.000 -6.6420642100E+000 +1.7136624619E+002  -1.3989025162E+000 -9.8765548004E+001  -1.4095232592E+000 -9.8117273271E+001  -6.4932393638E+000 +1.7072794840E+002 
75450000000.000 -6.6919753805E+000 +1.7060338062E+002  -1.5228922693E+000 -9.8451711480E+001  -1.5256507052E+000 -9.7978180697E+001  -6.4993998550E+000 +1.6911088375E+002 
75500000000.000 -7.0341577008E+000 +1.6987126706E+002  -1.5655126779E+000 -9.7545626740E+001  -1.5799699983E+000 -9.7024017171E+001  -6.9229059754E+000 +1.6762471653E+002 
75550000000.000 -7.4355906149E+000 +1.7238467395E+002  -1.4086060456E+000 -9.6811322536E+001  -1.4193225617E+000 -9.6327194054E+001  -7.4177077434E+000 +1.6956736899E+002 
75600000000.000 -7.3093726806E+000 +1.7548586815E+002  -1.3364201540E+000 -9.7762324341E+001  -1.3503766818E+000 -9.7174197323E+001  -7.5091938058E+000 +1.7339708095E+002 
75650000000.000 -6.7795787642E+000 +1.7572482677E+002  -1.2686141492E+000 -9.7240302322E+001  -1.2832920490E+000 -9.6577350542E+001  -6.8482308888E+000 +1.7438750663E+002 
