! Python used to change reference impedance from 50 to 1.
# Hz S RI R 1
70000000000.000	-3.0265564539E-001	-1.5630175714E-001	+1.7246753760E-001	-9.0512283549E-001	+4.5728038047E-001	-8.0372614633E-001	-3.2571822106E-001	-8.7810150863E-002
70050000000.000	-2.9903073694E-001	-1.8750160228E-001	+2.6241476175E-001	-8.7493435636E-001	+4.4157790900E-001	-7.9797760614E-001	-3.3853026442E-001	-1.1203980020E-001
70100000000.000	-3.1496577416E-001	-2.0009995196E-001	+3.2030598487E-001	-8.4558246571E-001	+4.3778896235E-001	-7.9000126622E-001	-3.5978412360E-001	-1.1690593384E-001
70150000000.000	-3.1328022734E-001	-2.0955750860E-001	+3.7485213458E-001	-8.4268516151E-001	+4.5873155530E-001	-7.9895930450E-001	-3.5784616023E-001	-1.2062350125E-001
70200000000.000	-3.4042128461E-001	-2.0514509985E-001	+3.5008910142E-001	-8.8328901640E-001	+3.9985621735E-001	-8.6177726168E-001	-3.7603634264E-001	-1.1226300712E-001
70250000000.000	-3.2960374265E-001	-2.0183133218E-001	+3.4904924100E-001	-8.3221017874E-001	+3.9236366695E-001	-8.1648901453E-001	-3.6773111468E-001	-1.1205636134E-001
70300000000.000	-3.2958269558E-001	-2.0146882742E-001	+3.6780541723E-001	-8.1642811041E-001	+3.8793947308E-001	-8.0621133152E-001	-3.6644365755E-001	-1.1407264436E-001
70350000000.000	-3.3330835307E-001	-1.9899469594E-001	+3.7913651472E-001	-8.0561732089E-001	+3.8813767135E-001	-8.0074342024E-001	-3.6837438922E-001	-1.1232972163E-001
70400000000.000	-3.1740743083E-001	-1.8677024477E-001	+3.8340272787E-001	-7.9635945717E-001	+3.8931958341E-001	-7.9605149338E-001	-3.5588100921E-001	-1.0299188574E-001
70450000000.000	-3.1748147649E-001	-1.9744525732E-001	+3.9479868593E-001	-7.9494302596E-001	+3.8930518318E-001	-7.9789334164E-001	-3.5665711998E-001	-1.1353728954E-001
70500000000.000	-3.1710530531E-001	-2.0228242939E-001	+3.9127695402E-001	-8.0057674607E-001	+3.8610036193E-001	-8.0312873385E-001	-3.5715014894E-001	-1.1743504893E-001
70550000000.000	-3.2517717935E-001	-2.0658275905E-001	+3.8524823015E-001	-7.9727174766E-001	+3.8264526788E-001	-7.9974602247E-001	-3.6406703289E-001	-1.1982924067E-001
70600000000.000	-3.2090045394E-001	-2.0792532414E-001	+3.9320434077E-001	-7.9728132962E-001	+3.8796989612E-001	-8.0177128484E-001	-3.5961727708E-001	-1.2033051820E-001
70650000000.000	-3.3027636644E-001	-2.0501567508E-001	+4.0260542111E-001	-8.0136825873E-001	+3.9518779489E-001	-8.0519193269E-001	-3.6979835552E-001	-1.1927386168E-001
70700000000.000	-3.3659723521E-001	-1.9427702630E-001	+4.0362052170E-001	-8.2502510521E-001	+3.9584784750E-001	-8.2927277016E-001	-3.7972574776E-001	-1.0491871105E-001
70750000000.000	-3.2608578207E-001	-1.9249240093E-001	+3.7972405944E-001	-8.4282879571E-001	+3.7226622770E-001	-8.4581732588E-001	-3.6819445239E-001	-9.9690416453E-002
70800000000.000	-3.1455780461E-001	-1.8932346085E-001	+3.4922733861E-001	-8.4514871857E-001	+3.4320790775E-001	-8.4821468850E-001	-3.5745249407E-001	-9.2234219233E-002
70850000000.000	-3.0167116928E-001	-2.4022285986E-001	+3.1951147843E-001	-7.8471145447E-001	+3.1907414561E-001	-7.8679778544E-001	-3.3798028879E-001	-1.4042545323E-001
70900000000.000	-3.4411910289E-001	-2.3056717822E-001	+3.6931010754E-001	-7.9536195200E-001	+3.6643992498E-001	-7.9599617482E-001	-3.8204119086E-001	-1.3031747485E-001
70950000000.000	-3.5512080836E-001	-2.3333663412E-001	+3.8642164715E-001	-8.0293732013E-001	+3.7544572643E-001	-8.0903906122E-001	-3.8400255567E-001	-1.2141449501E-001
71000000000.000	-4.0150699814E-001	-1.8671330858E-001	+3.8486878471E-001	-8.8551216546E-001	+3.7868240905E-001	-8.8755146945E-001	-4.2491187478E-001	-1.4321616483E-001
71050000000.000	-3.6387673260E-001	-1.8575680682E-001	+3.2056168232E-001	-8.4814404218E-001	+3.1330209814E-001	-8.5114040124E-001	-4.0522378929E-001	-8.1915019757E-002
71100000000.000	-3.6325710724E-001	-1.8209791882E-001	+3.1606964222E-001	-8.2480985134E-001	+3.0668172938E-001	-8.2831341662E-001	-3.9483087633E-001	-8.4893237148E-002
71150000000.000	-3.5336315448E-001	-1.7249869469E-001	+3.2324007230E-001	-8.0832416335E-001	+3.1371644652E-001	-8.1383552260E-001	-3.8745638968E-001	-8.1211996595E-002
71200000000.000	-3.4537435537E-001	-1.8830624562E-001	+3.3311723786E-001	-8.1327514551E-001	+3.2235359209E-001	-8.1812833143E-001	-3.8200204025E-001	-9.3807373114E-002
71250000000.000	-3.4764793519E-001	-1.8863280416E-001	+3.3042314562E-001	-8.1759879698E-001	+3.1872460434E-001	-8.2157296652E-001	-3.8437134835E-001	-9.5026425291E-002
71300000000.000	-3.4866588689E-001	-1.9149897817E-001	+3.2611370644E-001	-8.1808102274E-001	+3.1589123757E-001	-8.2389009732E-001	-3.9045621914E-001	-9.6471980138E-002
71350000000.000	-3.5428875587E-001	-1.9879732627E-001	+3.2525308868E-001	-8.2236647647E-001	+3.1418398451E-001	-8.2739475594E-001	-3.9657895458E-001	-9.5232896502E-002
71400000000.000	-3.8666836044E-001	-1.9012476133E-001	+3.0657222427E-001	-8.1455429857E-001	+2.9248088366E-001	-8.2016093815E-001	-4.1876217871E-001	-8.2370844907E-002
71450000000.000	-3.3475169276E-001	-1.6987562852E-001	+3.5754430887E-001	-8.1022791060E-001	+3.3957726481E-001	-8.1791653453E-001	-3.6890448129E-001	-6.9112720424E-002
71500000000.000	-3.5416119488E-001	-2.0132914308E-001	+3.2232545124E-001	-8.5194992412E-001	+3.0817609834E-001	-8.5818791200E-001	-3.8489387094E-001	-9.7783554053E-002
71550000000.000	-3.7297810990E-001	-1.9312102943E-001	+3.0228252993E-001	-8.3837459370E-001	+2.9006326465E-001	-8.4395031352E-001	-4.0175328454E-001	-9.1217642202E-002
71600000000.000	-3.7164055925E-001	-1.8438942613E-001	+2.9857653256E-001	-8.3486169164E-001	+2.8694276868E-001	-8.3782451546E-001	-4.0026114922E-001	-8.4107877200E-002
71650000000.000	-3.6602289301E-001	-1.8479677307E-001	+2.9244868751E-001	-8.3429376182E-001	+2.8142351279E-001	-8.3949614244E-001	-3.9459551393E-001	-8.3919846421E-002
71700000000.000	-3.7608441351E-001	-1.8383240723E-001	+2.9077401370E-001	-8.2572124671E-001	+2.7912336876E-001	-8.3238881090E-001	-4.0430984400E-001	-8.3965711449E-002
71750000000.000	-3.7603898871E-001	-1.8147737271E-001	+2.9474006221E-001	-8.2574188429E-001	+2.8035753850E-001	-8.3032954637E-001	-4.0568004675E-001	-8.2924550786E-002
71800000000.000	-3.8291152708E-001	-1.9144943126E-001	+3.1365654835E-001	-8.4334533351E-001	+2.9789873814E-001	-8.5024354418E-001	-4.1450253096E-001	-8.6400949309E-002
71850000000.000	-3.9003607838E-001	-1.6478976430E-001	+2.6266458109E-001	-8.3379975536E-001	+2.5335314728E-001	-8.3754515947E-001	-4.1143150222E-001	-6.5244438125E-002
71900000000.000	-3.8147071394E-001	-1.5701978146E-001	+2.7548292474E-001	-8.2876479295E-001	+2.6126032683E-001	-8.3428010017E-001	-4.0922303805E-001	-6.0192016272E-002
71950000000.000	-3.7269407598E-001	-1.5620389543E-001	+2.7696819195E-001	-8.3276170302E-001	+2.5998700891E-001	-8.3973869278E-001	-3.9858902846E-001	-5.5704162694E-002
72000000000.000	-3.5943418189E-001	-1.5318636668E-001	+2.6362077094E-001	-8.3443756053E-001	+2.5024086439E-001	-8.4044237854E-001	-3.8951088804E-001	-5.1406493940E-002
72050000000.000	-3.4818174874E-001	-1.8209279150E-001	+2.5886631748E-001	-8.2583821717E-001	+2.4182399039E-001	-8.3178385242E-001	-3.7452005884E-001	-7.7839923643E-002
72100000000.000	-3.6718075575E-001	-2.0170988524E-001	+2.6631523933E-001	-8.1379402630E-001	+2.5085891570E-001	-8.2024842319E-001	-3.8968142532E-001	-9.9603789698E-002
72150000000.000	-3.9329997668E-001	-2.0291330548E-001	+2.8169399517E-001	-8.2222865860E-001	+2.6712237642E-001	-8.2689691482E-001	-4.1641757741E-001	-1.0686487784E-001
72200000000.000	-4.0782404629E-001	-1.8230732519E-001	+2.9061155172E-001	-8.4258543706E-001	+2.7708598883E-001	-8.4801062728E-001	-4.3940286317E-001	-9.2544376320E-002
72250000000.000	-4.1601230029E-001	-1.6636717862E-001	+2.6924559406E-001	-8.6499481254E-001	+2.5290275714E-001	-8.6918586650E-001	-4.6097544070E-001	-6.3477453693E-002
72300000000.000	-4.0706243410E-001	-1.5102937706E-001	+2.5349029128E-001	-8.6143041011E-001	+2.3401896574E-001	-8.6943838535E-001	-4.4101472223E-001	-3.7993875812E-002
72350000000.000	-3.8893287893E-001	-1.4860268872E-001	+2.3991151360E-001	-8.6568328551E-001	+2.2255797005E-001	-8.7120915828E-001	-4.1918127831E-001	-3.4967627848E-002
72400000000.000	-3.8285181850E-001	-1.5114643803E-001	+2.1884887872E-001	-8.6410996271E-001	+2.0361183796E-001	-8.6971104620E-001	-4.0729980844E-001	-3.7503116209E-002
72450000000.000	-3.7362972475E-001	-1.8630241749E-001	+1.9644232038E-001	-8.2049530076E-001	+1.8453951137E-001	-8.2526706977E-001	-3.9261884350E-001	-7.6125459935E-002
72500000000.000	-4.0652300315E-001	-1.7350626515E-001	+2.3129068907E-001	-8.2991783834E-001	+2.1638637068E-001	-8.3457631038E-001	-4.3216497619E-001	-6.4582651814E-002
72550000000.000	-4.1073322767E-001	-1.6375020488E-001	+2.2953425638E-001	-8.3311810657E-001	+2.1354884895E-001	-8.3730600194E-001	-4.3249395771E-001	-4.9689825795E-002
72600000000.000	-4.2132678579E-001	-1.6065235612E-001	+2.4963384945E-001	-8.2880906540E-001	+2.3230596658E-001	-8.3644007556E-001	-4.1822134073E-001	-4.8658480814E-002
72650000000.000	-3.8638113846E-001	-1.2276252635E-001	+2.1729720833E-001	-8.6533083100E-001	+1.9886618249E-001	-8.7116185836E-001	-4.4149505259E-001	-2.6977462796E-002
72700000000.000	-3.8834112459E-001	-1.5454520363E-001	+2.1490173784E-001	-8.4972192384E-001	+1.9808980705E-001	-8.5525829140E-001	-4.1766610818E-001	-4.2198772396E-002
72750000000.000	-3.9556369536E-001	-1.5871956175E-001	+2.1529556434E-001	-8.5171739825E-001	+1.9664158170E-001	-8.5715816760E-001	-4.2348900107E-001	-4.6188102415E-002
72800000000.000	-4.0000658247E-001	-1.6549163823E-001	+2.0825037108E-001	-8.5715012786E-001	+1.9112806153E-001	-8.6183634681E-001	-4.2449584427E-001	-4.9938410928E-002
72850000000.000	-4.1480325839E-001	-1.6063207928E-001	+2.0241023996E-001	-8.5780490170E-001	+1.8371476981E-001	-8.6289308037E-001	-4.3546483559E-001	-4.5018763153E-002
72900000000.000	-4.2200764908E-001	-1.5640698678E-001	+1.9681850889E-001	-8.5844253105E-001	+1.8037314764E-001	-8.6227642608E-001	-4.4032811518E-001	-4.2283297491E-002
72950000000.000	-4.3117617687E-001	-1.4731194872E-001	+1.8644509140E-001	-8.6121667967E-001	+1.6682311381E-001	-8.6627552299E-001	-4.4783745222E-001	-3.4304707875E-002
73000000000.000	-4.3081251082E-001	-1.1641625878E-001	+1.7795017482E-001	-8.3817321129E-001	+1.5176752619E-001	-8.4369212289E-001	-4.4345051697E-001	-7.2325829478E-003
73050000000.000	-4.0108014727E-001	-1.3381811757E-001	+1.8895249078E-001	-8.5403957902E-001	+1.6857258997E-001	-8.5866910204E-001	-4.2000907131E-001	-2.5108861919E-002
73100000000.000	-4.0932062790E-001	-1.3967108513E-001	+1.7630440900E-001	-8.5226012996E-001	+1.5818508564E-001	-8.5714058995E-001	-4.2737600064E-001	-3.1602685773E-002
73150000000.000	-4.1727709662E-001	-1.4038438518E-001	+1.7298231381E-001	-8.4815537901E-001	+1.5452222180E-001	-8.5162163812E-001	-4.3752452123E-001	-3.3145709636E-002
73200000000.000	-4.1702267469E-001	-1.3481278084E-001	+1.7349218223E-001	-8.4784339751E-001	+1.5362573689E-001	-8.5314358087E-001	-4.3878587933E-001	-2.6078839337E-002
73250000000.000	-4.1602704454E-001	-1.3530098302E-001	+1.6991805683E-001	-8.4745335564E-001	+1.5185021088E-001	-8.5337788264E-001	-4.3879714320E-001	-2.4091322607E-002
73300000000.000	-4.2467157386E-001	-1.3273682200E-001	+1.6959093361E-001	-8.4788771796E-001	+1.5025945963E-001	-8.5040499454E-001	-4.4510967082E-001	-1.9989673231E-002
73350000000.000	-4.2360693691E-001	-1.2428194282E-001	+1.6549923365E-001	-8.4884135788E-001	+1.4863389058E-001	-8.5210820466E-001	-4.4272964196E-001	-1.2433316031E-002
73400000000.000	-4.1792378012E-001	-1.2345009042E-001	+1.6861211382E-001	-8.5239248513E-001	+1.5037024203E-001	-8.5716565858E-001	-4.3652656252E-001	-9.1405612254E-003
73450000000.000	-4.2151659550E-001	-1.2120292439E-001	+1.5448028459E-001	-8.7379472565E-001	+1.2924815419E-001	-8.7955496066E-001	-4.3911002464E-001	-5.0463318176E-003
73500000000.000	-4.0552788992E-001	-1.2514260045E-001	+1.4173056599E-001	-8.5235178267E-001	+1.1939030357E-001	-8.5659467784E-001	-4.2170378550E-001	-1.1727078824E-002
73550000000.000	-4.1260454907E-001	-1.4190051509E-001	+1.4786627900E-001	-8.4206147323E-001	+1.2592660304E-001	-8.4710819623E-001	-4.2831113674E-001	-2.6434977258E-002
73600000000.000	-4.2785703044E-001	-1.4110648508E-001	+1.5682881454E-001	-8.4553892512E-001	+1.3418933893E-001	-8.5057388370E-001	-4.4215120151E-001	-2.6267812457E-002
73650000000.000	-4.3176327617E-001	-1.3895932548E-001	+1.6165415562E-001	-8.5648755343E-001	+1.3919280156E-001	-8.6000984173E-001	-4.4783017852E-001	-2.5306782050E-002
73700000000.000	-4.4337958104E-001	-1.3203309921E-001	+1.5544578934E-001	-8.7506832687E-001	+1.3301617776E-001	-8.7992957658E-001	-4.6051387664E-001	-2.0325103505E-002
73750000000.000	-4.4672662765E-001	-1.2201907455E-001	+1.2996677011E-001	-8.8184197719E-001	+1.0729466757E-001	-8.8572787652E-001	-4.6720289212E-001	-2.5535113053E-003
73800000000.000	-4.4648986941E-001	-1.1065858745E-001	+1.1763429666E-001	-8.6727614258E-001	+9.5861994794E-002	-8.7002256092E-001	-4.6058432783E-001	+9.4886096605E-003
73850000000.000	-4.4314753206E-001	-1.0963184208E-001	+1.1765514091E-001	-8.6416868758E-001	+9.3266720477E-002	-8.6824053053E-001	-4.5567699901E-001	+9.0313742585E-003
73900000000.000	-4.4106114476E-001	-1.0338376387E-001	+1.1312539430E-001	-8.6558407992E-001	+8.9649394194E-002	-8.6893865805E-001	-4.5489560188E-001	+1.6315783791E-002
73950000000.000	-4.3759092468E-001	-9.6768314632E-002	+1.0315238925E-001	-8.6672718262E-001	+8.2586248685E-002	-8.6835991416E-001	-4.4828442211E-001	+2.6789227340E-002
74000000000.000	-4.3111420495E-001	-9.5822257804E-002	+8.7098265106E-002	-8.5899424840E-001	+7.0770716695E-002	-8.6087994563E-001	-4.3532103776E-001	+2.9503566306E-002
74050000000.000	-4.2954313100E-001	-1.0744210654E-001	+9.0507262385E-002	-8.1921931207E-001	+7.6349648135E-002	-8.2121993923E-001	-4.2069596324E-001	-3.0188529550E-003
74100000000.000	-4.2166944382E-001	-9.5831398096E-002	+1.1972594977E-001	-8.4013267423E-001	+1.0652705458E-001	-8.4308510659E-001	-4.3535108037E-001	+1.1493119347E-002
74150000000.000	-4.1943570823E-001	-1.1592179722E-001	+1.2341475130E-001	-8.5995334003E-001	+1.0078280458E-001	-8.6354828371E-001	-4.3663379680E-001	+1.5576717411E-003
74200000000.000	-4.3451403992E-001	-1.2444746364E-001	+1.1518822514E-001	-8.6607300779E-001	+9.1622148217E-002	-8.6932800273E-001	-4.4693061508E-001	-1.3572257764E-003
74250000000.000	-4.6272528826E-001	-1.1359773436E-001	+1.1716728005E-001	-8.9219816832E-001	+9.2589919935E-002	-8.9588844850E-001	-4.6315170498E-001	-8.3172271710E-003
74300000000.000	-4.4557565346E-001	-1.0395371270E-001	+7.6957400042E-002	-8.7741328855E-001	+5.4406772935E-002	-8.7907967902E-001	-4.6320374476E-001	+2.3896189977E-002
74350000000.000	-4.4937333797E-001	-1.0153118205E-001	+7.6537047581E-002	-8.7045618555E-001	+5.5509419035E-002	-8.7286554663E-001	-4.6183921199E-001	+2.1965661865E-002
74400000000.000	-4.5075494085E-001	-1.0203042246E-001	+7.5049989201E-002	-8.7287478542E-001	+5.4409138551E-002	-8.7548468654E-001	-4.6372988896E-001	+2.5357196643E-002
74450000000.000	-4.6145588536E-001	-9.7788935113E-002	+6.6511969607E-002	-8.7736439431E-001	+4.6934420251E-002	-8.7898164842E-001	-4.7006664285E-001	+3.3538364364E-002
74500000000.000	-4.6796832396E-001	-8.6682018540E-002	+4.8259343300E-002	-8.7623636546E-001	+2.6501358470E-002	-8.7746118588E-001	-4.6762432720E-001	+4.5581356311E-002
74550000000.000	-4.6865778095E-001	-7.1406745943E-002	+3.7200303026E-002	-8.5610808524E-001	+1.6464504901E-002	-8.5757004219E-001	-4.6044478904E-001	+5.3639485356E-002
74600000000.000	-4.3892951163E-001	-5.7525332914E-002	+6.1734876533E-002	-8.4106045428E-001	+4.2353626011E-002	-8.4265966233E-001	-4.3542843241E-001	+5.6205859498E-002
74650000000.000	-4.4236272330E-001	-7.2905296879E-002	+5.5777992756E-002	-8.5550670062E-001	+3.8036333562E-002	-8.5739067690E-001	-4.4266500534E-001	+3.9807831204E-002
74700000000.000	-4.4543990060E-001	-7.7525378668E-002	+5.0500759283E-002	-8.5672813488E-001	+3.2559898517E-002	-8.5857563244E-001	-4.4916408436E-001	+3.6057893236E-002
74750000000.000	-4.4901929881E-001	-7.5913628356E-002	+4.5974756637E-002	-8.5572491152E-001	+2.9388410950E-002	-8.5774706894E-001	-4.5518166186E-001	+3.9800343912E-002
74800000000.000	-4.5136095881E-001	-6.9314906412E-002	+4.9839377255E-002	-8.5647547953E-001	+2.9621996500E-002	-8.5823150820E-001	-4.5765903631E-001	+4.9324062264E-002
74850000000.000	-4.4598732100E-001	-6.5375102835E-002	+4.6571440082E-002	-8.6163633657E-001	+2.4642385183E-002	-8.6352280607E-001	-4.5043099905E-001	+5.5168477314E-002
74900000000.000	-4.4303482366E-001	-6.3507632820E-002	+4.1567016249E-002	-8.6343258678E-001	+2.0670698676E-002	-8.6532496066E-001	-4.4701636612E-001	+5.6298033415E-002
74950000000.000	-4.3312106813E-001	-6.7955603480E-002	+3.2847685932E-002	-8.6534397363E-001	+1.1619706593E-002	-8.6640780677E-001	-4.3941882737E-001	+5.3322354436E-002
75000000000.000	-4.3541449927E-001	-8.4451542092E-002	+2.5939910995E-002	-8.5540859276E-001	+4.3350948562E-003	-8.5690389789E-001	-4.3948514440E-001	+4.0775266881E-002
75050000000.000	-4.5248275418E-001	-9.1236507497E-002	+4.1109791819E-002	-8.5302246414E-001	+1.7964440272E-002	-8.5507241294E-001	-4.5497949654E-001	+3.4931619740E-002
75100000000.000	-4.6479315605E-001	-7.6843657369E-002	+3.1858120002E-002	-8.6391405638E-001	+8.5570627470E-003	-8.6566147695E-001	-4.6271279993E-001	+4.9695929437E-002
75150000000.000	-4.6678633061E-001	-7.2397083268E-002	+3.3295525352E-002	-8.6909759517E-001	+1.1043899538E-002	-8.7048022492E-001	-4.6322173612E-001	+5.1848010589E-002
75200000000.000	-4.7480915496E-001	-6.2893462105E-002	+2.6237247375E-002	-8.8443198877E-001	+4.1644312070E-003	-8.8602073386E-001	-4.7139439729E-001	+5.3680227069E-002
75250000000.000	-4.7143675086E-001	-5.4207580001E-002	+6.9821387071E-004	-8.9159690764E-001	-2.3780801806E-002	-8.9181926832E-001	-4.7298188755E-001	+7.3727064590E-002
75300000000.000	-4.7000774540E-001	-4.6922075609E-002	-1.6420927418E-002	-8.7458445839E-001	-3.7797547263E-002	-8.7512012406E-001	-4.6109574825E-001	+7.9685892952E-002
75350000000.000	-4.6764248246E-001	-4.0803000742E-002	-2.0632571695E-002	-8.6437164870E-001	-3.9443756573E-002	-8.6413963266E-001	-4.5855306649E-001	+7.7789400250E-002
75400000000.000	-4.6476886086E-001	-3.1159876152E-002	-2.3555336022E-002	-8.5539568399E-001	-4.2804637846E-002	-8.5624510658E-001	-4.6192589720E-001	+8.3045391568E-002
75450000000.000	-4.5223932096E-001	-2.7830590158E-002	-2.2582725686E-002	-8.4776329982E-001	-4.3420540375E-002	-8.4762991053E-001	-4.5702299299E-001	+9.3113420633E-002
75500000000.000	-4.4280319943E-001	-2.3298224270E-002	-1.6136179511E-002	-8.4081925488E-001	-3.7286245296E-002	-8.4065985522E-001	-4.4594916366E-001	+1.0542620219E-001
75550000000.000	-4.2152526922E-001	-3.3289228553E-002	-4.8139606082E-003	-8.4411478548E-001	-2.3919245672E-002	-8.4453320484E-001	-4.2085320991E-001	+1.0207683810E-001
75600000000.000	-4.2298349900E-001	-6.0720985360E-002	-9.4750033958E-003	-8.5662306190E-001	-2.7418268527E-002	-8.5726857803E-001	-4.0810078137E-001	+7.4647994958E-002
75650000000.000	-4.4941525363E-001	-7.6340663206E-002	-5.8475393796E-003	-8.5506262387E-001	-2.5103904104E-002	-8.5533894995E-001	-4.3840781276E-001	+4.4430148674E-002
75700000000.000	-4.6382677716E-001	-6.5301491276E-002	-1.4494545865E-002	-8.6830103035E-001	-3.5188503366E-002	-8.6815028032E-001	-4.5390729270E-001	+5.8815883337E-002
75750000000.000	-4.6971042256E-001	-5.5161966788E-002	-2.0641372548E-002	-8.7136497005E-001	-4.3660557463E-002	-8.7140793774E-001	-4.6313839921E-001	+6.7055251297E-002
75800000000.000	-4.7366242755E-001	-4.9985060656E-002	-3.2606215835E-002	-8.7229252270E-001	-5.4832106984E-002	-8.7218353164E-001	-4.6722876791E-001	+7.8828910553E-002
75850000000.000	-4.8072247937E-001	-4.3607444406E-002	-3.4318594436E-002	-8.7150480172E-001	-5.5825466371E-002	-8.7122887123E-001	-4.6568213040E-001	+8.4265692206E-002
