! Python used to change reference impedance from 50 to 1.
# Hz S RI R 1
70000000000.000	-2.9947996265E-001	-1.5344631142E-001	+1.7046884087E-001	-9.0654451933E-001	+4.6275571559E-001	-8.0193089061E-001	-3.2092680422E-001	-9.0641913032E-002
70050000000.000	-2.9586764072E-001	-1.8491012383E-001	+2.6099671626E-001	-8.7660659304E-001	+4.4696639464E-001	-7.9629054573E-001	-3.3391856097E-001	-1.1525100757E-001
70100000000.000	-3.1190379887E-001	-1.9754834466E-001	+3.1847843115E-001	-8.4771464476E-001	+4.4309849238E-001	-7.8856721283E-001	-3.5533833437E-001	-1.1993742014E-001
70150000000.000	-3.1039270507E-001	-2.0691548568E-001	+3.7414787891E-001	-8.4449689315E-001	+4.6429873005E-001	-7.9745324445E-001	-3.5307550866E-001	-1.2332009679E-001
70200000000.000	-3.3709428955E-001	-2.0242010360E-001	+3.4867416299E-001	-8.8556224084E-001	+4.0593510687E-001	-8.6072077100E-001	-3.7063797800E-001	-1.1526880851E-001
70250000000.000	-3.2638324326E-001	-1.9947268419E-001	+3.4727181558E-001	-8.3448768647E-001	+3.9835984199E-001	-8.1515344786E-001	-3.6232211639E-001	-1.1524072376E-001
70300000000.000	-3.2624960662E-001	-1.9924937927E-001	+3.6547159393E-001	-8.1888050789E-001	+3.9371160645E-001	-8.0489844166E-001	-3.6075084310E-001	-1.1756970532E-001
70350000000.000	-3.3017092095E-001	-1.9716490497E-001	+3.7674331138E-001	-8.0800460338E-001	+3.9434310119E-001	-7.9899894036E-001	-3.6281980658E-001	-1.1624813027E-001
70400000000.000	-3.1472625474E-001	-1.8505641333E-001	+3.8197422903E-001	-7.9811809846E-001	+3.9499692438E-001	-7.9429844115E-001	-3.5052163009E-001	-1.0681603414E-001
70450000000.000	-3.1511104817E-001	-1.9559740891E-001	+3.9352350914E-001	-7.9649062127E-001	+3.9456137986E-001	-7.9616879424E-001	-3.5127797252E-001	-1.1790757710E-001
70500000000.000	-3.1490711945E-001	-2.0025448456E-001	+3.9049721321E-001	-8.0212620530E-001	+3.9212156653E-001	-8.0139443605E-001	-3.5241544191E-001	-1.2198380564E-001
70550000000.000	-3.2308495325E-001	-2.0458168649E-001	+3.8430475286E-001	-7.9915278837E-001	+3.8904682173E-001	-7.9806851809E-001	-3.5979470532E-001	-1.2408165571E-001
70600000000.000	-3.1890297842E-001	-2.0556120670E-001	+3.9280226058E-001	-7.9912125088E-001	+3.9453282915E-001	-8.0023064336E-001	-3.5538328451E-001	-1.2432206823E-001
70650000000.000	-3.2807063790E-001	-2.0255840354E-001	+4.0149604860E-001	-8.0360602119E-001	+4.0188917695E-001	-8.0362019549E-001	-3.6505585969E-001	-1.2320404465E-001
70700000000.000	-3.3417904524E-001	-1.9193119869E-001	+4.0276046324E-001	-8.2687672919E-001	+4.0244883953E-001	-8.2755054687E-001	-3.7461339035E-001	-1.0967270660E-001
70750000000.000	-3.2378581985E-001	-1.9045800001E-001	+3.7858466956E-001	-8.4479717691E-001	+3.7820211648E-001	-8.4478450442E-001	-3.6373370867E-001	-1.0592694598E-001
70800000000.000	-3.1276816438E-001	-1.8728640746E-001	+3.4846199081E-001	-8.4713467027E-001	+3.5020383796E-001	-8.4714753054E-001	-3.5457817529E-001	-9.8034294866E-002
70850000000.000	-2.9744920326E-001	-2.3688714852E-001	+3.1783886859E-001	-7.8791736187E-001	+3.2462637345E-001	-7.8721527494E-001	-3.3527709499E-001	-1.4431073936E-001
70900000000.000	-3.4171915337E-001	-2.2933915343E-001	+3.6816167754E-001	-7.9733810905E-001	+3.7186418795E-001	-7.9509653119E-001	-3.7896793565E-001	-1.3424640303E-001
70950000000.000	-3.5314064946E-001	-2.3147750941E-001	+3.8544880594E-001	-8.0488384325E-001	+3.8158074797E-001	-8.0773253264E-001	-3.8039923160E-001	-1.2509104851E-001
71000000000.000	-3.9918666717E-001	-1.8446039480E-001	+3.8382326042E-001	-8.8751491316E-001	+3.8576827066E-001	-8.8621039937E-001	-4.2041097619E-001	-1.4711034994E-001
71050000000.000	-3.6142580988E-001	-1.8337876022E-001	+3.2021907006E-001	-8.5013677589E-001	+3.1905921199E-001	-8.5095516844E-001	-4.0115678012E-001	-8.6158342456E-002
71100000000.000	-3.6070030093E-001	-1.8012134127E-001	+3.1514380513E-001	-8.2747063549E-001	+3.1287677502E-001	-8.2833391479E-001	-3.9082094608E-001	-8.9448227150E-002
71150000000.000	-3.5150676535E-001	-1.7040234623E-001	+3.2139623626E-001	-8.1082724497E-001	+3.1920530787E-001	-8.1347615641E-001	-3.8409645560E-001	-8.5645844597E-002
71200000000.000	-3.4304649445E-001	-1.8534180590E-001	+3.3180713093E-001	-8.1480276992E-001	+3.2887004757E-001	-8.1665911006E-001	-3.7829074348E-001	-9.7476352816E-002
71250000000.000	-3.4469351684E-001	-1.8604809680E-001	+3.2900468082E-001	-8.1972926628E-001	+3.2562932178E-001	-8.2056662506E-001	-3.8018897107E-001	-9.8816071725E-002
71300000000.000	-3.4567854659E-001	-1.8904334634E-001	+3.2512230186E-001	-8.2023879307E-001	+3.2333158673E-001	-8.2283811368E-001	-3.8571142072E-001	-1.0056899397E-001
71350000000.000	-3.5088404885E-001	-1.9616275445E-001	+3.2480392613E-001	-8.2476286407E-001	+3.2174151671E-001	-8.2679511888E-001	-3.9123176040E-001	-9.9937103409E-002
71400000000.000	-3.8167445321E-001	-1.8956144252E-001	+3.0684010125E-001	-8.1969949282E-001	+3.0120263085E-001	-8.2234247534E-001	-4.1303346797E-001	-9.0484964014E-002
71450000000.000	-3.3393477099E-001	-1.6585661086E-001	+3.5201747740E-001	-8.1099955459E-001	+3.4221532676E-001	-8.1535461128E-001	-3.6940095231E-001	-7.1480196978E-002
71500000000.000	-3.5061956169E-001	-1.9925174252E-001	+3.1999875303E-001	-8.5370288984E-001	+3.1386738104E-001	-8.5711341073E-001	-3.8106295882E-001	-1.0131340586E-001
71550000000.000	-3.6978013681E-001	-1.9162185401E-001	+2.9985463092E-001	-8.4032175773E-001	+2.9628105948E-001	-8.4288519827E-001	-3.9787773427E-001	-9.5424153382E-002
71600000000.000	-3.6869941646E-001	-1.8314077171E-001	+2.9629344438E-001	-8.3665803862E-001	+2.9284547989E-001	-8.3687905370E-001	-3.9643643543E-001	-8.8567558295E-002
71650000000.000	-3.6333428014E-001	-1.8368413783E-001	+2.9023437800E-001	-8.3615348895E-001	+2.8708726886E-001	-8.3864244074E-001	-3.9091763769E-001	-8.8365249839E-002
71700000000.000	-3.7386813052E-001	-1.8261682300E-001	+2.8868611104E-001	-8.2741873468E-001	+2.8444204183E-001	-8.3169921602E-001	-4.0082038663E-001	-8.8383945871E-002
71750000000.000	-3.7410933405E-001	-1.8004204284E-001	+2.9210754553E-001	-8.2766508540E-001	+2.8584782226E-001	-8.2948701421E-001	-4.0206977125E-001	-8.7082401267E-002
71800000000.000	-3.8053706046E-001	-1.8956857167E-001	+3.1113509509E-001	-8.4537132489E-001	+3.0336177827E-001	-8.4944404043E-001	-4.1006202494E-001	-9.0558525493E-002
71850000000.000	-3.8774124471E-001	-1.6306766385E-001	+2.6012884583E-001	-8.3525019781E-001	+2.5888133411E-001	-8.3660973365E-001	-4.0694480537E-001	-7.0038284680E-002
71900000000.000	-3.7904114319E-001	-1.5530698727E-001	+2.7363354261E-001	-8.3002761761E-001	+2.6714431753E-001	-8.3311953643E-001	-4.0504089415E-001	-6.5786325361E-002
71950000000.000	-3.7028964516E-001	-1.5465064412E-001	+2.7553898784E-001	-8.3401421144E-001	+2.6598609863E-001	-8.3879217140E-001	-3.9509708358E-001	-6.1503383694E-002
72000000000.000	-3.5724151012E-001	-1.5162706268E-001	+2.6212244145E-001	-8.3608211333E-001	+2.5662133088E-001	-8.3969613240E-001	-3.8664446166E-001	-5.7083286371E-002
72050000000.000	-3.4585132642E-001	-1.8025067621E-001	+2.5734286081E-001	-8.2783255528E-001	+2.4770398194E-001	-8.3159961156E-001	-3.7181137040E-001	-8.2806824575E-002
72100000000.000	-3.6449669771E-001	-2.0017065533E-001	+2.6417303512E-001	-8.1566339493E-001	+2.5646286500E-001	-8.1970905368E-001	-3.8627795553E-001	-1.0427010290E-001
72150000000.000	-3.9095785066E-001	-2.0172029625E-001	+2.7990319149E-001	-8.2368206354E-001	+2.7303191994E-001	-8.2583609270E-001	-4.1266380434E-001	-1.1193678110E-001
72200000000.000	-4.0579787293E-001	-1.8083854982E-001	+2.8934488305E-001	-8.4380644838E-001	+2.8288874601E-001	-8.4709611841E-001	-4.3552228632E-001	-9.7912454353E-002
72250000000.000	-4.1388061991E-001	-1.6474704935E-001	+2.6778169727E-001	-8.6646944134E-001	+2.5959514526E-001	-8.6829696519E-001	-4.5721315673E-001	-6.9434328727E-002
72300000000.000	-4.0469814819E-001	-1.4939397457E-001	+2.5165134239E-001	-8.6304733258E-001	+2.4017591108E-001	-8.6891538140E-001	-4.3748368375E-001	-4.4343965607E-002
72350000000.000	-3.8687317649E-001	-1.4734661510E-001	+2.3777037388E-001	-8.6763871004E-001	+2.2895161052E-001	-8.7091989399E-001	-4.1639108959E-001	-4.1789092927E-002
72400000000.000	-3.8125789024E-001	-1.4940999046E-001	+2.1721254795E-001	-8.6583032591E-001	+2.1064657999E-001	-8.6943456002E-001	-4.0523634772E-001	-4.4370939620E-002
72450000000.000	-3.6914520408E-001	-1.8309630749E-001	+1.9336234068E-001	-8.2393110167E-001	+1.9024053803E-001	-8.2668883043E-001	-3.9086439090E-001	-8.0965116244E-002
72500000000.000	-4.0415510845E-001	-1.7350353739E-001	+2.2966283762E-001	-8.3179789254E-001	+2.2332243471E-001	-8.3421020209E-001	-4.3029307713E-001	-7.0127671803E-002
72550000000.000	-4.0916546840E-001	-1.6319303921E-001	+2.2670168793E-001	-8.3597648392E-001	+2.1991422612E-001	-8.3782431004E-001	-4.3050102399E-001	-5.5138121128E-002
72600000000.000	-4.2047934701E-001	-1.5933789862E-001	+2.4600756500E-001	-8.3167136831E-001	+2.3738431951E-001	-8.3681277208E-001	-4.1673913164E-001	-5.3831993566E-002
72650000000.000	-3.8513238936E-001	-1.2045287299E-001	+2.1372620595E-001	-8.6690831534E-001	+2.0479731298E-001	-8.7050647972E-001	-4.3972289920E-001	-3.1775178809E-002
72700000000.000	-3.8609783447E-001	-1.5249598181E-001	+2.1274315459E-001	-8.5130927507E-001	+2.0422576162E-001	-8.5484042341E-001	-4.1523717255E-001	-4.7089166523E-002
72750000000.000	-3.9333655856E-001	-1.5712588040E-001	+2.1373852717E-001	-8.5338885691E-001	+2.0290772949E-001	-8.5703474582E-001	-4.2107211505E-001	-5.1411161739E-002
72800000000.000	-3.9796932892E-001	-1.6403950300E-001	+2.0679414790E-001	-8.5889862792E-001	+1.9780387527E-001	-8.6173962682E-001	-4.2220338358E-001	-5.5108876848E-002
72850000000.000	-4.1302420591E-001	-1.5900107065E-001	+1.9999774638E-001	-8.5974986957E-001	+1.9047454210E-001	-8.6285959707E-001	-4.3318520765E-001	-4.9979423895E-002
72900000000.000	-4.2013874903E-001	-1.5439561351E-001	+1.9473013665E-001	-8.6054013602E-001	+1.8683528477E-001	-8.6246223473E-001	-4.3774560059E-001	-4.7185839465E-002
72950000000.000	-4.2859079885E-001	-1.4519684818E-001	+1.8475166568E-001	-8.6388484578E-001	+1.7392464685E-001	-8.6717554840E-001	-4.4453086402E-001	-3.9928329036E-002
73000000000.000	-4.3000560353E-001	-1.1629200113E-001	+1.7208006923E-001	-8.4349323778E-001	+1.5500396197E-001	-8.4708355116E-001	-4.4431697925E-001	-1.5258854572E-002
73050000000.000	-3.9812734541E-001	-1.3151535925E-001	+1.8509650367E-001	-8.5571999984E-001	+1.7393101181E-001	-8.5836829984E-001	-4.1750316773E-001	-2.8589566667E-002
73100000000.000	-4.0668103773E-001	-1.3821435338E-001	+1.7253926782E-001	-8.5413454022E-001	+1.6464528050E-001	-8.5695878996E-001	-4.2453750140E-001	-3.6346341221E-002
73150000000.000	-4.1479686021E-001	-1.3924745441E-001	+1.6928326992E-001	-8.4995284595E-001	+1.6065367566E-001	-8.5151124129E-001	-4.3486530443E-001	-3.8384400202E-002
73200000000.000	-4.1491545570E-001	-1.3379619427E-001	+1.6999227740E-001	-8.4951387983E-001	+1.5989618571E-001	-8.5291418734E-001	-4.3647267145E-001	-3.1327886715E-002
73250000000.000	-4.1422729347E-001	-1.3410819771E-001	+1.6711092411E-001	-8.4899641554E-001	+1.5756015264E-001	-8.5325169835E-001	-4.3653543407E-001	-2.9015946815E-002
73300000000.000	-4.2296769882E-001	-1.3132708350E-001	+1.6667461357E-001	-8.4948588638E-001	+1.5617929428E-001	-8.5031699111E-001	-4.4257703238E-001	-2.4764179644E-002
73350000000.000	-4.2216816342E-001	-1.2276003852E-001	+1.6308343197E-001	-8.5024370189E-001	+1.5463943243E-001	-8.5201330395E-001	-4.3992362859E-001	-1.7207251545E-002
73400000000.000	-4.1584431134E-001	-1.2147482910E-001	+1.6577398004E-001	-8.5399402927E-001	+1.5646718369E-001	-8.5721837172E-001	-4.3319479605E-001	-1.4741608625E-002
73450000000.000	-4.1919485181E-001	-1.1937110244E-001	+1.5183728006E-001	-8.7532978477E-001	+1.3535062685E-001	-8.7975461635E-001	-4.3631468248E-001	-1.1367943970E-002
73500000000.000	-4.0302638475E-001	-1.2349641163E-001	+1.3925721057E-001	-8.5395329395E-001	+1.2519580530E-001	-8.5699047429E-001	-4.1940296383E-001	-1.7982300884E-002
73550000000.000	-4.0991305053E-001	-1.4087283823E-001	+1.4517008388E-001	-8.4349268686E-001	+1.3132491457E-001	-8.4737891451E-001	-4.2618010238E-001	-3.2834808692E-002
73600000000.000	-4.2583926415E-001	-1.4046310183E-001	+1.5379622886E-001	-8.4712315279E-001	+1.4016273382E-001	-8.5075181353E-001	-4.4063073942E-001	-3.2700402601E-002
73650000000.000	-4.3014778165E-001	-1.3805454292E-001	+1.5853201181E-001	-8.5828968079E-001	+1.4453335547E-001	-8.6048962587E-001	-4.4631320012E-001	-3.1196354165E-002
73700000000.000	-4.4185995443E-001	-1.3087115961E-001	+1.5301909124E-001	-8.7647179710E-001	+1.3946170868E-001	-8.8000398656E-001	-4.5877851609E-001	-2.6271742718E-002
73750000000.000	-4.4502049296E-001	-1.2045650936E-001	+1.2734536598E-001	-8.8340401586E-001	+1.1401261791E-001	-8.8617378430E-001	-4.6523867495E-001	-8.2850592333E-003
73800000000.000	-4.4450660744E-001	-1.0915859686E-001	+1.1511873160E-001	-8.6870454819E-001	+1.0296698342E-001	-8.7040730521E-001	-4.5831446756E-001	+3.4708395095E-003
73850000000.000	-4.4112621755E-001	-1.0836530957E-001	+1.1427506154E-001	-8.6562046612E-001	+9.9426253097E-002	-8.6857634418E-001	-4.5333210103E-001	+2.2931914808E-003
73900000000.000	-4.3915898526E-001	-1.0255589363E-001	+1.1012275705E-001	-8.6718561000E-001	+9.5739463605E-002	-8.6949353571E-001	-4.5291126199E-001	+9.0346650770E-003
73950000000.000	-4.3594455007E-001	-9.5552979565E-002	+1.0104760779E-001	-8.6823126487E-001	+8.9435493961E-002	-8.6895897806E-001	-4.4733694208E-001	+1.9173156547E-002
74000000000.000	-4.2971207947E-001	-9.4750219147E-002	+8.4817732511E-002	-8.6100788818E-001	+7.6120711006E-002	-8.6224635782E-001	-4.3585595063E-001	+2.1649139803E-002
74050000000.000	-4.2679539314E-001	-1.0685325253E-001	+8.5785089921E-002	-8.2208668291E-001	+7.9311169280E-002	-8.2336025757E-001	-4.2155018666E-001	-7.6470279558E-003
74100000000.000	-4.2100670100E-001	-9.4661371474E-002	+1.1659203259E-001	-8.4068198204E-001	+1.1078342973E-001	-8.4266366080E-001	-4.3551920409E-001	+6.9231619215E-003
74150000000.000	-4.1836998415E-001	-1.1400932441E-001	+1.2062940771E-001	-8.6052258786E-001	+1.0647050494E-001	-8.6311745989E-001	-4.3571860245E-001	-2.7130444209E-003
74200000000.000	-4.3285543647E-001	-1.2241604393E-001	+1.1280050470E-001	-8.6700914836E-001	+9.7537362277E-002	-8.6934906783E-001	-4.4532562778E-001	-6.0712722483E-003
74250000000.000	-4.6053775208E-001	-1.1157224738E-001	+1.1385249308E-001	-8.9348426080E-001	+9.8955035778E-002	-8.9607927618E-001	-4.6109938776E-001	-1.3569388741E-002
74300000000.000	-4.4332283547E-001	-1.0254920752E-001	+7.3987866081E-002	-8.7865089364E-001	+6.1039991753E-002	-8.7965920776E-001	-4.6158213265E-001	+1.7942587898E-002
74350000000.000	-4.4713778374E-001	-1.0042005186E-001	+7.4231838842E-002	-8.7153527035E-001	+6.1277055743E-002	-8.7336982982E-001	-4.6043137827E-001	+1.5987159854E-002
74400000000.000	-4.4870641367E-001	-1.0106139205E-001	+7.2776271825E-002	-8.7394811308E-001	+5.9213760144E-002	-8.7603500251E-001	-4.6255702515E-001	+1.9344851592E-002
74450000000.000	-4.5963371103E-001	-9.6792050489E-002	+6.3779382600E-002	-8.7847376486E-001	+5.2302730166E-002	-8.7962119398E-001	-4.6894842977E-001	+2.7719081694E-002
74500000000.000	-4.6618390975E-001	-8.5520757635E-002	+4.6296505521E-002	-8.7737753600E-001	+3.1782357491E-002	-8.7829033866E-001	-4.6623323004E-001	+3.9710224734E-002
74550000000.000	-4.6644393558E-001	-7.0525064280E-002	+3.5373947865E-002	-8.5791083904E-001	+2.1618687778E-002	-8.5916377762E-001	-4.5899162918E-001	+4.6672531675E-002
74600000000.000	-4.3869157972E-001	-5.5211506996E-002	+5.7149108389E-002	-8.4058004975E-001	+4.4999349774E-002	-8.4172951317E-001	-4.3670259032E-001	+5.1869474236E-002
74650000000.000	-4.4034902190E-001	-7.1562644753E-002	+5.3607950417E-002	-8.5590131762E-001	+4.3491391802E-002	-8.5730754974E-001	-4.4087561155E-001	+3.4488517445E-002
74700000000.000	-4.4345452964E-001	-7.6480123770E-002	+4.9233480817E-002	-8.5730877828E-001	+3.8077847998E-002	-8.5882414140E-001	-4.4777287030E-001	+2.9963147490E-002
74750000000.000	-4.4732457497E-001	-7.5189941319E-002	+4.4046002223E-002	-8.5660502603E-001	+3.5824183851E-002	-8.5821333915E-001	-4.5424173438E-001	+3.3466626594E-002
74800000000.000	-4.4972839289E-001	-6.8614388417E-002	+4.6992583184E-002	-8.5719393452E-001	+3.5369240115E-002	-8.5856945717E-001	-4.5710692222E-001	+4.3113968704E-002
74850000000.000	-4.4475101453E-001	-6.4652496725E-002	+4.4197742884E-002	-8.6241336832E-001	+3.0746878797E-002	-8.6393908507E-001	-4.4992146131E-001	+4.9139881107E-002
74900000000.000	-4.4208935973E-001	-6.2470673059E-002	+3.8836509320E-002	-8.6423144791E-001	+2.7203452196E-002	-8.6578486230E-001	-4.4650816177E-001	+5.0430486479E-002
74950000000.000	-4.3217686939E-001	-6.6124001176E-002	+2.9883228008E-002	-8.6623387907E-001	+1.8364332910E-002	-8.6706500115E-001	-4.3873845115E-001	+4.7803684822E-002
75000000000.000	-4.3337601296E-001	-8.2659579973E-002	+2.2220260691E-002	-8.5653430312E-001	+1.1451277214E-002	-8.5783317732E-001	-4.3846943838E-001	+3.4965535045E-002
75050000000.000	-4.5024582817E-001	-9.0241246359E-002	+3.7164164309E-002	-8.5378890502E-001	+2.4190816923E-002	-8.5552279180E-001	-4.5380469644E-001	+2.8608742924E-002
75100000000.000	-4.6277994709E-001	-7.6153030625E-002	+2.8738009660E-002	-8.6456244563E-001	+1.4172802872E-002	-8.6614623926E-001	-4.6199513995E-001	+4.3056659501E-002
75150000000.000	-4.6498420158E-001	-7.1937560283E-002	+2.9386455701E-002	-8.6992292414E-001	+1.7265739567E-002	-8.7105794707E-001	-4.6281151591E-001	+4.5176166000E-002
75200000000.000	-4.7333263193E-001	-6.2495333039E-002	+2.3066393870E-002	-8.8532717282E-001	+9.9257193738E-003	-8.8685597749E-001	-4.7121705074E-001	+4.7038422350E-002
75250000000.000	-4.7033404766E-001	-5.3791057826E-002	-2.3891069009E-003	-8.9264145379E-001	-1.8403904347E-002	-8.9298201452E-001	-4.7310200828E-001	+6.7314502111E-002
75300000000.000	-4.6917743822E-001	-4.6236996960E-002	-1.9830903267E-002	-8.7551318950E-001	-3.2082616426E-002	-8.7635335890E-001	-4.6100737590E-001	+7.3612425113E-002
75350000000.000	-4.6684486995E-001	-3.9830527118E-002	-2.3643872808E-002	-8.6524749965E-001	-3.3907126492E-002	-8.6543177091E-001	-4.5814459104E-001	+7.1509698616E-002
75400000000.000	-4.6399179052E-001	-2.9913163907E-002	-2.6899347451E-002	-8.5642469693E-001	-3.7480473948E-002	-8.5760122361E-001	-4.6167585880E-001	+7.6245964470E-002
75450000000.000	-4.5099713109E-001	-2.6692999449E-002	-2.5454938165E-002	-8.4893886592E-001	-3.7509909906E-002	-8.4919983023E-001	-4.5720539631E-001	+8.5908443339E-002
75500000000.000	-4.4216196891E-001	-2.2401782787E-002	-1.9515488870E-002	-8.4190363829E-001	-3.1242752074E-002	-8.4206190634E-001	-4.4735347318E-001	+9.7793211701E-002
75550000000.000	-4.2090838891E-001	-3.1564086160E-002	-7.8638193229E-003	-8.4475602169E-001	-1.9013829078E-002	-8.4530389069E-001	-4.2325429711E-001	+9.6204221743E-002
75600000000.000	-4.2159129379E-001	-5.9012630668E-002	-1.2177660866E-002	-8.5722373680E-001	-2.2177470682E-002	-8.5810960990E-001	-4.0965807909E-001	+6.9681568834E-002
75650000000.000	-4.4731628966E-001	-7.5745968615E-002	-9.7045876304E-003	-8.5552744277E-001	-2.0035579469E-002	-8.5601774513E-001	-4.3859607416E-001	+3.9665232624E-002
75700000000.000	-4.6284762157E-001	-6.4566076999E-002	-1.8476220901E-002	-8.6878230833E-001	-3.0851365144E-002	-8.6891733466E-001	-4.5406507020E-001	+5.3613266352E-002
75750000000.000	-4.6894585712E-001	-5.4116477750E-002	-2.3901023985E-002	-8.7195735139E-001	-3.8179396837E-002	-8.7227618925E-001	-4.6327833490E-001	+6.1829710766E-002
75800000000.000	-4.7271492749E-001	-4.8599298058E-002	-3.5599226797E-002	-8.7291123901E-001	-4.8555631385E-002	-8.7320339676E-001	-4.6715081081E-001	+7.3420934502E-002
75850000000.000	-4.7948372505E-001	-4.2066882090E-002	-3.7368527357E-002	-8.7216463285E-001	-5.0066054444E-002	-8.7235442872E-001	-4.6542853054E-001	+7.8689405587E-002
