! Python used to change reference impedance from 50 to 1.
# Hz S RI R 1
70000000000.000	-3.2196125560E-001	-1.7506015991E-001	+4.5717885203E-001	-8.0494404188E-001	+4.4905571847E-001	-8.0986822993E-001	-3.4845420765E-001	-9.5153157560E-002
70050000000.000	-3.1124508179E-001	-1.8893168718E-001	+4.3660324037E-001	-8.0479209132E-001	+4.3187569660E-001	-8.0641396105E-001	-3.4032817695E-001	-1.1137326821E-001
70100000000.000	-3.2369249590E-001	-1.9511178880E-001	+4.3781524059E-001	-7.9356618296E-001	+4.2735526114E-001	-7.9829420109E-001	-3.5450452451E-001	-1.2034018706E-001
70150000000.000	-3.2003341399E-001	-2.0252981935E-001	+4.5991214648E-001	-8.0170373414E-001	+4.4889294369E-001	-8.0689447335E-001	-3.5422777374E-001	-1.2723135755E-001
70200000000.000	-3.4711696996E-001	-1.9538393523E-001	+4.1239646669E-001	-8.5903508078E-001	+3.8904832386E-001	-8.6948741899E-001	-3.7663866107E-001	-1.1742642031E-001
70250000000.000	-3.3550756500E-001	-1.8949363700E-001	+3.8774667066E-001	-8.1836280321E-001	+3.8278920033E-001	-8.2462694457E-001	-3.6851097807E-001	-1.1212726389E-001
70300000000.000	-3.3360099548E-001	-1.8753623357E-001	+3.8730143650E-001	-8.1060820954E-001	+3.7816568249E-001	-8.1399244853E-001	-3.6428873941E-001	-1.1137176700E-001
70350000000.000	-3.3574324991E-001	-1.8381399120E-001	+3.8486752525E-001	-8.0628816690E-001	+3.7887523121E-001	-8.0872170071E-001	-3.6398966961E-001	-1.0871867157E-001
70400000000.000	-3.1839151225E-001	-1.7136546042E-001	+3.8237310226E-001	-8.0004748257E-001	+3.7980897882E-001	-8.0379487444E-001	-3.4998663178E-001	-9.9441353762E-002
70450000000.000	-3.1790050801E-001	-1.8224533484E-001	+3.9245138294E-001	-7.9940446001E-001	+3.7903303752E-001	-8.0597546712E-001	-3.4986990151E-001	-1.1008160683E-001
70500000000.000	-3.1685323237E-001	-1.8755389659E-001	+3.8685869778E-001	-8.0541795130E-001	+3.7560752566E-001	-8.1068727350E-001	-3.4991018802E-001	-1.1481196337E-001
70550000000.000	-3.2530388947E-001	-1.9191516824E-001	+3.8030745449E-001	-8.0258429988E-001	+3.7313192820E-001	-8.0703794178E-001	-3.5723353622E-001	-1.1764632840E-001
70600000000.000	-3.2084732902E-001	-1.9289840893E-001	+3.8706870701E-001	-8.0361482311E-001	+3.7877164193E-001	-8.0951151053E-001	-3.5277530792E-001	-1.1809235560E-001
70650000000.000	-3.3025802494E-001	-1.9005226840E-001	+3.9521065489E-001	-8.0832597176E-001	+3.8542402202E-001	-8.1316743491E-001	-3.6281033821E-001	-1.1688112993E-001
70700000000.000	-3.3642265238E-001	-1.7890052490E-001	+3.9513349482E-001	-8.3248995261E-001	+3.8551639318E-001	-8.3745500826E-001	-3.7229936009E-001	-1.0257687831E-001
70750000000.000	-3.2475334810E-001	-1.7662184240E-001	+3.6934427418E-001	-8.5089402037E-001	+3.6043277318E-001	-8.5440941982E-001	-3.5986937234E-001	-9.7840625027E-002
70800000000.000	-3.1039816592E-001	-1.7518951065E-001	+3.3563667921E-001	-8.5179705921E-001	+3.2900451380E-001	-8.5499026540E-001	-3.4677549194E-001	-9.1600167922E-002
70850000000.000	-3.0949006242E-001	-2.3135346517E-001	+3.1788289828E-001	-7.8672881645E-001	+3.1696763381E-001	-7.8893854694E-001	-3.4050320823E-001	-1.4502837600E-001
70900000000.000	-3.4476027808E-001	-2.1464418302E-001	+3.5908553549E-001	-8.0491267933E-001	+3.5624184572E-001	-8.0548477333E-001	-3.7607177795E-001	-1.2674139174E-001
70950000000.000	-3.5551864368E-001	-2.1826986556E-001	+3.7482258354E-001	-8.1146432569E-001	+3.6488017192E-001	-8.1704303851E-001	-3.7715663228E-001	-1.1950185715E-001
71000000000.000	-4.0015540082E-001	-1.7161967369E-001	+3.7149708341E-001	-8.9395359870E-001	+3.6707626843E-001	-8.9520946211E-001	-4.1714313416E-001	-1.4143417457E-001
71050000000.000	-3.6370995639E-001	-1.7154886102E-001	+3.0777513891E-001	-8.5521247188E-001	+3.0147272226E-001	-8.5763438736E-001	-3.9842722162E-001	-8.1413601363E-002
71100000000.000	-3.6318063571E-001	-1.6768576254E-001	+3.0294729388E-001	-8.3200919695E-001	+2.9628266010E-001	-8.3445790457E-001	-3.8833306781E-001	-8.4177259456E-002
71150000000.000	-3.5299510994E-001	-1.5808219013E-001	+3.0993358041E-001	-8.1583980229E-001	+3.0369249562E-001	-8.1998724753E-001	-3.8068034914E-001	-8.0426338804E-002
71200000000.000	-3.4521956763E-001	-1.7435012572E-001	+3.1968597070E-001	-8.2103820897E-001	+3.1266962289E-001	-8.2421719191E-001	-3.7522510677E-001	-9.3733384741E-002
71250000000.000	-3.4773146432E-001	-1.7436332875E-001	+3.1649237598E-001	-8.2524322828E-001	+3.0901212403E-001	-8.2740552051E-001	-3.7851277773E-001	-9.5123176615E-002
71300000000.000	-3.4863990615E-001	-1.7738832845E-001	+3.1263434004E-001	-8.2594905701E-001	+3.0725201918E-001	-8.2970584420E-001	-3.8473516208E-001	-9.5859673159E-002
71350000000.000	-3.5477912161E-001	-1.8425764380E-001	+3.1160031726E-001	-8.3111648752E-001	+3.0471282662E-001	-8.3427731085E-001	-3.9011414925E-001	-9.4628226771E-002
71400000000.000	-3.8611130412E-001	-1.7425599285E-001	+2.9252553614E-001	-8.2303675476E-001	+2.8280922059E-001	-8.2681407922E-001	-4.1226686177E-001	-8.2130846186E-002
71450000000.000	-3.3504095052E-001	-1.5848971940E-001	+3.4140613986E-001	-8.2208157623E-001	+3.2886576490E-001	-8.2715288753E-001	-3.6442446915E-001	-7.0925678620E-002
71500000000.000	-3.5535936451E-001	-1.8719836287E-001	+3.0566141922E-001	-8.6082253734E-001	+2.9707417762E-001	-8.6478730363E-001	-3.8054066167E-001	-9.7432933109E-002
71550000000.000	-3.7375577819E-001	-1.7852569845E-001	+2.8610926790E-001	-8.4662800902E-001	+2.7938935707E-001	-8.5013679093E-001	-3.9695558828E-001	-9.0538067043E-002
71600000000.000	-3.7206519214E-001	-1.6987410955E-001	+2.8184385344E-001	-8.4320217463E-001	+2.7580244636E-001	-8.4404879249E-001	-3.9524009946E-001	-8.3478613187E-002
71650000000.000	-3.6665612833E-001	-1.7030649592E-001	+2.7578176122E-001	-8.4233632876E-001	+2.7043795562E-001	-8.4551100078E-001	-3.8962523543E-001	-8.3401413447E-002
71700000000.000	-3.7678544661E-001	-1.6920671351E-001	+2.7438227247E-001	-8.3395727186E-001	+2.6834546338E-001	-8.3833942167E-001	-3.9950077172E-001	-8.3091176072E-002
71750000000.000	-3.7678401200E-001	-1.6667579273E-001	+2.7805841858E-001	-8.3392582315E-001	+2.6987875020E-001	-8.3622690134E-001	-4.0092173755E-001	-8.1776563613E-002
71800000000.000	-3.8464991125E-001	-1.7518611362E-001	+2.9655196430E-001	-8.5222184821E-001	+2.8736752771E-001	-8.5661681712E-001	-4.0959364804E-001	-8.5116893359E-002
71850000000.000	-3.8981099652E-001	-1.4861916721E-001	+2.4565952167E-001	-8.4215912090E-001	+2.4332448092E-001	-8.4371094292E-001	-4.0609721488E-001	-6.3902418157E-002
71900000000.000	-3.8086979089E-001	-1.4126851053E-001	+2.5794941806E-001	-8.3769553530E-001	+2.5093583470E-001	-8.4084888191E-001	-4.0361683770E-001	-5.8991032169E-002
71950000000.000	-3.7159595772E-001	-1.4095380363E-001	+2.5852583570E-001	-8.4193739918E-001	+2.4855700516E-001	-8.4632823002E-001	-3.9264840817E-001	-5.4829592834E-002
72000000000.000	-3.5829507255E-001	-1.3904096241E-001	+2.4515857511E-001	-8.4226165501E-001	+2.3854882279E-001	-8.4601462881E-001	-3.8330187270E-001	-5.1291353708E-002
72050000000.000	-3.4846657755E-001	-1.6903147447E-001	+2.4132234971E-001	-8.3265299667E-001	+2.3194231119E-001	-8.3594119709E-001	-3.6964801665E-001	-7.8959642016E-002
72100000000.000	-3.6900819172E-001	-1.8722511951E-001	+2.4991484636E-001	-8.2209408123E-001	+2.4218263225E-001	-8.2593545829E-001	-3.8646916027E-001	-9.9136724881E-002
72150000000.000	-3.9455657493E-001	-1.8705658659E-001	+2.6490823576E-001	-8.3162834451E-001	+2.5746474220E-001	-8.3380072894E-001	-4.1230014634E-001	-1.0486372959E-001
72200000000.000	-4.0816317754E-001	-1.6610188737E-001	+2.7305517330E-001	-8.5201836012E-001	+2.6557163832E-001	-8.5530461716E-001	-4.3384868612E-001	-9.0368424974E-002
72250000000.000	-4.1587512376E-001	-1.5034121634E-001	+2.4972728768E-001	-8.7413943424E-001	+2.4061295644E-001	-8.7600689194E-001	-4.5473478524E-001	-6.2148442040E-002
72300000000.000	-4.0648484618E-001	-1.3526949641E-001	+2.3412043734E-001	-8.7014262808E-001	+2.2212370416E-001	-8.7571173959E-001	-4.3457542384E-001	-3.7360761872E-002
72350000000.000	-3.8833915427E-001	-1.3333690600E-001	+2.1948252944E-001	-8.7405943120E-001	+2.1002263183E-001	-8.7724323651E-001	-4.1295091370E-001	-3.5383598591E-002
72400000000.000	-3.8070085583E-001	-1.3636688455E-001	+1.9651673376E-001	-8.7121838510E-001	+1.8927835866E-001	-8.7457043880E-001	-4.0010265946E-001	-3.8898722447E-002
72450000000.000	-3.8127806316E-001	-1.7529371485E-001	+1.8540534006E-001	-8.2352050838E-001	+1.8141195793E-001	-8.2620252425E-001	-3.9793695926E-001	-8.1315380327E-002
72500000000.000	-4.0678679145E-001	-1.5614995588E-001	+2.1165263289E-001	-8.4018717828E-001	+2.0519290304E-001	-8.4237014009E-001	-4.2829014648E-001	-6.0636504319E-002
72550000000.000	-4.1053272472E-001	-1.4743826920E-001	+2.0932385481E-001	-8.4160951298E-001	+2.0114760841E-001	-8.4357636678E-001	-4.2705327687E-001	-4.7377484934E-002
72600000000.000	-4.2080511647E-001	-1.4403891176E-001	+2.2958824812E-001	-8.3731567842E-001	+2.2033522976E-001	-8.4245718074E-001	-4.1222996707E-001	-4.7178439399E-002
72650000000.000	-3.8518194183E-001	-1.0854946138E-001	+1.9611960890E-001	-8.7308135814E-001	+1.8566162778E-001	-8.7673074898E-001	-4.3546410032E-001	-2.7729993423E-002
72700000000.000	-3.8829118698E-001	-1.3987897270E-001	+1.9447659583E-001	-8.5692709575E-001	+1.8539283559E-001	-8.6040224941E-001	-4.1303870785E-001	-4.2547239731E-002
72750000000.000	-3.9579760203E-001	-1.4392023195E-001	+1.9538585937E-001	-8.5882342723E-001	+1.8441020510E-001	-8.6219397561E-001	-4.1901271839E-001	-4.6153082434E-002
72800000000.000	-4.0053925983E-001	-1.5042109428E-001	+1.8771890327E-001	-8.6411723191E-001	+1.7865661458E-001	-8.6674894962E-001	-4.2024333509E-001	-4.9832590466E-002
72850000000.000	-4.1551389193E-001	-1.4504013788E-001	+1.8215105622E-001	-8.6453483508E-001	+1.7173308473E-001	-8.6742904938E-001	-4.3130217642E-001	-4.4599668698E-002
72900000000.000	-4.2262611446E-001	-1.4002532679E-001	+1.7590632399E-001	-8.6506080057E-001	+1.6837830409E-001	-8.6676825508E-001	-4.3591384408E-001	-4.1433645293E-002
72950000000.000	-4.3109806117E-001	-1.3000905283E-001	+1.6593168087E-001	-8.6777441370E-001	+1.5490527872E-001	-8.7078185278E-001	-4.4297189239E-001	-3.3478953715E-002
73000000000.000	-4.2673442950E-001	-1.0043897725E-001	+1.5883794196E-001	-8.4616900288E-001	+1.4167566221E-001	-8.4949781889E-001	-4.3741016771E-001	-7.8186233224E-003
73050000000.000	-4.0111000288E-001	-1.1809915785E-001	+1.6617749246E-001	-8.6090797610E-001	+1.5454541417E-001	-8.6334855397E-001	-4.1614731584E-001	-2.4390725757E-002
73100000000.000	-4.0860819519E-001	-1.2405697278E-001	+1.5500110903E-001	-8.5827500704E-001	+1.4596681165E-001	-8.6107939225E-001	-4.2301781570E-001	-3.1178796728E-002
73150000000.000	-4.1655607494E-001	-1.2496848018E-001	+1.5207056097E-001	-8.5393683584E-001	+1.4250324802E-001	-8.5552321807E-001	-4.3343136455E-001	-3.2754422099E-002
73200000000.000	-4.1649914073E-001	-1.1962500764E-001	+1.5266825837E-001	-8.5372687370E-001	+1.4246568524E-001	-8.5698253130E-001	-4.3478492445E-001	-2.5391270682E-002
73250000000.000	-4.1571331623E-001	-1.1994690067E-001	+1.4926828589E-001	-8.5358234758E-001	+1.3999088553E-001	-8.5758011357E-001	-4.3456469707E-001	-2.2930521986E-002
73300000000.000	-4.2429601783E-001	-1.1706339261E-001	+1.4852826618E-001	-8.5427925638E-001	+1.3896659755E-001	-8.5482560817E-001	-4.4041437089E-001	-1.8513088121E-002
73350000000.000	-4.2292825299E-001	-1.0889599551E-001	+1.4458535507E-001	-8.5529482163E-001	+1.3683913915E-001	-8.5681534506E-001	-4.3717427767E-001	-1.1180519133E-002
73400000000.000	-4.1746603730E-001	-1.0711775656E-001	+1.4681471051E-001	-8.5873473244E-001	+1.3757432160E-001	-8.6164375641E-001	-4.3099059042E-001	-8.7710785421E-003
73450000000.000	-4.1980619168E-001	-1.0515719006E-001	+1.3202876334E-001	-8.7938465426E-001	+1.1603873853E-001	-8.8334764695E-001	-4.3311632567E-001	-5.3090095645E-003
73500000000.000	-4.0406476919E-001	-1.1109005101E-001	+1.1978985609E-001	-8.5679385293E-001	+1.0658001462E-001	-8.5927599485E-001	-4.1659492049E-001	-1.3756626568E-002
73550000000.000	-4.1296118259E-001	-1.2773093987E-001	+1.2736043164E-001	-8.4693709372E-001	+1.1487716835E-001	-8.5028584505E-001	-4.2527582369E-001	-2.8048915556E-002
73600000000.000	-4.2847442620E-001	-1.2584949795E-001	+1.3611342553E-001	-8.5149357032E-001	+1.2253492219E-001	-8.5476372285E-001	-4.3921257576E-001	-2.6639307671E-002
73650000000.000	-4.3241863296E-001	-1.2337210011E-001	+1.4037857358E-001	-8.6279393798E-001	+1.2664072632E-001	-8.6457809794E-001	-4.4471029852E-001	-2.5042534424E-002
73700000000.000	-4.4351195158E-001	-1.1613860617E-001	+1.3294838044E-001	-8.8093368823E-001	+1.1962096869E-001	-8.8406752049E-001	-4.5647877076E-001	-2.0064707648E-002
73750000000.000	-4.4678650922E-001	-1.0589910844E-001	+1.0788974845E-001	-8.8695834997E-001	+9.5281350214E-002	-8.8926731528E-001	-4.6328834918E-001	-2.3621659051E-003
73800000000.000	-4.4634863779E-001	-9.4374999092E-002	+9.5069403947E-002	-8.7225457113E-001	+8.3315608191E-002	-8.7359040843E-001	-4.5643082078E-001	+9.7489973241E-003
73850000000.000	-4.4267109503E-001	-9.3533842740E-002	+9.5265539237E-002	-8.6918402043E-001	+8.0754723569E-002	-8.7174882932E-001	-4.5136608264E-001	+8.8565845235E-003
73900000000.000	-4.4078189917E-001	-8.7791224751E-002	+9.0800456961E-002	-8.7055509197E-001	+7.7449808952E-002	-8.7245304568E-001	-4.5064353772E-001	+1.5973993972E-002
73950000000.000	-4.3695556892E-001	-8.0432490679E-002	+8.0591271203E-002	-8.7129080091E-001	+6.9533020421E-002	-8.7166941592E-001	-4.4432250813E-001	+2.6027199483E-002
74000000000.000	-4.2961859441E-001	-7.9964096826E-002	+6.3739298460E-002	-8.6257983035E-001	+5.6398946601E-002	-8.6350302417E-001	-4.3073140358E-001	+2.8434285101E-002
74050000000.000	-4.3248450467E-001	-9.1540527607E-002	+7.5152500372E-002	-8.2307262109E-001	+7.0108035982E-002	-8.2412410104E-001	-4.2615330473E-001	-4.8076715842E-003
74100000000.000	-4.2130701760E-001	-8.0523301564E-002	+9.7541023522E-002	-8.4669597966E-001	+9.3633806472E-002	-8.4829852066E-001	-4.3177198409E-001	+1.2814587774E-002
74150000000.000	-4.2056560335E-001	-9.9977551543E-002	+9.9299196283E-002	-8.6531433777E-001	+8.6778640642E-002	-8.6737732538E-001	-4.3360290648E-001	+2.1188530262E-003
74200000000.000	-4.3527846612E-001	-1.0738455707E-001	+9.1626822261E-002	-8.7081722633E-001	+7.8129428824E-002	-8.7262639851E-001	-4.4370102926E-001	-6.5180908777E-004
74250000000.000	-4.6234633730E-001	-9.5855496196E-002	+9.3087007646E-002	-8.9705484543E-001	+7.9139296266E-002	-8.9915897893E-001	-4.5946012736E-001	-7.9184036131E-003
74300000000.000	-4.4489923017E-001	-8.7052409989E-002	+5.3431178255E-002	-8.8108154941E-001	+4.1687221797E-002	-8.8157452918E-001	-4.5993931852E-001	+2.3831234989E-002
74350000000.000	-4.4854287282E-001	-8.4829178902E-002	+5.3358503256E-002	-8.7394673408E-001	+4.2395284282E-002	-8.7531371740E-001	-4.5869492077E-001	+2.2105809910E-002
74400000000.000	-4.5015718224E-001	-8.5404688103E-002	+5.1906067575E-002	-8.7634585115E-001	+4.0648649744E-002	-8.7789241328E-001	-4.6076344562E-001	+2.5602443553E-002
74450000000.000	-4.6098513152E-001	-8.0622662481E-002	+4.3387652690E-002	-8.8053075459E-001	+3.2701160400E-002	-8.8137499786E-001	-4.6699179723E-001	+3.4226839346E-002
74500000000.000	-4.6677157430E-001	-6.8984393005E-002	+2.5599971921E-002	-8.7899401711E-001	+1.2404518565E-002	-8.7960221757E-001	-4.6382767329E-001	+4.6245315482E-002
74550000000.000	-4.6623445046E-001	-5.3603543153E-002	+1.5289725824E-002	-8.5835234283E-001	+3.3165938001E-003	-8.5931086227E-001	-4.5662050901E-001	+5.3588621141E-002
74600000000.000	-4.3672198811E-001	-4.3957530833E-002	+3.8835550226E-002	-8.4610868500E-001	+2.8316184177E-002	-8.4695128291E-001	-4.3261931106E-001	+5.5003983135E-002
74650000000.000	-4.4145151304E-001	-5.6477803732E-002	+3.2780841889E-002	-8.5838808085E-001	+2.3238837544E-002	-8.5945349696E-001	-4.3968213647E-001	+4.0339176598E-002
74700000000.000	-4.4398161737E-001	-6.1213632130E-002	+2.8148512906E-002	-8.5945576254E-001	+1.8729649394E-002	-8.6055829992E-001	-4.4604213573E-001	+3.6409166778E-002
74750000000.000	-4.4765081831E-001	-5.9895649852E-002	+2.3236333330E-002	-8.5843338639E-001	+1.6189478690E-002	-8.5975809225E-001	-4.5204629743E-001	+4.0157306643E-002
74800000000.000	-4.4967410515E-001	-5.3246638739E-002	+2.6814934738E-002	-8.5915226921E-001	+1.5908886378E-002	-8.6019673990E-001	-4.5433306329E-001	+4.9895994241E-002
74850000000.000	-4.4445939327E-001	-4.9616227155E-002	+2.3115747862E-002	-8.6427591441E-001	+1.0907144976E-002	-8.6548096533E-001	-4.4679422561E-001	+5.5529587691E-002
74900000000.000	-4.4141755416E-001	-4.7967220269E-002	+1.7296341061E-002	-8.6573811343E-001	+6.9145399200E-003	-8.6701910932E-001	-4.4300372992E-001	+5.6396284505E-002
74950000000.000	-4.3207586648E-001	-5.3406700228E-002	+7.8937766646E-003	-8.6699560411E-001	-2.1268523284E-003	-8.6742947081E-001	-4.3504559137E-001	+5.2110114069E-002
75000000000.000	-4.3572664829E-001	-6.9741674741E-002	+2.8181766502E-003	-8.5588545282E-001	-7.8089471987E-003	-8.5692824314E-001	-4.3721920456E-001	+3.8940602353E-002
75050000000.000	-4.5310174688E-001	-7.4513109752E-002	+1.7862209927E-002	-8.5538208590E-001	+6.2961855718E-003	-8.5676477387E-001	-4.5314233238E-001	+3.4771247053E-002
75100000000.000	-4.6392345582E-001	-5.9893432189E-002	+7.7943426051E-003	-8.6647623512E-001	-5.0693429321E-003	-8.6764691261E-001	-4.6009986566E-001	+4.9542923649E-002
75150000000.000	-4.6572923191E-001	-5.5859211187E-002	+8.0103791000E-003	-8.7172130677E-001	-2.2953153969E-003	-8.7247731974E-001	-4.6076340355E-001	+5.1426684773E-002
75200000000.000	-4.7377722535E-001	-4.6419937227E-002	+1.2286432045E-003	-8.8684954433E-001	-9.4966843183E-003	-8.8799810826E-001	-4.6918265439E-001	+5.3369744346E-002
75250000000.000	-4.7065628522E-001	-3.7940479205E-002	-2.4562201983E-002	-8.9327468968E-001	-3.8750106333E-002	-8.9326401897E-001	-4.7099808826E-001	+7.3589498750E-002
75300000000.000	-4.6946476539E-001	-3.0368505338E-002	-4.2084190872E-002	-8.7552135294E-001	-5.2419608772E-002	-8.7611990951E-001	-4.5903669657E-001	+7.9880310241E-002
75350000000.000	-4.6700739546E-001	-2.3865352662E-002	-4.6043384211E-002	-8.6503149799E-001	-5.4180586137E-002	-8.6503059837E-001	-4.5629585905E-001	+7.8218604448E-002
75400000000.000	-4.6337772912E-001	-1.4102589713E-002	-4.8576970486E-002	-8.5585725705E-001	-5.6794359463E-002	-8.5691859185E-001	-4.5934804405E-001	+8.3507503766E-002
75450000000.000	-4.5089848768E-001	-1.1520908903E-002	-4.7117647952E-002	-8.4830196355E-001	-5.6361858931E-002	-8.4832910360E-001	-4.5410030744E-001	+9.3359414643E-002
75500000000.000	-4.4110335270E-001	-6.1394975155E-003	-3.9996084767E-002	-8.4185973794E-001	-5.0689225585E-002	-8.4175668923E-001	-4.4233380217E-001	+1.0501647707E-001
75550000000.000	-4.1982007436E-001	-1.8255729692E-002	-2.8983215164E-002	-8.4604435890E-001	-3.7150398137E-002	-8.4635992008E-001	-4.1781115118E-001	+9.9979293350E-002
75600000000.000	-4.2258306189E-001	-4.5448314955E-002	-3.4602311876E-002	-8.5764422470E-001	-4.2394000148E-002	-8.5816438909E-001	-4.0677900762E-001	+7.1845357679E-002
75650000000.000	-4.5057792244E-001	-5.8664426727E-002	-2.9133399689E-002	-8.5803515317E-001	-3.8300235554E-002	-8.5820780253E-001	-4.4030388867E-001	+4.7504074918E-002
75700000000.000	-4.6384225531E-001	-4.7999856744E-002	-3.9277122329E-002	-8.6916729873E-001	-5.0310950353E-002	-8.6893744352E-001	-4.5284379516E-001	+6.0156950572E-002
75750000000.000	-4.6927688483E-001	-3.7575964114E-002	-4.5617323367E-002	-8.7198969894E-001	-5.8644406576E-002	-8.7192070230E-001	-4.6140310263E-001	+6.8449253813E-002
75800000000.000	-4.7290654620E-001	-3.2203590455E-002	-5.7335342559E-002	-8.7245190152E-001	-6.9060672234E-002	-8.7243957502E-001	-4.6505090337E-001	+8.0048856758E-002
75850000000.000	-4.7962196603E-001	-2.5746713004E-002	-5.8389391268E-002	-8.7176942694E-001	-7.0201838634E-002	-8.7153658722E-001	-4.6312572441E-001	+8.5154772826E-002
