! Python used to change reference impedance from 50 to 1.
# Hz S RI R 1
490000000000.000	-1.2517360393E-001	+4.7727786253E-002	+6.5204019586E-001	-2.4629910258E-001	+6.8048354835E-001	-1.3897478920E-001	-8.8011021641E-002	+8.8619667758E-002
490333333333.333	-1.3812550675E-001	+5.7694914109E-002	+6.3711361371E-001	-2.6032880083E-001	+6.6678053925E-001	-1.7323982501E-001	-9.0359431113E-002	+9.4821516580E-002
490666666666.667	-2.0211444648E-001	+1.9380295619E-002	+6.2377789844E-001	-2.8571239219E-001	+6.6168033557E-001	-1.9338830904E-001	-1.2066637583E-001	+7.8474802625E-002
491000000000.000	-1.9421543535E-001	-2.0766934514E-002	+5.9376980304E-001	-3.0940633075E-001	+6.6081024965E-001	-2.0231257208E-001	-1.3512767351E-001	+4.5689515503E-002
491333333333.333	-1.5642075826E-001	-4.0563600478E-002	+5.9048730986E-001	-3.3666651443E-001	+6.5458484789E-001	-2.2849006153E-001	-1.3195771890E-001	+3.7674968985E-002
491666666666.667	-1.4418984082E-001	-3.8860851473E-002	+5.7187497314E-001	-3.5858702010E-001	+6.5126557035E-001	-2.5422972048E-001	-1.2910775973E-001	+1.4808151204E-002
492000000000.000	-1.2214436411E-001	-4.8829677749E-002	+5.5530656489E-001	-3.7555419328E-001	+6.3560762016E-001	-2.7357707687E-001	-1.3921881361E-001	+2.3757297488E-002
492333333333.333	-1.0030422063E-001	-2.0421655898E-002	+5.3958193760E-001	-4.0080867332E-001	+6.2456517934E-001	-2.9195173727E-001	-1.1477237978E-001	+2.5156124875E-002
492666666666.667	-1.1545473990E-001	+1.2493857711E-002	+5.3413509940E-001	-4.0705629504E-001	+6.1842163206E-001	-3.0671520979E-001	-1.3067810682E-001	+3.0189012916E-002
493000000000.000	-1.5277143337E-001	+4.1396284423E-003	+5.2581409260E-001	-4.4034203818E-001	+6.2554547672E-001	-3.4013381828E-001	-1.4294834246E-001	+4.1911349677E-002
493333333333.333	-1.7119297587E-001	-1.4760477013E-002	+5.0439200325E-001	-4.6101881346E-001	+5.9824701426E-001	-3.6913324295E-001	-1.6045551496E-001	+4.4351926279E-002
493666666666.667	-2.1292383282E-001	-1.7170466251E-002	+4.8824113351E-001	-4.8104387499E-001	+5.8092931103E-001	-3.8908164912E-001	-1.7596598313E-001	+3.4781289263E-002
494000000000.000	-2.4130502967E-001	-5.8781577623E-002	+4.5544415800E-001	-4.7957370530E-001	+5.5404650642E-001	-4.1046136579E-001	-2.0112255758E-001	+2.7736790852E-002
494333333333.333	-2.3758846653E-001	-1.3455225979E-001	+4.4765142184E-001	-5.0773014950E-001	+5.4464543320E-001	-4.2256066277E-001	-2.0499228811E-001	+1.2280535063E-002
494666666666.667	-1.6900526960E-001	-1.0613828587E-001	+4.4040803265E-001	-5.2079927958E-001	+5.2983015669E-001	-4.4208229777E-001	-2.0557369902E-001	+3.9854791625E-003
495000000000.000	-1.8758165474E-001	-9.0900942274E-002	+4.1141571500E-001	-5.3559376360E-001	+5.1047860040E-001	-4.6076171066E-001	-2.0385420696E-001	-5.4258438752E-003
495333333333.333	-1.6951440144E-001	-1.0193025614E-001	+3.8604038307E-001	-5.4747943411E-001	+4.8434058671E-001	-4.7112720029E-001	-2.0613995627E-001	-1.3366125562E-002
495666666666.667	-1.5464304985E-001	-5.1571040100E-002	+3.7595132229E-001	-5.5469479565E-001	+4.7055246445E-001	-4.8261541654E-001	-2.0866665914E-001	+6.3447590957E-003
496000000000.000	-2.0066810160E-001	-2.0089246702E-002	+3.6766155413E-001	-5.6513425811E-001	+4.5803297822E-001	-4.9741461566E-001	-2.2147938046E-001	+1.5834493598E-002
496333333333.333	-2.4952578937E-001	-3.9758527478E-002	+3.4286447775E-001	-5.8324861412E-001	+4.3744674203E-001	-5.2267588962E-001	-2.3656079340E-001	+2.1311293187E-002
496666666666.667	-2.6031240812E-001	-5.5873696639E-002	+3.0890472930E-001	-6.0224422297E-001	+4.1647688336E-001	-5.3913489459E-001	-2.5543594477E-001	+4.3201884506E-002
497000000000.000	-2.9016687951E-001	-6.6494241420E-002	+2.9069517209E-001	-6.0091572164E-001	+3.8371595813E-001	-5.5037570032E-001	-2.6663179424E-001	+3.9549894306E-002
497333333333.333	-2.9967700984E-001	-1.1078840841E-001	+2.5996615102E-001	-5.9931502431E-001	+3.6060602508E-001	-5.5262778935E-001	-2.7338773694E-001	+2.7119750390E-002
497666666666.667	-2.6465266977E-001	-1.2806356639E-001	+2.4366714557E-001	-6.0832770847E-001	+3.4454685823E-001	-5.6186128489E-001	-2.7588183532E-001	+3.4273476742E-002
498000000000.000	-2.4833229378E-001	-1.0586848300E-001	+2.2461543526E-001	-6.1952436259E-001	+3.2750328343E-001	-5.7634189107E-001	-2.8547473575E-001	+3.2608653176E-002
498333333333.333	-2.5686963346E-001	-1.0044205698E-001	+1.9988706822E-001	-6.2243375781E-001	+3.0496713627E-001	-5.8477503485E-001	-2.8092473389E-001	+2.3271377102E-002
498666666666.667	-2.3932067407E-001	-8.7431284248E-002	+1.7856853683E-001	-6.2593102002E-001	+2.8581514903E-001	-5.9129722474E-001	-2.7333998072E-001	+3.0011203946E-002
499000000000.000	-2.5033737645E-001	-3.1221300927E-002	+1.6470432034E-001	-6.3453573643E-001	+2.6899767429E-001	-6.0005785549E-001	-2.8101125301E-001	+4.3643405792E-002
499333333333.333	-2.9939947700E-001	-1.7816587161E-002	+1.4790672167E-001	-6.4009435425E-001	+2.5408444412E-001	-6.0942402671E-001	-2.8786433838E-001	+5.2988762118E-002
499666666666.667	-3.3658992405E-001	-3.9197060004E-002	+1.1930845766E-001	-6.4881684426E-001	+2.2539441462E-001	-6.2319065313E-001	-2.9564881052E-001	+7.4075356719E-002
500000000000.000	-3.3745392940E-001	-4.5041123730E-002	+9.0483796626E-002	-6.4913855508E-001	+1.9621074361E-001	-6.2761357990E-001	-3.0812580893E-001	+8.4232249040E-002
500333333333.333	-3.5774500394E-001	-4.7148912973E-002	+6.4582190195E-002	-6.4503982777E-001	+1.7438056377E-001	-6.2937580317E-001	-3.2583335687E-001	+9.5661906839E-002
500666666666.667	-3.6147247498E-001	-7.1190688423E-002	+4.8117615544E-002	-6.4089387926E-001	+1.5122285626E-001	-6.2660670831E-001	-3.3095085398E-001	+9.0075008484E-002
501000000000.000	-3.3096441346E-001	-7.7249087176E-002	+3.0232884156E-002	-6.4259909284E-001	+1.3543106146E-001	-6.3151595882E-001	-3.3230649274E-001	+9.2117846411E-002
501333333333.333	-3.2072187705E-001	-5.9703348359E-002	+3.7990471666E-003	-6.4480792836E-001	+1.0875060325E-001	-6.3797892370E-001	-3.3426346922E-001	+9.4979730245E-002
501666666666.667	-3.1989624861E-001	-4.7696400846E-002	-1.0220365450E-002	-6.3854826419E-001	+9.1922263587E-002	-6.3224201696E-001	-3.2282676021E-001	+9.5393953039E-002
502000000000.000	-3.1849765184E-001	-2.9062514764E-002	-2.3849942132E-002	-6.3842592240E-001	+7.7596613047E-002	-6.3442788354E-001	-3.1703932810E-001	+9.7393621962E-002
502333333333.333	-3.3237030119E-001	+2.9440137309E-003	-4.0743193028E-002	-6.4787118050E-001	+6.0898130060E-002	-6.4575465341E-001	-3.1912507320E-001	+1.1422502525E-001
502666666666.667	-3.6288913147E-001	+4.7869140782E-003	-6.5313580962E-002	-6.5173309219E-001	+4.0471668447E-002	-6.5519148978E-001	-3.2768203356E-001	+1.2790879465E-001
503000000000.000	-3.7698019779E-001	+5.1391214382E-003	-1.0322735252E-001	-6.4675546861E-001	-8.4631063368E-004	-6.5274239824E-001	-3.1743919348E-001	+1.4367449795E-001
503333333333.333	-3.7472266152E-001	+9.7548415434E-003	-1.2628465978E-001	-6.2726907037E-001	-2.5329413617E-002	-6.4007297047E-001	-3.2026854641E-001	+1.5224812202E-001
503666666666.667	-3.7611841547E-001	+1.0011145382E-002	-1.3846388162E-001	-6.1241632136E-001	-4.2596683990E-002	-6.2509698912E-001	-3.1962694868E-001	+1.6356833841E-001
504000000000.000	-3.7039657327E-001	+2.5855467338E-003	-1.4400254785E-001	-6.0928247705E-001	-5.2593361236E-002	-6.2252375760E-001	-3.2678955811E-001	+1.6046195076E-001
504333333333.333	-3.5997051625E-001	+9.8283310982E-003	-1.6491591599E-001	-6.1386634818E-001	-6.7717959133E-002	-6.3199875779E-001	-3.3505269384E-001	+1.6678861749E-001
504666666666.667	-3.5147974614E-001	+2.9592723849E-002	-1.9166676255E-001	-6.0999629041E-001	-9.5753402448E-002	-6.3225726334E-001	-3.3207395305E-001	+1.7427123163E-001
505000000000.000	-3.4714909675E-001	+3.9150948203E-002	-2.0692390918E-001	-5.9516845518E-001	-1.1112023906E-001	-6.2058306839E-001	-3.2047193538E-001	+1.7624461248E-001
505333333333.333	-3.5514511202E-001	+4.5455952764E-002	-2.1841231231E-001	-5.9384956302E-001	-1.2357918646E-001	-6.2085397912E-001	-3.1067050882E-001	+1.8308060764E-001
505666666666.667	-3.6078995812E-001	+4.9877909963E-002	-2.3982341768E-001	-5.9662297328E-001	-1.4491368400E-001	-6.2718014055E-001	-3.0075696915E-001	+1.9206818063E-001
506000000000.000	-3.6734584691E-001	+5.2996071428E-002	-2.6749074829E-001	-5.9249852977E-001	-1.7538955019E-001	-6.2892890859E-001	-3.0055082930E-001	+1.9826407418E-001
506333333333.333	-3.7267254549E-001	+7.1769047797E-002	-3.0426910781E-001	-5.7330033654E-001	-2.1207649537E-001	-6.1714693891E-001	-2.9352810197E-001	+2.1704775543E-001
506666666666.667	-3.6890523337E-001	+8.5729848353E-002	-3.1535537621E-001	-5.4420196064E-001	-2.2710886166E-001	-5.8910773946E-001	-2.8241936516E-001	+2.2666161833E-001
507000000000.000	-3.5662895659E-001	+9.1145088161E-002	-3.1581189750E-001	-5.2889532763E-001	-2.3047524958E-001	-5.7515705424E-001	-2.7522329483E-001	+2.2287568283E-001
507333333333.333	-3.4234619382E-001	+8.9185014839E-002	-3.2252207529E-001	-5.3107287585E-001	-2.3539681710E-001	-5.7838938157E-001	-2.8522056207E-001	+2.1257200972E-001
507666666666.667	-3.4202035214E-001	+9.4583653765E-002	-3.4725414383E-001	-5.3218487788E-001	-2.5825373284E-001	-5.8533742117E-001	-2.9379301335E-001	+2.2372809954E-001
508000000000.000	-3.4194848877E-001	+1.0421245392E-001	-3.7440485287E-001	-5.1604155405E-001	-2.8976522759E-001	-5.7484990404E-001	-2.8061147978E-001	+2.3701207158E-001
508333333333.333	-3.3383117192E-001	+1.0254553318E-001	-3.8394117858E-001	-5.0189291074E-001	-3.0262130190E-001	-5.6063075647E-001	-2.6763766162E-001	+2.3735559891E-001
508666666666.667	-3.3493914556E-001	+1.0144954589E-001	-3.9997901011E-001	-4.9863592605E-001	-3.1586903733E-001	-5.6093061970E-001	-2.5908743808E-001	+2.4179946558E-001
509000000000.000	-3.3313058016E-001	+1.0135227574E-001	-4.2333745545E-001	-4.9028271361E-001	-3.4536455927E-001	-5.5196623086E-001	-2.4501091457E-001	+2.5087966073E-001
509333333333.333	-3.2809199325E-001	+1.0846909576E-001	-4.4778174070E-001	-4.7697857297E-001	-3.6963148854E-001	-5.3930410979E-001	-2.3787454529E-001	+2.5265023440E-001
509666666666.667	-3.2507042322E-001	+1.3149189271E-001	-4.7220943286E-001	-4.5165860268E-001	-4.0382663928E-001	-5.1842737085E-001	-2.3058262093E-001	+2.6221825514E-001
510000000000.000	-3.1869000750E-001	+1.5170970650E-001	-4.7061571304E-001	-4.1773228599E-001	-4.0493705796E-001	-4.8319149523E-001	-2.1110105175E-001	+2.5400729647E-001
510333333333.333	-3.0084563949E-001	+1.5740817929E-001	-4.6660580588E-001	-4.0998321056E-001	-4.0205855390E-001	-4.7198325368E-001	-2.0792157190E-001	+2.3851420990E-001
510666666666.667	-2.8040619720E-001	+1.5279048749E-001	-4.7594089644E-001	-4.1186733297E-001	-4.1327947068E-001	-4.7503663833E-001	-2.1996590763E-001	+2.3318359425E-001
511000000000.000	-2.8296351978E-001	+1.4692224211E-001	-4.9890963172E-001	-4.0730100587E-001	-4.3528657590E-001	-4.7530265817E-001	-2.2008584495E-001	+2.4678297030E-001
511333333333.333	-2.9390613261E-001	+1.4265173201E-001	-5.2957714302E-001	-3.7964415371E-001	-4.5639706920E-001	-4.6620445845E-001	-1.9596346672E-001	+2.6234820469E-001
511666666666.667	-2.8223941019E-001	+1.3121767431E-001	-5.3330273767E-001	-3.6831745250E-001	-4.8037631907E-001	-4.3393809354E-001	-1.7366643615E-001	+2.6036495599E-001
512000000000.000	-2.6756945237E-001	+1.2936094228E-001	-5.4357544068E-001	-3.5613661184E-001	-5.0021177189E-001	-4.1793366315E-001	-1.6889611353E-001	+2.5840764131E-001
512333333333.333	-2.6497009418E-001	+1.3354576790E-001	-5.6286575810E-001	-3.3716603419E-001	-5.1750366082E-001	-4.0495274408E-001	-1.6371863464E-001	+2.6016074774E-001
512666666666.667	-2.6148036459E-001	+1.4019950377E-001	-5.8141805149E-001	-3.1430543975E-001	-5.3885710979E-001	-3.8464818269E-001	-1.6245441224E-001	+2.6073072229E-001
513000000000.000	-2.4802145453E-001	+1.5292597444E-001	-5.9464162171E-001	-2.7441998006E-001	-5.5603002922E-001	-3.5130918753E-001	-1.4757431104E-001	+2.5641289159E-001
513333333333.333	-2.3610299801E-001	+1.7649781827E-001	-5.8397101638E-001	-2.5152931975E-001	-5.4719523069E-001	-3.2497420478E-001	-1.3678612342E-001	+2.2191199580E-001
513666666666.667	-2.2539185255E-001	+1.8113546624E-001	-5.8152084203E-001	-2.5300824315E-001	-5.4690274433E-001	-3.2247447804E-001	-1.4634804228E-001	+1.9892608625E-001
514000000000.000	-2.1263805966E-001	+1.6295258763E-001	-6.0030724538E-001	-2.4496926337E-001	-5.6417037922E-001	-3.1878745860E-001	-1.5455247783E-001	+2.0047800333E-001
514333333333.333	-2.0722698807E-001	+1.4219035205E-001	-6.2098352467E-001	-2.2830473713E-001	-5.8808720897E-001	-3.0239403334E-001	-1.4000127811E-001	+2.1819107578E-001
514666666666.667	-2.1882048930E-001	+1.3707904830E-001	-6.3911645495E-001	-1.9559995545E-001	-6.0918953857E-001	-2.7248181585E-001	-1.0101583008E-001	+2.2208534246E-001
515000000000.000	-2.0755776069E-001	+1.2625573311E-001	-6.3831438963E-001	-1.6800729648E-001	-6.1586192415E-001	-2.4384149872E-001	-9.5634161262E-002	+2.2161684357E-001
515333333333.333	-1.8622883527E-001	+1.1386491697E-001	-6.4243651101E-001	-1.4568488075E-001	-6.2227357164E-001	-2.2670621322E-001	-1.0172672449E-001	+2.2623414156E-001
515666666666.667	-1.8329298104E-001	+1.1689228530E-001	-6.4878561539E-001	-1.2564514284E-001	-6.2716113123E-001	-2.0306890183E-001	-8.8737855619E-002	+2.2333389889E-001
516000000000.000	-1.8789953583E-001	+1.2268542870E-001	-6.5775110978E-001	-1.0211650613E-001	-6.4317363196E-001	-1.8247097042E-001	-1.0205635189E-001	+2.1627556314E-001
516333333333.333	-1.7706043059E-001	+1.2540380839E-001	-6.5673499793E-001	-6.5853374762E-002	-6.4265467429E-001	-1.4553426532E-001	-8.4462011196E-002	+1.9988094826E-001
516666666666.667	-1.6298714446E-001	+1.4328338325E-001	-6.4361835659E-001	-5.0088109093E-002	-6.3227069803E-001	-1.3109587134E-001	-9.4468440781E-002	+1.6330292669E-001
517000000000.000	-1.6214627788E-001	+1.4772023451E-001	-6.4940875819E-001	-4.5238210515E-002	-6.3915125864E-001	-1.1828972718E-001	-1.1062432027E-001	+1.4138656649E-001
517333333333.333	-1.5137852411E-001	+1.1966073580E-001	-6.5997864076E-001	-2.6145262384E-002	-6.5156294607E-001	-1.0317158128E-001	-1.2084331230E-001	+1.4643809805E-001
517666666666.667	-1.4396994340E-001	+8.4677806668E-002	-6.7098003386E-001	-3.6608032174E-003	-6.6689291767E-001	-7.8896177583E-002	-9.9537418473E-002	+1.5757243783E-001
518000000000.000	-1.5373309384E-001	+7.8664853977E-002	-6.7536633100E-001	+2.9609492551E-002	-6.7415323330E-001	-4.2850455267E-002	-7.4318876151E-002	+1.4001769529E-001
518333333333.333	-1.5034399976E-001	+7.2112033689E-002	-6.6749548062E-001	+5.9603110460E-002	-6.6929111536E-001	-1.2173968908E-002	-7.2610045180E-002	+1.3999610338E-001
518666666666.667	-1.3602251324E-001	+5.5878125796E-002	-6.5868500226E-001	+8.1506909252E-002	-6.6372304953E-001	+9.6841225518E-003	-7.3929894937E-002	+1.4029347472E-001
519000000000.000	-1.3607254934E-001	+6.0821707199E-002	-6.5593793997E-001	+1.0394377324E-001	-6.6339722697E-001	+3.4693252083E-002	-7.7971296101E-002	+1.3000081244E-001
519333333333.333	-1.3887165929E-001	+6.8897535667E-002	-6.5757466017E-001	+1.2536953398E-001	-6.6772546442E-001	+5.4960850982E-002	-9.1081968173E-002	+1.1866736132E-001
519666666666.667	-1.3560860862E-001	+6.2843265909E-002	-6.4762473405E-001	+1.5402511807E-001	-6.5939619454E-001	+8.8137124689E-002	-9.6075339607E-002	+1.0794243145E-001
520000000000.000	-1.3565911033E-001	+6.1551999472E-002	-6.3832754793E-001	+1.7405443930E-001	-6.5196931047E-001	+1.0982263583E-001	-1.0395584873E-001	+8.4757065207E-002
520333333333.333	-1.4136585077E-001	+6.2350934403E-002	-6.3068119936E-001	+1.9127920136E-001	-6.4634353362E-001	+1.2870843186E-001	-1.0703332597E-001	+6.5517414877E-002
520666666666.667	-1.3405742745E-001	+3.7604423479E-002	-6.2631657588E-001	+2.1009068228E-001	-6.4394782034E-001	+1.4728648539E-001	-1.0605431232E-001	+7.2879404688E-002
521000000000.000	-1.3184341547E-001	+7.5254866371E-003	-6.2543164930E-001	+2.3206417672E-001	-6.4488365285E-001	+1.6887238591E-001	-9.6525574618E-002	+6.9833354629E-002
521333333333.333	-1.3302842001E-001	+3.8375119215E-003	-6.1852608123E-001	+2.6279929868E-001	-6.4082224542E-001	+2.0133883922E-001	-1.0241515427E-001	+6.6192761674E-002
521666666666.667	-1.3674181941E-001	-3.7833125480E-003	-6.0460417007E-001	+2.8839048370E-001	-6.3061737327E-001	+2.2693031822E-001	-1.0324804041E-001	+7.1559709253E-002
522000000000.000	-1.3656021169E-001	-1.6190464806E-002	-5.8595171471E-001	+3.0983555614E-001	-6.1410490946E-001	+2.5193449914E-001	-1.0588023467E-001	+6.8968129702E-002
522333333333.333	-1.4000854758E-001	-1.1989192904E-002	-5.7289715033E-001	+3.2616039169E-001	-6.0324781880E-001	+2.6674582094E-001	-1.2472711682E-001	+5.3832409042E-002
522666666666.667	-1.4570070296E-001	-2.6458072745E-003	-5.6648976219E-001	+3.4397693556E-001	-5.9933547647E-001	+2.8719344691E-001	-1.3866751767E-001	+4.5306357515E-002
523000000000.000	-1.5416575042E-001	-8.4148066366E-003	-5.5058130924E-001	+3.6612759162E-001	-5.8495825095E-001	+3.1042306242E-001	-1.4085367535E-001	+3.6150024997E-002
523333333333.333	-1.6380800782E-001	-1.7398683459E-002	-5.3626147891E-001	+3.8635530727E-001	-5.7395369085E-001	+3.3084480246E-001	-1.5067367218E-001	+2.2261012913E-002
523666666666.667	-1.6846018780E-001	-1.9180542083E-002	-5.1876898764E-001	+4.0563333398E-001	-5.5909642968E-001	+3.5100021635E-001	-1.5618925749E-001	+1.6713037406E-002
524000000000.000	-1.6655883444E-001	-3.5632356504E-002	-5.0235203411E-001	+4.1860973720E-001	-5.4248884329E-001	+3.6447578998E-001	-1.5869003087E-001	+1.8752626139E-002
524333333333.333	-1.7200711111E-001	-5.8404941402E-002	-4.9238723116E-001	+4.3666353967E-001	-5.3264815210E-001	+3.8472608952E-001	-1.6045365615E-001	+2.1561613844E-002
524666666666.667	-1.7143597082E-001	-5.9233737639E-002	-4.7266350637E-001	+4.5763779929E-001	-5.1791537809E-001	+4.0753953607E-001	-1.7315723460E-001	+3.0557366477E-002
525000000000.000	-1.7125561628E-001	-6.2801243514E-002	-4.5548138963E-001	+4.7469130995E-001	-5.0194917722E-001	+4.2725560761E-001	-1.7966312004E-001	+3.5941526106E-002
525333333333.333	-1.8313985308E-001	-6.6903914942E-002	-4.3474717285E-001	+4.8849153449E-001	-4.8098568223E-001	+4.4560249575E-001	-1.9152541812E-001	+3.0138395091E-002
525666666666.667	-1.9571272371E-001	-5.6912074344E-002	-4.1669329029E-001	+4.9969334406E-001	-4.6639952421E-001	+4.5612160577E-001	-2.0834879226E-001	+2.3578929638E-002
526000000000.000	-2.0367741281E-001	-4.9563275878E-002	-4.0056266381E-001	+5.1708560370E-001	-4.4897861682E-001	+4.7451522209E-001	-2.1957140663E-001	+2.0586462549E-002
526333333333.333	-2.1442205013E-001	-5.4446614899E-002	-3.7327586704E-001	+5.2743972117E-001	-4.2611643056E-001	+4.8680363913E-001	-2.1883899791E-001	+6.0199178092E-003
526666666666.667	-2.2915284359E-001	-6.4596646397E-002	-3.5684089990E-001	+5.3644662472E-001	-4.1085536423E-001	+4.9781652400E-001	-2.1979088372E-001	+3.2989652027E-003
527000000000.000	-2.3516192060E-001	-6.6248409955E-002	-3.3494587837E-001	+5.4909702645E-001	-3.9259216143E-001	+5.1219385214E-001	-2.1366694513E-001	+1.4582294464E-002
527333333333.333	-2.3135517615E-001	-7.3967871044E-002	-3.1388239557E-001	+5.5709879006E-001	-3.7591471210E-001	+5.1844882687E-001	-2.0780895296E-001	+1.6970109031E-002
527666666666.667	-2.3840042850E-001	-8.3870182887E-002	-3.0002619786E-001	+5.6915797578E-001	-3.6242521988E-001	+5.3388262257E-001	-2.2021410563E-001	+4.0431062928E-002
528000000000.000	-2.4440583963E-001	-7.7660449016E-002	-2.7117090273E-001	+5.8056162817E-001	-3.3743260967E-001	+5.4665880895E-001	-2.3178758618E-001	+6.8992499389E-002
528333333333.333	-2.4344889897E-001	-7.5421039589E-002	-2.5366342787E-001	+5.8581319422E-001	-3.1808466167E-001	+5.5468614116E-001	-2.4086293619E-001	+8.1127041039E-002
528666666666.667	-2.5420714366E-001	-7.0856349270E-002	-2.3352669316E-001	+5.9481460915E-001	-2.9851199441E-001	+5.6131455629E-001	-2.5208087468E-001	+8.9229765332E-002
