! Python used to change reference impedance from 50 to 1.
# Hz S RI R 1
490000000000.000	-1.3040432154E-001	+1.9227880495E-002	+6.5963561373E-001	-2.0607460462E-001	+6.8710753946E-001	-1.1301295050E-001	-1.0432613020E-001	+6.2299083512E-002
490333333333.333	-1.3409595463E-001	+8.3404190529E-003	+6.5176157367E-001	-2.2431381705E-001	+6.7674171288E-001	-1.4414223913E-001	-1.0004215316E-001	+6.3458816217E-002
490666666666.667	-1.6047341103E-001	-1.0576871418E-002	+6.3786560367E-001	-2.5122567934E-001	+6.7166960221E-001	-1.6375073959E-001	-1.2282903487E-001	+5.7856826567E-002
491000000000.000	-1.6329873556E-001	-1.5992608295E-002	+6.1020135226E-001	-2.8063919957E-001	+6.6935348395E-001	-1.7496761719E-001	-1.4122603427E-001	+2.9239860553E-002
491333333333.333	-1.5677177631E-001	-4.8585942979E-002	+6.0579913024E-001	-3.0648158635E-001	+6.6484952874E-001	-2.0348623026E-001	-1.3793883194E-001	+1.4734817704E-002
491666666666.667	-1.4050394091E-001	-4.9858092269E-002	+5.8937921507E-001	-3.3170630903E-001	+6.6339512555E-001	-2.2634323448E-001	-1.2941360162E-001	+3.5244242741E-003
492000000000.000	-1.3430696850E-001	-3.6393500003E-002	+5.7094954430E-001	-3.4788381083E-001	+6.4774319014E-001	-2.3949838298E-001	-1.5047817741E-001	+1.3681152673E-002
492333333333.333	-1.4656260687E-001	-3.5990793466E-002	+5.5172804673E-001	-3.7188331156E-001	+6.4140271886E-001	-2.6130450231E-001	-1.3789666221E-001	+4.0307709725E-003
492666666666.667	-1.4240012501E-001	-4.3520042477E-002	+5.4488508357E-001	-3.9514066363E-001	+6.3836033539E-001	-2.8137170995E-001	-1.4021582137E-001	+9.1853214658E-003
493000000000.000	-1.4357501295E-001	-3.1647503540E-002	+5.4627974442E-001	-4.1592547760E-001	+6.3491561528E-001	-3.1319206223E-001	-1.6559284578E-001	+2.0848322220E-002
493333333333.333	-1.7746738532E-001	-4.7438958178E-002	+5.2151774538E-001	-4.3735475903E-001	+6.1426723711E-001	-3.4527944043E-001	-1.8226826984E-001	+1.5145364719E-002
493666666666.667	-1.8759165434E-001	-6.3480823001E-002	+5.0430956216E-001	-4.6011269006E-001	+5.9353051891E-001	-3.6079393454E-001	-1.8514626298E-001	+4.9674119022E-003
494000000000.000	-1.8443026571E-001	-6.8126723695E-002	+4.7344772210E-001	-4.6677325745E-001	+5.7440280055E-001	-3.9034413201E-001	-2.0224475100E-001	+1.2337637336E-002
494333333333.333	-2.2693042916E-001	-1.1175643732E-001	+4.6510093118E-001	-4.8708451000E-001	+5.6702737733E-001	-4.0141098851E-001	-2.1381862564E-001	-9.2956933562E-003
494666666666.667	-1.8724796257E-001	-1.0205116543E-001	+4.5683318093E-001	-5.0813189871E-001	+5.4910694143E-001	-4.1857423250E-001	-2.0969959592E-001	-1.9550972801E-002
495000000000.000	-1.9320386867E-001	-9.8087360954E-002	+4.2978976356E-001	-5.2172222631E-001	+5.2665990321E-001	-4.3881453870E-001	-2.0808486756E-001	-1.6746225838E-002
495333333333.333	-1.9045969803E-001	-9.8946631734E-002	+4.0714105442E-001	-5.3165893095E-001	+5.0234077346E-001	-4.4964168403E-001	-2.2203928947E-001	-2.6878523092E-002
495666666666.667	-1.9710374857E-001	-7.7772240206E-002	+3.9824465653E-001	-5.3940225197E-001	+4.8812970568E-001	-4.6193561766E-001	-2.2269525678E-001	-1.8832418033E-002
496000000000.000	-2.1481744578E-001	-7.6915275803E-002	+3.9033648212E-001	-5.4942845018E-001	+4.7715280461E-001	-4.7643727246E-001	-2.3057845700E-001	-5.8766076077E-003
496333333333.333	-2.3761852765E-001	-7.6990368347E-002	+3.6872659154E-001	-5.7052778719E-001	+4.5845070377E-001	-5.0247270235E-001	-2.5539912400E-001	+6.4107247353E-004
496666666666.667	-2.5290378474E-001	-8.7808959797E-002	+3.3687752010E-001	-5.8861299815E-001	+4.3924624618E-001	-5.2024534013E-001	-2.6992812785E-001	+1.0364421381E-002
497000000000.000	-2.6407473462E-001	-1.0067512952E-001	+3.1542735843E-001	-5.8878234431E-001	+4.0742989441E-001	-5.3362140312E-001	-2.7032120598E-001	+1.2937903691E-002
497333333333.333	-2.6347952373E-001	-1.1246263086E-001	+2.8477880696E-001	-5.9061161066E-001	+3.8509142533E-001	-5.3620118577E-001	-2.8052324467E-001	+9.7413624018E-003
497666666666.667	-2.6278127652E-001	-1.1531379608E-001	+2.6589581675E-001	-5.9985299617E-001	+3.6724126163E-001	-5.4808679798E-001	-2.8600382314E-001	+1.1150072403E-002
498000000000.000	-2.6189532952E-001	-1.1395329714E-001	+2.4643363535E-001	-6.1181395748E-001	+3.5138330396E-001	-5.6321186991E-001	-2.8886114842E-001	+1.2172480959E-002
498333333333.333	-2.6442591528E-001	-1.0870248977E-001	+2.2081529664E-001	-6.1556744046E-001	+3.2776046937E-001	-5.7139299062E-001	-2.8896563429E-001	+9.8920405365E-003
498666666666.667	-2.6720546881E-001	-9.4410305436E-002	+1.9871278483E-001	-6.1836275858E-001	+3.0946678529E-001	-5.7849142044E-001	-2.8842623701E-001	+1.1295633935E-002
499000000000.000	-2.8422633560E-001	-7.1505756023E-002	+1.8688374441E-001	-6.2540571260E-001	+2.9377451570E-001	-5.8592322078E-001	-2.9396135362E-001	+2.1517208304E-002
499333333333.333	-3.0037927354E-001	-6.6366034659E-002	+1.6808175342E-001	-6.3193871518E-001	+2.7934877374E-001	-5.9451769110E-001	-3.0068446020E-001	+3.2075153574E-002
499666666666.667	-3.2167323083E-001	-6.6820202965E-002	+1.4180984970E-001	-6.4263742465E-001	+2.5316177347E-001	-6.1085351660E-001	-3.1271819629E-001	+4.8739478113E-002
500000000000.000	-3.3012910329E-001	-6.7320773824E-002	+1.1404871984E-001	-6.4568784071E-001	+2.2725810131E-001	-6.1670117550E-001	-3.2124149348E-001	+5.5812778226E-002
500333333333.333	-3.3790942751E-001	-7.1227333318E-002	+8.8367354211E-002	-6.4278216379E-001	+2.0489910134E-001	-6.2020030823E-001	-3.3371854261E-001	+6.8809877948E-002
500666666666.667	-3.4031772975E-001	-7.5320964798E-002	+7.2154500031E-002	-6.3991067258E-001	+1.8288146981E-001	-6.1834307521E-001	-3.3981759208E-001	+6.5229223140E-002
501000000000.000	-3.3142722471E-001	-7.4139825935E-002	+5.2601382913E-002	-6.4259504933E-001	+1.6493500709E-001	-6.2670846142E-001	-3.4035397450E-001	+6.7288037319E-002
501333333333.333	-3.3011806199E-001	-6.9015202469E-002	+2.7204340060E-002	-6.4572415773E-001	+1.3734759548E-001	-6.3375359934E-001	-3.4171092054E-001	+7.5731939838E-002
501666666666.667	-3.2962930785E-001	-6.1612001747E-002	+1.2386838281E-002	-6.3884578641E-001	+1.1918094693E-001	-6.2770901363E-001	-3.3432635194E-001	+7.9030465043E-002
502000000000.000	-3.3752155009E-001	-4.7232081830E-002	-1.3089261206E-003	-6.3825279883E-001	+1.0625553240E-001	-6.3009917721E-001	-3.3111889446E-001	+7.8126523017E-002
502333333333.333	-3.4969613440E-001	-3.2674643174E-002	-1.8300240736E-002	-6.4768856657E-001	+9.1053373827E-002	-6.4123222984E-001	-3.3292877402E-001	+9.2244989258E-002
502666666666.667	-3.6124614022E-001	-3.1441385775E-002	-4.1698174986E-002	-6.5191347990E-001	+6.9758477200E-002	-6.5128365298E-001	-3.4255466720E-001	+1.0376980840E-001
503000000000.000	-3.7021920558E-001	-1.7369439118E-002	-7.9306676070E-002	-6.4981866662E-001	+3.0657845778E-002	-6.5182653274E-001	-3.3407621905E-001	+1.1751908044E-001
503333333333.333	-3.7037490256E-001	-8.1642551218E-003	-1.0416602524E-001	-6.3197838781E-001	+6.0697740258E-003	-6.4092668022E-001	-3.3411308015E-001	+1.2527203178E-001
503666666666.667	-3.6793235721E-001	-6.7872452860E-003	-1.1662290412E-001	-6.1839069697E-001	-1.2377427327E-002	-6.2869686321E-001	-3.3237367803E-001	+1.3691220263E-001
504000000000.000	-3.6286702585E-001	-4.2806940790E-003	-1.2374298008E-001	-6.1535649677E-001	-2.3125383961E-002	-6.2599080517E-001	-3.3740187928E-001	+1.3506794186E-001
504333333333.333	-3.6318055778E-001	+3.6419310162E-003	-1.4464619939E-001	-6.2062439125E-001	-3.8437433178E-002	-6.3666450866E-001	-3.4602172209E-001	+1.4362569853E-001
504666666666.667	-3.6032832736E-001	+1.4228883003E-002	-1.7297039421E-001	-6.1740530358E-001	-6.7593149854E-002	-6.3777048869E-001	-3.4432387409E-001	+1.5381953880E-001
505000000000.000	-3.5296717716E-001	+1.7458752099E-002	-1.8864669557E-001	-6.0237719432E-001	-8.3745653795E-002	-6.2644688747E-001	-3.3363374749E-001	+1.5679648523E-001
505333333333.333	-3.5864591741E-001	+2.2113667182E-002	-1.9881664230E-001	-6.0081785248E-001	-9.3836699805E-002	-6.2698973589E-001	-3.2564592224E-001	+1.6314866515E-001
505666666666.667	-3.6366030306E-001	+2.7362650674E-002	-2.2045019060E-001	-6.0467040339E-001	-1.1361582901E-001	-6.3421283095E-001	-3.1713924145E-001	+1.7086680789E-001
506000000000.000	-3.6881122313E-001	+3.1026368838E-002	-2.4756804214E-001	-6.0235833331E-001	-1.4292489803E-001	-6.3807331213E-001	-3.1756287618E-001	+1.7557228671E-001
506333333333.333	-3.7186822533E-001	+5.1390118308E-002	-2.8458832636E-001	-5.8580989496E-001	-1.8108596379E-001	-6.2842815864E-001	-3.1195849129E-001	+1.9355955306E-001
506666666666.667	-3.6766615733E-001	+6.8126187220E-002	-2.9584976831E-001	-5.5759151887E-001	-1.9933390951E-001	-6.0217729091E-001	-3.0134110683E-001	+2.0282922735E-001
507000000000.000	-3.5633565082E-001	+7.7150779535E-002	-2.9843419357E-001	-5.4268468572E-001	-2.0423856327E-001	-5.8819311030E-001	-2.9278192880E-001	+1.9993996169E-001
507333333333.333	-3.4448661023E-001	+7.4834476666E-002	-3.0458459107E-001	-5.4432830522E-001	-2.0912419376E-001	-5.9129115783E-001	-2.9984427014E-001	+1.9157054960E-001
507666666666.667	-3.4265305879E-001	+7.8774967831E-002	-3.2886130846E-001	-5.4799393259E-001	-2.3071747718E-001	-5.9986092771E-001	-3.0815170994E-001	+2.0297799834E-001
508000000000.000	-3.4200765563E-001	+8.6568410189E-002	-3.5668189947E-001	-5.3320183010E-001	-2.6464909972E-001	-5.8978153542E-001	-2.9663801573E-001	+2.1736999934E-001
508333333333.333	-3.3282846684E-001	+8.2808950526E-002	-3.6723620124E-001	-5.1821379140E-001	-2.7648051600E-001	-5.7582921885E-001	-2.8338150572E-001	+2.1870011798E-001
508666666666.667	-3.3303425127E-001	+8.3420635494E-002	-3.8186256314E-001	-5.1691828798E-001	-2.8976990268E-001	-5.7747071572E-001	-2.7535188384E-001	+2.2350125047E-001
509000000000.000	-3.3224382451E-001	+8.8232100040E-002	-4.0569613856E-001	-5.1022654995E-001	-3.1955617992E-001	-5.7022323621E-001	-2.6303627264E-001	+2.3136476929E-001
509333333333.333	-3.3188730989E-001	+9.3518590678E-002	-4.3051385570E-001	-4.9832785749E-001	-3.4554629303E-001	-5.5951819103E-001	-2.5571190464E-001	+2.3225238751E-001
509666666666.667	-3.3021078268E-001	+1.1124854716E-001	-4.5634321165E-001	-4.7326580718E-001	-3.8091670136E-001	-5.3975700042E-001	-2.4817933040E-001	+2.4186522926E-001
510000000000.000	-3.2047044188E-001	+1.3046821292E-001	-4.5836036028E-001	-4.3871090749E-001	-3.8573136158E-001	-5.0478633422E-001	-2.2856138324E-001	+2.3637486009E-001
510333333333.333	-3.0429832530E-001	+1.4063970115E-001	-4.5528542618E-001	-4.2924262082E-001	-3.8319013729E-001	-4.9337422774E-001	-2.2294207686E-001	+2.2239354120E-001
510666666666.667	-2.8584802103E-001	+1.3418601500E-001	-4.6474098298E-001	-4.3000096101E-001	-3.9270501001E-001	-4.9713436875E-001	-2.3292411339E-001	+2.1689622547E-001
511000000000.000	-2.8184215499E-001	+1.2401348946E-001	-4.8798989386E-001	-4.2575613317E-001	-4.1423639217E-001	-4.9888751234E-001	-2.3536129946E-001	+2.2987863092E-001
511333333333.333	-2.8446125847E-001	+1.2400193288E-001	-5.1969474215E-001	-3.9784531255E-001	-4.3601387224E-001	-4.9022386560E-001	-2.1414070830E-001	+2.4513085539E-001
511666666666.667	-2.7684050010E-001	+1.1999149165E-001	-5.2327425409E-001	-3.8617652802E-001	-4.5981117866E-001	-4.5986307597E-001	-1.9103227682E-001	+2.4360373391E-001
512000000000.000	-2.6816787900E-001	+1.1784373433E-001	-5.3410232594E-001	-3.7554790489E-001	-4.8047899912E-001	-4.4587341815E-001	-1.8502019381E-001	+2.3872610984E-001
512333333333.333	-2.6330008947E-001	+1.2002150534E-001	-5.5336070354E-001	-3.5891912887E-001	-4.9714422520E-001	-4.3505960599E-001	-1.8089074030E-001	+2.3887804431E-001
512666666666.667	-2.6102007182E-001	+1.2775341628E-001	-5.7413716445E-001	-3.3631275217E-001	-5.2091192285E-001	-4.1598905056E-001	-1.7816786512E-001	+2.4005487194E-001
513000000000.000	-2.5517236403E-001	+1.3587405774E-001	-5.8964079764E-001	-2.9782084716E-001	-5.4235066609E-001	-3.8259746390E-001	-1.6074186139E-001	+2.3972046174E-001
513333333333.333	-2.4383095741E-001	+1.4904879556E-001	-5.8075839068E-001	-2.7286547393E-001	-5.3570018626E-001	-3.5359592069E-001	-1.4705113759E-001	+2.0983643215E-001
513666666666.667	-2.2560274335E-001	+1.5512062477E-001	-5.7740126353E-001	-2.7199564070E-001	-5.3513374660E-001	-3.4928126968E-001	-1.5536504571E-001	+1.8635666758E-001
514000000000.000	-2.1115005073E-001	+1.4298679473E-001	-5.9523700991E-001	-2.6503266166E-001	-5.5131157343E-001	-3.4731775097E-001	-1.6358005523E-001	+1.8656747566E-001
514333333333.333	-2.0581569787E-001	+1.2195166102E-001	-6.1693590759E-001	-2.4837537118E-001	-5.7620610297E-001	-3.3151348355E-001	-1.5466421598E-001	+2.0301605629E-001
514666666666.667	-2.1021907992E-001	+1.1691000479E-001	-6.3513209595E-001	-2.1497159217E-001	-5.9709425611E-001	-3.0186663453E-001	-1.2132758932E-001	+2.0608793323E-001
515000000000.000	-1.9977538808E-001	+1.1688919872E-001	-6.3464568270E-001	-1.8867129631E-001	-6.0470786530E-001	-2.7621548032E-001	-1.1357940049E-001	+2.0065302421E-001
515333333333.333	-1.8801475053E-001	+1.0815346091E-001	-6.4047504794E-001	-1.6721403137E-001	-6.1307595654E-001	-2.5913492647E-001	-1.1781910418E-001	+2.0304963868E-001
515666666666.667	-1.8449300747E-001	+1.0319675955E-001	-6.4911322069E-001	-1.4632856422E-001	-6.1999236610E-001	-2.3671558945E-001	-1.0692223806E-001	+1.9979493497E-001
516000000000.000	-1.8266235226E-001	+1.0644687926E-001	-6.6001340674E-001	-1.2284783710E-001	-6.3771531901E-001	-2.1828023800E-001	-1.1617383661E-001	+1.9310874853E-001
516333333333.333	-1.7928581354E-001	+1.0928834383E-001	-6.6111673353E-001	-8.3434537847E-002	-6.4148920224E-001	-1.7841251539E-001	-9.3165442267E-002	+1.8068316975E-001
516666666666.667	-1.7236455912E-001	+1.1532363502E-001	-6.4675319158E-001	-6.5011339035E-002	-6.2996728199E-001	-1.6089991195E-001	-9.9464259348E-002	+1.4728863532E-001
517000000000.000	-1.6046461551E-001	+1.1400245447E-001	-6.5098403595E-001	-5.9087880813E-002	-6.3610867623E-001	-1.4704017340E-001	-1.1753607076E-001	+1.2427670933E-001
517333333333.333	-1.4386304869E-001	+9.7691098754E-002	-6.6120025255E-001	-4.0671028671E-002	-6.4873430128E-001	-1.3355036459E-001	-1.2819634529E-001	+1.2721413179E-001
517666666666.667	-1.4161948351E-001	+6.9919043397E-002	-6.7241129553E-001	-1.9377643619E-002	-6.6410882236E-001	-1.1051171069E-001	-1.1234528680E-001	+1.3999030706E-001
518000000000.000	-1.5034522031E-001	+5.9836413530E-002	-6.7598449732E-001	+1.3122110290E-002	-6.7118643177E-001	-7.6148088762E-002	-9.1330111546E-002	+1.2428372794E-001
518333333333.333	-1.4355639811E-001	+6.0390321431E-002	-6.6954337968E-001	+4.1123549136E-002	-6.6854639192E-001	-4.6614103936E-002	-8.9832387789E-002	+1.1939544464E-001
518666666666.667	-1.3614424174E-001	+5.1273728824E-002	-6.6299797859E-001	+6.3734311845E-002	-6.6575219665E-001	-2.4310451434E-002	-8.8477803305E-002	+1.1897520039E-001
519000000000.000	-1.4021566012E-001	+4.6388139217E-002	-6.6219858550E-001	+8.5702049486E-002	-6.6805137079E-001	+1.6063093811E-004	-9.1877687531E-002	+1.1027140530E-001
519333333333.333	-1.3637962575E-001	+4.5884972766E-002	-6.6555404277E-001	+1.0789726247E-001	-6.7431666268E-001	+2.2733761002E-002	-1.0265578706E-001	+9.7936988393E-002
519666666666.667	-1.3334191360E-001	+4.1433889353E-002	-6.5480372416E-001	+1.3961676462E-001	-6.6653864322E-001	+5.8152508862E-002	-1.0456632292E-001	+8.7627556365E-002
520000000000.000	-1.3853988032E-001	+3.5244343402E-002	-6.4473932167E-001	+1.5957570055E-001	-6.5876396720E-001	+7.9395450327E-002	-1.1297172906E-001	+6.8197384532E-002
520333333333.333	-1.3800522134E-001	+2.9737119398E-002	-6.3657446991E-001	+1.7608185227E-001	-6.5312932895E-001	+9.8907113392E-002	-1.1897168368E-001	+5.0254685859E-002
520666666666.667	-1.2402670321E-001	+1.5181475257E-002	-6.3252056765E-001	+1.9536731790E-001	-6.5147698233E-001	+1.1726335069E-001	-1.2037901619E-001	+5.5234818324E-002
521000000000.000	-1.2777722360E-001	-5.5449794921E-003	-6.3175419540E-001	+2.1632475312E-001	-6.5249579778E-001	+1.3984283955E-001	-1.1231025744E-001	+5.3397368517E-002
521333333333.333	-1.3503232722E-001	-1.2876420133E-002	-6.2525788527E-001	+2.4421702425E-001	-6.4901139293E-001	+1.6928974840E-001	-1.1817509431E-001	+4.9099918929E-002
521666666666.667	-1.3461624616E-001	-1.9842922392E-002	-6.1264736836E-001	+2.6975755157E-001	-6.4060334667E-001	+1.9480597258E-001	-1.1896515168E-001	+5.1553482329E-002
522000000000.000	-1.3517845267E-001	-2.6164294089E-002	-5.9634425851E-001	+2.9252890042E-001	-6.2725651541E-001	+2.2008787051E-001	-1.1918478824E-001	+4.7433250577E-002
522333333333.333	-1.4505026079E-001	-2.7529683117E-002	-5.8489176401E-001	+3.0932979671E-001	-6.1783409153E-001	+2.3679972832E-001	-1.3461167716E-001	+3.3534608919E-002
522666666666.667	-1.4772649174E-001	-2.8377495616E-002	-5.7827752970E-001	+3.2849180897E-001	-6.1490113521E-001	+2.5848934524E-001	-1.4890083008E-001	+2.5295040802E-002
523000000000.000	-1.5023168249E-001	-3.5213842590E-002	-5.6181351012E-001	+3.5167308900E-001	-6.0140592668E-001	+2.8236040323E-001	-1.5245381526E-001	+1.7390282249E-002
523333333333.333	-1.5982339997E-001	-4.3310514008E-002	-5.4807824171E-001	+3.7159930192E-001	-5.9009754099E-001	+3.0331869874E-001	-1.6220340367E-001	+6.2899136567E-003
523666666666.667	-1.6504591473E-001	-4.6839909367E-002	-5.2976266988E-001	+3.9209487719E-001	-5.7520751004E-001	+3.2455092228E-001	-1.7004887183E-001	+2.7329486013E-003
524000000000.000	-1.6047171142E-001	-5.9388974037E-002	-5.1326207965E-001	+4.0485594078E-001	-5.5919372772E-001	+3.3887922245E-001	-1.7510920771E-001	+4.0866453496E-003
524333333333.333	-1.6816001821E-001	-7.5173657496E-002	-5.0322668172E-001	+4.2261778921E-001	-5.5016120658E-001	+3.5716264625E-001	-1.7703466319E-001	+5.9523568192E-003
524666666666.667	-1.7511473758E-001	-7.3942214675E-002	-4.8457453169E-001	+4.4292796924E-001	-5.3698971381E-001	+3.7982025524E-001	-1.8697290722E-001	+1.2402721432E-002
525000000000.000	-1.7590764632E-001	-7.9310973265E-002	-4.6938887858E-001	+4.6007820543E-001	-5.2347705968E-001	+3.9983640951E-001	-1.9010727525E-001	+1.7003590289E-002
525333333333.333	-1.8658625355E-001	-8.4320269491E-002	-4.4842951795E-001	+4.7677139265E-001	-5.0446982245E-001	+4.1976138326E-001	-2.0034618553E-001	+1.0007709959E-002
525666666666.667	-2.0038304560E-001	-7.7834546125E-002	-4.3098947139E-001	+4.8897155342E-001	-4.9066630818E-001	+4.3136303693E-001	-2.1500220451E-001	+3.7265459272E-003
526000000000.000	-2.0615181967E-001	-7.5858942374E-002	-4.1533418030E-001	+5.0677625401E-001	-4.7368202980E-001	+4.5191498387E-001	-2.2594615336E-001	+3.7957107262E-003
526333333333.333	-2.1162599800E-001	-8.2041027423E-002	-3.8777016802E-001	+5.1783989437E-001	-4.5117223485E-001	+4.6530278018E-001	-2.2917091391E-001	-6.7997768142E-003
526666666666.667	-2.2322519020E-001	-8.9689566030E-002	-3.7105551828E-001	+5.2707145168E-001	-4.3602991046E-001	+4.7613003526E-001	-2.3486175551E-001	-9.4753006303E-003
527000000000.000	-2.3156375958E-001	-8.7790093574E-002	-3.5073156982E-001	+5.3918817373E-001	-4.1847612612E-001	+4.9088670606E-001	-2.3066400606E-001	+7.9935732509E-004
527333333333.333	-2.3029401333E-001	-9.2944145888E-002	-3.3023585703E-001	+5.4726895097E-001	-4.0036319041E-001	+4.9926201849E-001	-2.2686403548E-001	+3.1849957376E-003
527666666666.667	-2.3929174600E-001	-1.0143813944E-001	-3.1666952254E-001	+5.5885641879E-001	-3.8817327379E-001	+5.1402541396E-001	-2.4221721373E-001	+2.0910043708E-002
528000000000.000	-2.4844366718E-001	-9.3025895548E-002	-2.8921128570E-001	+5.7116843794E-001	-3.6503781528E-001	+5.2767366734E-001	-2.5185007623E-001	+4.0636832236E-002
528333333333.333	-2.4986907879E-001	-9.1565703487E-002	-2.7120667621E-001	+5.7810074306E-001	-3.4741105390E-001	+5.3711877343E-001	-2.5335952500E-001	+5.0227333323E-002
528666666666.667	-2.6077598294E-001	-9.2026504930E-002	-2.5120136883E-001	+5.8802222207E-001	-3.2769315053E-001	+5.4505790939E-001	-2.6089009410E-001	+5.9117400876E-002
