! Python used to change reference impedance from 50 to 1.
# Hz S RI R 1
490000000000.000	-1.1879734025E-001	+3.5658340025E-002	+6.4715962268E-001	-2.4784636998E-001	+6.8501472189E-001	-1.3204764655E-001	-9.8081211906E-002	+7.6850174539E-002
490333333333.333	-1.2951139960E-001	+5.5979536353E-002	+6.3963742281E-001	-2.6195039303E-001	+6.7246770637E-001	-1.6486474831E-001	-8.7313666541E-002	+7.2798745472E-002
490666666666.667	-1.9980945746E-001	+2.1869626817E-002	+6.2521031663E-001	-2.9010087824E-001	+6.6968828579E-001	-1.8515498381E-001	-1.0652567043E-001	+6.9647975350E-002
491000000000.000	-1.8408055749E-001	-3.4175110285E-002	+5.9616130110E-001	-3.1490778727E-001	+6.6919259416E-001	-1.9439608579E-001	-1.3051150900E-001	+3.9577939903E-002
491333333333.333	-1.4560160496E-001	-4.9588661869E-002	+5.8687824696E-001	-3.4729034383E-001	+6.6311703868E-001	-2.2293338496E-001	-1.2829153017E-001	+2.1371990158E-002
491666666666.667	-1.4132697217E-001	-4.4874478363E-002	+5.7026164910E-001	-3.7074204593E-001	+6.6301248692E-001	-2.5069053569E-001	-1.1874588778E-001	+1.1778510963E-002
492000000000.000	-1.2018120832E-001	-6.3922770180E-002	+5.5217489061E-001	-3.8456924884E-001	+6.4124985980E-001	-2.6282076704E-001	-1.4596897176E-001	+2.7950726214E-002
492333333333.333	-8.8206727636E-002	-3.2682123187E-002	+5.3378293620E-001	-4.0352349199E-001	+6.3659976689E-001	-2.8867364466E-001	-1.3068327252E-001	+1.6693492230E-002
492666666666.667	-1.2154337407E-001	+6.2748725821E-003	+5.2903549418E-001	-4.2020221171E-001	+6.3082397765E-001	-3.0828835901E-001	-1.2842176058E-001	+2.2008485312E-002
493000000000.000	-1.6558073398E-001	-9.9050596829E-003	+5.3088286347E-001	-4.5010326764E-001	+6.3040752911E-001	-3.3635343490E-001	-1.5513352279E-001	+3.2725186354E-002
493333333333.333	-1.6781102591E-001	-2.4092749140E-002	+5.0104865061E-001	-4.7010733218E-001	+6.0644137694E-001	-3.6196297859E-001	-1.7325338449E-001	+2.1523902782E-002
493666666666.667	-2.0887871169E-001	-1.8032934384E-003	+4.8505504091E-001	-4.9304935815E-001	+5.7844188287E-001	-3.8261254211E-001	-1.6262888909E-001	+8.5553965947E-003
494000000000.000	-2.4527709411E-001	-5.9422357684E-002	+4.5605942385E-001	-4.9411252946E-001	+5.6682972767E-001	-4.0615159819E-001	-1.9102334221E-001	+1.4522693131E-002
494333333333.333	-2.3196211862E-001	-1.5163598644E-001	+4.4233872050E-001	-5.1955593517E-001	+5.5323633818E-001	-4.1816527323E-001	-2.0567789452E-001	-4.4520656539E-003
494666666666.667	-1.6298218558E-001	-1.1394203681E-001	+4.3127454381E-001	-5.3515612642E-001	+5.4053024355E-001	-4.3863613387E-001	-1.9792476040E-001	-1.6625947373E-002
495000000000.000	-1.9643628443E-001	-9.5942897150E-002	+4.0313007797E-001	-5.4651819256E-001	+5.1639183563E-001	-4.5702876717E-001	-1.9899344547E-001	-6.0413881713E-003
495333333333.333	-1.7310400697E-001	-1.2556313546E-001	+3.7664487457E-001	-5.5619552455E-001	+4.9082704951E-001	-4.6891215752E-001	-2.1942192916E-001	-1.6691043325E-002
495666666666.667	-1.4687866488E-001	-6.1123212680E-002	+3.7153518861E-001	-5.6481986174E-001	+4.7696820159E-001	-4.8053719406E-001	-2.1513490671E-001	-1.3922630182E-002
496000000000.000	-2.0718158541E-001	-1.7964696030E-002	+3.6067181089E-001	-5.7481079638E-001	+4.6680284253E-001	-4.9453020896E-001	-2.2065143923E-001	+2.8305330660E-003
496333333333.333	-2.6041338234E-001	-4.8193143129E-002	+3.3636966262E-001	-5.9139595111E-001	+4.4606623397E-001	-5.1899775120E-001	-2.4797858279E-001	+5.8687264719E-003
496666666666.667	-2.5604089166E-001	-5.9568659698E-002	+3.0314686167E-001	-6.1127031159E-001	+4.2587814103E-001	-5.3666669874E-001	-2.5948684626E-001	+1.1455257491E-002
497000000000.000	-2.8931477320E-001	-6.3865356504E-002	+2.8260456758E-001	-6.1199440464E-001	+3.9367101995E-001	-5.4983050796E-001	-2.5778119405E-001	+1.5565958161E-002
497333333333.333	-3.0643036218E-001	-1.1777895412E-001	+2.5321121130E-001	-6.1024710921E-001	+3.7203348961E-001	-5.5241834885E-001	-2.7405053546E-001	+1.4198505459E-002
497666666666.667	-2.6018081944E-001	-1.4329394875E-001	+2.3287734886E-001	-6.1839423803E-001	+3.5339006277E-001	-5.6300434631E-001	-2.8176113417E-001	+1.3318094639E-002
498000000000.000	-2.4433409717E-001	-1.1117639159E-001	+2.1222711312E-001	-6.2861180727E-001	+3.3542326753E-001	-5.7805718457E-001	-2.8184891377E-001	+1.7200798187E-002
498333333333.333	-2.6437040206E-001	-1.0778567588E-001	+1.8567549850E-001	-6.2925261540E-001	+3.1247409540E-001	-5.8472181603E-001	-2.8456859708E-001	+2.0924071220E-002
498666666666.667	-2.4268108532E-001	-1.0584085210E-001	+1.6491014269E-001	-6.3167852367E-001	+2.9190583308E-001	-5.8942610595E-001	-2.8474921339E-001	+2.0010958284E-002
499000000000.000	-2.4922029090E-001	-3.7617646862E-002	+1.5117723389E-001	-6.3862936885E-001	+2.7716503513E-001	-5.9662355592E-001	-2.8687211520E-001	+2.8571338183E-002
499333333333.333	-3.0730696044E-001	-1.5131757504E-002	+1.3564300120E-001	-6.4343418193E-001	+2.6328533294E-001	-6.0640175080E-001	-2.9458826678E-001	+3.9543287636E-002
499666666666.667	-3.4240692607E-001	-4.3164966595E-002	+1.0797862958E-001	-6.5220209921E-001	+2.3604154867E-001	-6.2154450533E-001	-3.0813576219E-001	+5.4058070509E-002
500000000000.000	-3.3358467266E-001	-4.7869454463E-002	+7.9036688705E-002	-6.5377283107E-001	+2.0924415043E-001	-6.2711961341E-001	-3.1398650747E-001	+5.7979675389E-002
500333333333.333	-3.5412723753E-001	-4.5344748346E-002	+5.3330620288E-002	-6.5049351544E-001	+1.8558210272E-001	-6.3079990822E-001	-3.2728535886E-001	+7.2662826853E-002
500666666666.667	-3.6431916676E-001	-7.5661031664E-002	+3.5838381313E-002	-6.4738452870E-001	+1.6320390703E-001	-6.2938820856E-001	-3.3651401015E-001	+6.9758942987E-002
501000000000.000	-3.2800164679E-001	-8.7074610244E-002	+1.6019477662E-002	-6.4936390902E-001	+1.4366185819E-001	-6.3622266934E-001	-3.3667170575E-001	+7.2572098211E-002
501333333333.333	-3.1882429455E-001	-6.4230960411E-002	-1.1596845183E-002	-6.4956267363E-001	+1.1650008590E-001	-6.4161754020E-001	-3.3715683386E-001	+8.4225918318E-002
501666666666.667	-3.2210004930E-001	-5.5416461765E-002	-2.6912140216E-002	-6.4138301125E-001	+9.7862692821E-002	-6.3475177915E-001	-3.3081323538E-001	+8.9162831735E-002
502000000000.000	-3.1862089640E-001	-3.8227060684E-002	-3.8096577167E-002	-6.3991369407E-001	+8.3573245596E-002	-6.3613546440E-001	-3.2643801523E-001	+8.7285812461E-002
502333333333.333	-3.3329862112E-001	+5.6709084304E-004	-5.5066364861E-002	-6.4822303854E-001	+6.8637727954E-002	-6.4645899437E-001	-3.2807163839E-001	+1.0108116843E-001
502666666666.667	-3.6948853936E-001	+5.3098143247E-003	-7.7069734330E-002	-6.5192793192E-001	+4.8508008999E-002	-6.5519845480E-001	-3.3853207213E-001	+1.1132584480E-001
503000000000.000	-3.8229996513E-001	+1.4176919722E-003	-1.1449220280E-001	-6.4722377930E-001	+8.9495456198E-003	-6.5407544011E-001	-3.3006284703E-001	+1.2297916944E-001
503333333333.333	-3.7338200274E-001	+7.5553136195E-003	-1.3776488306E-001	-6.2781209638E-001	-1.5511453213E-002	-6.4321285810E-001	-3.3023032335E-001	+1.3062458989E-001
503666666666.667	-3.7554031838E-001	+1.0622358721E-002	-1.5055594834E-001	-6.1509619239E-001	-3.3256245228E-002	-6.3095248027E-001	-3.2896806452E-001	+1.4241409804E-001
504000000000.000	-3.6971103209E-001	-1.9036974993E-004	-1.5730495029E-001	-6.1250522312E-001	-4.4799047565E-002	-6.2929650562E-001	-3.3517646302E-001	+1.4254520715E-001
504333333333.333	-3.5656579972E-001	+3.8520931414E-003	-1.7912487959E-001	-6.1658843225E-001	-6.1241875101E-002	-6.3913370545E-001	-3.4222216286E-001	+1.5384500700E-001
504666666666.667	-3.4677983328E-001	+2.4985528026E-002	-2.0610633348E-001	-6.1137775224E-001	-9.1146040130E-002	-6.3877216641E-001	-3.3933558367E-001	+1.6561099528E-001
505000000000.000	-3.4548034767E-001	+3.4641770409E-002	-2.2183713808E-001	-5.9458556044E-001	-1.0725976992E-001	-6.2578940627E-001	-3.2832975944E-001	+1.6805704015E-001
505333333333.333	-3.5579873042E-001	+3.9529984775E-002	-2.3251385366E-001	-5.9220216991E-001	-1.1820702011E-001	-6.2566457017E-001	-3.2037076642E-001	+1.7355020921E-001
505666666666.667	-3.6201814006E-001	+4.4207899532E-002	-2.5373161359E-001	-5.9365822691E-001	-1.3802207527E-001	-6.3130440709E-001	-3.1288006463E-001	+1.8041771426E-001
506000000000.000	-3.6807188224E-001	+4.9319980710E-002	-2.8045246655E-001	-5.8928909127E-001	-1.6579560636E-001	-6.3362455346E-001	-3.1354059848E-001	+1.8410223449E-001
506333333333.333	-3.7371891386E-001	+6.9391778686E-002	-3.1488747811E-001	-5.7105979379E-001	-2.0352621156E-001	-6.2277657015E-001	-3.0792583009E-001	+2.0179609777E-001
506666666666.667	-3.6942461455E-001	+8.3329867810E-002	-3.2468179310E-001	-5.4336030494E-001	-2.2056296159E-001	-5.9609504217E-001	-2.9857191691E-001	+2.1067138631E-001
507000000000.000	-3.5503139466E-001	+8.8155037988E-002	-3.2712410038E-001	-5.2931882788E-001	-2.2596083467E-001	-5.8343134538E-001	-2.9033281163E-001	+2.0823927261E-001
507333333333.333	-3.4029894746E-001	+8.6508204163E-002	-3.3512718276E-001	-5.3042029675E-001	-2.3162531076E-001	-5.8653496699E-001	-2.9636941767E-001	+2.0249601498E-001
507666666666.667	-3.3932514366E-001	+9.1527973650E-002	-3.6014466270E-001	-5.3145661744E-001	-2.5422395886E-001	-5.9336537575E-001	-3.0301665612E-001	+2.1691662231E-001
508000000000.000	-3.3765232042E-001	+1.0038018479E-001	-3.8721493065E-001	-5.1501092748E-001	-2.8653781063E-001	-5.8288496264E-001	-2.8972131414E-001	+2.3027331111E-001
508333333333.333	-3.2998681485E-001	+9.8873875727E-002	-3.9687549753E-001	-4.9893535659E-001	-2.9839027711E-001	-5.6809351603E-001	-2.7604416704E-001	+2.3015984854E-001
508666666666.667	-3.3417219276E-001	+9.7715212498E-002	-4.1135284056E-001	-4.9610886622E-001	-3.1290868711E-001	-5.6758858711E-001	-2.6826250393E-001	+2.3480009978E-001
509000000000.000	-3.3242646694E-001	+9.6197020051E-002	-4.3461417389E-001	-4.8653439050E-001	-3.4121873575E-001	-5.5950078413E-001	-2.5703040489E-001	+2.4081413070E-001
509333333333.333	-3.2510132647E-001	+1.0348264134E-001	-4.5742444315E-001	-4.7354347437E-001	-3.6617452149E-001	-5.4720004037E-001	-2.4912847820E-001	+2.4064572546E-001
509666666666.667	-3.2329612792E-001	+1.2916055392E-001	-4.8078404334E-001	-4.4911674206E-001	-3.9989987097E-001	-5.2674580173E-001	-2.4111367822E-001	+2.5066832749E-001
510000000000.000	-3.1815131680E-001	+1.4819890131E-001	-4.8092240948E-001	-4.1545230767E-001	-4.0324240758E-001	-4.9213336256E-001	-2.2326556935E-001	+2.4562200923E-001
510333333333.333	-2.9925596314E-001	+1.5081268997E-001	-4.7821874472E-001	-4.0780327152E-001	-4.0256947003E-001	-4.8122106880E-001	-2.1790319683E-001	+2.3296306415E-001
510666666666.667	-2.7673627069E-001	+1.4869075349E-001	-4.8889565561E-001	-4.0671017233E-001	-4.1397295616E-001	-4.8303892526E-001	-2.2695038637E-001	+2.2927457168E-001
511000000000.000	-2.8016221461E-001	+1.4571975703E-001	-5.1099948760E-001	-4.0174281459E-001	-4.3572013364E-001	-4.8324792406E-001	-2.2871335592E-001	+2.4371940816E-001
511333333333.333	-2.9241224255E-001	+1.3935000091E-001	-5.4098151157E-001	-3.7335787077E-001	-4.5692310378E-001	-4.7367555697E-001	-2.0584227900E-001	+2.5650708186E-001
511666666666.667	-2.7928456633E-001	+1.2602169219E-001	-5.4406575161E-001	-3.6191253482E-001	-4.8021516370E-001	-4.4223770917E-001	-1.8388017009E-001	+2.5213723366E-001
512000000000.000	-2.6310558412E-001	+1.2619571874E-001	-5.5391280823E-001	-3.4942099276E-001	-4.9917135774E-001	-4.2761684213E-001	-1.7735398116E-001	+2.4828123961E-001
512333333333.333	-2.6163209266E-001	+1.3174758416E-001	-5.7226329599E-001	-3.3145021469E-001	-5.1510602955E-001	-4.1541040372E-001	-1.7317647122E-001	+2.4726924477E-001
512666666666.667	-2.5750838306E-001	+1.3520713613E-001	-5.9134014048E-001	-3.0829380180E-001	-5.3794560059E-001	-3.9549164977E-001	-1.6988916367E-001	+2.4771115878E-001
513000000000.000	-2.4143470378E-001	+1.4585467639E-001	-6.0503563977E-001	-2.6878536763E-001	-5.5756800961E-001	-3.6251192361E-001	-1.5199945412E-001	+2.4891952385E-001
513333333333.333	-2.2979304626E-001	+1.7032333344E-001	-5.9605897566E-001	-2.4596071938E-001	-5.5106411428E-001	-3.3543490085E-001	-1.3966422044E-001	+2.2140738684E-001
513666666666.667	-2.2327578671E-001	+1.7304042532E-001	-5.9407415017E-001	-2.4440798519E-001	-5.5157122751E-001	-3.3043924935E-001	-1.4741336359E-001	+1.9945462796E-001
514000000000.000	-2.1065469890E-001	+1.5430795381E-001	-6.1118088842E-001	-2.3403227543E-001	-5.6698990181E-001	-3.2602889858E-001	-1.5480094926E-001	+1.9894203544E-001
514333333333.333	-2.0375916418E-001	+1.3693395755E-001	-6.3088627064E-001	-2.1615111312E-001	-5.9083765009E-001	-3.0886605636E-001	-1.4575601108E-001	+2.1648997878E-001
514666666666.667	-2.1861268057E-001	+1.3408349877E-001	-6.4768150020E-001	-1.8175964673E-001	-6.1119043642E-001	-2.7857961846E-001	-1.1370987016E-001	+2.1580302282E-001
515000000000.000	-2.0788704883E-001	+1.2181444788E-001	-6.4552929149E-001	-1.5556827447E-001	-6.1711001976E-001	-2.5076657549E-001	-1.0679451648E-001	+2.0748384937E-001
515333333333.333	-1.8099195210E-001	+1.1025709237E-001	-6.4944658606E-001	-1.3387395221E-001	-6.2429559083E-001	-2.3343564037E-001	-1.0972489084E-001	+2.1118126591E-001
515666666666.667	-1.7570730797E-001	+1.1779677884E-001	-6.5607276188E-001	-1.1562468564E-001	-6.2994844301E-001	-2.1187054375E-001	-9.8349698079E-002	+2.0776850389E-001
516000000000.000	-1.8099185875E-001	+1.1879399387E-001	-6.6665066272E-001	-9.2192295923E-002	-6.4758360524E-001	-1.9301887103E-001	-1.0774345896E-001	+1.9920398761E-001
516333333333.333	-1.6655378407E-001	+1.1324253331E-001	-6.6735085112E-001	-5.3654131708E-002	-6.5118598284E-001	-1.5230953461E-001	-8.1787230936E-002	+1.8839227240E-001
516666666666.667	-1.5279433882E-001	+1.3186862048E-001	-6.5407874277E-001	-3.4848114647E-002	-6.4093161406E-001	-1.3566957749E-001	-8.7645211877E-002	+1.5649142156E-001
517000000000.000	-1.6057164455E-001	+1.3901802665E-001	-6.5781921701E-001	-2.7296488062E-002	-6.4676322119E-001	-1.2102329811E-001	-1.0792790896E-001	+1.3320699445E-001
517333333333.333	-1.5419013577E-001	+1.0822194602E-001	-6.6603443941E-001	-7.8710062536E-003	-6.5687103922E-001	-1.0594068479E-001	-1.1764577389E-001	+1.3640631367E-001
517666666666.667	-1.4318813050E-001	+7.5770484861E-002	-6.7514930771E-001	+1.4573718376E-002	-6.7077505761E-001	-8.1805887503E-002	-1.0067819833E-001	+1.4926240110E-001
518000000000.000	-1.5353476181E-001	+7.4881157107E-002	-6.7732879456E-001	+4.7478647704E-002	-6.7700346856E-001	-4.6708601710E-002	-8.4130102680E-002	+1.3241209479E-001
518333333333.333	-1.5276542258E-001	+6.8761713343E-002	-6.6856088276E-001	+7.6333468429E-002	-6.7220197629E-001	-1.7510120726E-002	-8.2701566791E-002	+1.2530344075E-001
518666666666.667	-1.3181910252E-001	+5.1670885494E-002	-6.6065733650E-001	+9.5897988307E-002	-6.6789165011E-001	+3.4726221326E-003	-7.9337741246E-002	+1.2515607593E-001
519000000000.000	-1.2638067760E-001	+5.9061576189E-002	-6.5916352114E-001	+1.1740035492E-001	-6.6917321679E-001	+2.7923399464E-002	-8.2240458679E-002	+1.1775120276E-001
519333333333.333	-1.3028676032E-001	+6.4205534717E-002	-6.6215480845E-001	+1.3987273872E-001	-6.7517053414E-001	+5.0147254669E-002	-9.2441887618E-002	+1.0370068171E-001
519666666666.667	-1.2769001558E-001	+4.9557500923E-002	-6.5115445802E-001	+1.7095445656E-001	-6.6702452264E-001	+8.5845563775E-002	-9.2728819079E-002	+9.2708042506E-002
520000000000.000	-1.2711596730E-001	+4.7983026032E-002	-6.3998698087E-001	+1.9214090696E-001	-6.5865613152E-001	+1.0733736248E-001	-1.0173081621E-001	+7.5368191515E-002
520333333333.333	-1.3934773438E-001	+5.1741382357E-002	-6.3064239791E-001	+2.0936562774E-001	-6.5198778753E-001	+1.2660886573E-001	-1.1143877802E-001	+5.7083066096E-002
520666666666.667	-1.3762454123E-001	+2.4936755084E-002	-6.2453230804E-001	+2.2759041000E-001	-6.4828153094E-001	+1.4575443212E-001	-1.1262739058E-001	+6.1059946302E-002
521000000000.000	-1.3225626931E-001	-4.8394975828E-003	-6.2297835716E-001	+2.4842234623E-001	-6.4849522029E-001	+1.6797593694E-001	-1.0311134402E-001	+5.8620175943E-002
521333333333.333	-1.3219912626E-001	-2.9813120768E-003	-6.1490638634E-001	+2.7800466892E-001	-6.4409361418E-001	+1.9836390130E-001	-1.1260651799E-001	+5.5114426200E-002
521666666666.667	-1.3910171360E-001	-7.5946148175E-003	-6.0101544789E-001	+3.0177563100E-001	-6.3429534679E-001	+2.2322302155E-001	-1.1270265655E-001	+5.6366915054E-002
522000000000.000	-1.3499705936E-001	-2.1916483111E-002	-5.8325720329E-001	+3.2334379245E-001	-6.1968995972E-001	+2.4784297301E-001	-1.1093951992E-001	+5.1644921453E-002
522333333333.333	-1.3230521964E-001	-1.8755361254E-002	-5.7076733709E-001	+3.4034413059E-001	-6.0948337884E-001	+2.6458016388E-001	-1.2608392569E-001	+3.9064111575E-002
522666666666.667	-1.3872772055E-001	-9.0147105966E-003	-5.6333140419E-001	+3.6032193112E-001	-6.0549680273E-001	+2.8701092354E-001	-1.3982126218E-001	+3.1166940654E-002
523000000000.000	-1.4987490369E-001	-1.9172838612E-002	-5.4495019345E-001	+3.8227270619E-001	-5.9057101782E-001	+3.1047259299E-001	-1.4383271892E-001	+2.2123307999E-002
523333333333.333	-1.5959356163E-001	-3.1580327824E-002	-5.3031493384E-001	+4.0089795389E-001	-5.7860745060E-001	+3.3044111935E-001	-1.5459374573E-001	+1.2637074310E-002
523666666666.667	-1.6675362408E-001	-3.1609432553E-002	-5.1149237748E-001	+4.1960194125E-001	-5.6294506761E-001	+3.4952571249E-001	-1.6284602185E-001	+9.2627772366E-003
524000000000.000	-1.6950171815E-001	-4.7507283612E-002	-4.9445281694E-001	+4.3136487688E-001	-5.4652896221E-001	+3.6266258245E-001	-1.6890866074E-001	+9.9484655458E-003
524333333333.333	-1.7518351102E-001	-7.1657810386E-002	-4.8394636450E-001	+4.4826303757E-001	-5.3704462060E-001	+3.8132951465E-001	-1.7105568176E-001	+1.0576464552E-002
524666666666.667	-1.7336868919E-001	-6.9808723519E-002	-4.6440006762E-001	+4.6856501025E-001	-5.2325259389E-001	+4.0314948028E-001	-1.7983111098E-001	+1.6717307226E-002
525000000000.000	-1.7364988355E-001	-6.9686596748E-002	-4.4817986045E-001	+4.8482126286E-001	-5.0827007524E-001	+4.2318327758E-001	-1.8293485317E-001	+2.1776935812E-002
525333333333.333	-1.8516782822E-001	-7.3928888412E-002	-4.2735134167E-001	+5.0009590709E-001	-4.8832753855E-001	+4.4326809637E-001	-1.9190514337E-001	+1.4600253929E-002
525666666666.667	-1.9481708323E-001	-6.4786852641E-002	-4.0960041713E-001	+5.1193159480E-001	-4.7395809993E-001	+4.5474059546E-001	-2.0687493832E-001	+7.3469136650E-003
526000000000.000	-2.0174686700E-001	-5.6654135639E-002	-3.9184768205E-001	+5.2972692148E-001	-4.5639548539E-001	+4.7423225493E-001	-2.1721069507E-001	+8.9937445736E-003
526333333333.333	-2.1449197015E-001	-6.1802254009E-002	-3.6371540935E-001	+5.3922377146E-001	-4.3262726306E-001	+4.8663721896E-001	-2.2216228430E-001	-5.5048991284E-005
526666666666.667	-2.3025311140E-001	-7.4327018637E-002	-3.4665808101E-001	+5.4747340395E-001	-4.1687131735E-001	+4.9686786858E-001	-2.3075549006E-001	-4.4439671361E-003
527000000000.000	-2.3689028764E-001	-7.6677223608E-002	-3.2521930963E-001	+5.5847451117E-001	-3.9852620412E-001	+5.1093163088E-001	-2.2603045439E-001	+4.8719209416E-003
527333333333.333	-2.3392951833E-001	-8.3557380406E-002	-3.0328509446E-001	+5.6610250052E-001	-3.8131857832E-001	+5.1743851155E-001	-2.2410382203E-001	+7.5444434593E-003
527666666666.667	-2.4249820085E-001	-9.3162044596E-002	-2.8895369024E-001	+5.7696796341E-001	-3.6680949147E-001	+5.3305793475E-001	-2.4327831437E-001	+2.5034537881E-002
528000000000.000	-2.4918334237E-001	-8.5954866177E-002	-2.6096141042E-001	+5.8804919811E-001	-3.4232205723E-001	+5.4616425839E-001	-2.5031562443E-001	+4.0016882399E-002
528333333333.333	-2.4648610898E-001	-8.2189162660E-002	-2.4380130508E-001	+5.9338432116E-001	-3.2368718522E-001	+5.5453807368E-001	-2.4682078810E-001	+4.9723023387E-002
528666666666.667	-2.5555743405E-001	-7.5342950780E-002	-2.2265159796E-001	+6.0275597296E-001	-3.0450827983E-001	+5.6183888666E-001	-2.5420540660E-001	+6.0944761848E-002
