! Python used to change reference impedance from 50 to 1.
# Hz S RI R 1
490000000000.000	-1.1876063113E-001	+7.9113910056E-002	+6.7710814368E-001	-1.2686779314E-001	+6.9461096482E-001	-3.4723102092E-002	-6.9647973863E-002	+1.4448352024E-001
490333333333.333	-1.1194458395E-001	+1.1225630419E-001	+6.7113851790E-001	-1.4931622092E-001	+6.8867682220E-001	-6.3687128236E-002	-6.8355617084E-002	+1.3443716778E-001
490666666666.667	-1.7023411249E-001	+9.9047155728E-002	+6.6260761463E-001	-1.7599551013E-001	+6.8660411249E-001	-8.4148954805E-002	-7.5132529103E-002	+1.2266427918E-001
491000000000.000	-1.6846959745E-001	+1.7175976568E-002	+6.4857413426E-001	-2.0420070483E-001	+6.9090155438E-001	-9.7653660901E-002	-8.5573838523E-002	+1.0357740302E-001
491333333333.333	-1.1310257766E-001	+3.0986711170E-002	+6.4436448417E-001	-2.3323419210E-001	+6.8979197075E-001	-1.2570677259E-001	-8.4681060887E-002	+9.4481153149E-002
491666666666.667	-1.2542361288E-001	+3.8565907262E-002	+6.2862899619E-001	-2.5985811870E-001	+6.8668370979E-001	-1.4958970260E-001	-8.2377160723E-002	+8.6148206632E-002
492000000000.000	-1.1099968451E-001	+2.9590170434E-003	+6.1215879632E-001	-2.8291564199E-001	+6.7830189353E-001	-1.7149703217E-001	-9.4670568146E-002	+8.2356592067E-002
492333333333.333	-7.6079074540E-002	+2.7764940867E-002	+5.9921444340E-001	-3.0335545862E-001	+6.7296343383E-001	-1.9611073867E-001	-9.4108081536E-002	+7.8049785633E-002
492666666666.667	-1.0354220377E-001	+6.7664147470E-002	+5.9920145643E-001	-3.2329345005E-001	+6.7270638172E-001	-2.1115989810E-001	-9.0024099013E-002	+7.8006215255E-002
493000000000.000	-1.4152725766E-001	+3.6609651466E-002	+5.9698746194E-001	-3.5268576101E-001	+6.7374908643E-001	-2.4340209548E-001	-1.0576235364E-001	+7.9378027223E-002
493333333333.333	-1.2803617662E-001	+1.8160222966E-002	+5.7774860808E-001	-3.7719830320E-001	+6.5512883891E-001	-2.7283114010E-001	-1.1184135669E-001	+6.2382019750E-002
493666666666.667	-1.6063073016E-001	+3.7749483172E-002	+5.6067851885E-001	-4.0253855216E-001	+6.3938134490E-001	-2.9421674809E-001	-1.1088931263E-001	+5.5969661728E-002
494000000000.000	-2.0085950176E-001	-1.7752146923E-002	+5.4152664368E-001	-4.0921006390E-001	+6.2286857008E-001	-3.2807158564E-001	-1.2095127034E-001	+5.1753980220E-002
494333333333.333	-1.6719319069E-001	-8.5903401610E-002	+5.3313661819E-001	-4.3405604158E-001	+6.1745247323E-001	-3.3117565589E-001	-1.3613885190E-001	+3.8857507351E-002
494666666666.667	-1.2227537737E-001	-4.0487002492E-002	+5.2322546931E-001	-4.5298285032E-001	+6.0008911563E-001	-3.6067854954E-001	-1.4142393061E-001	+3.5870640328E-002
495000000000.000	-1.5568519845E-001	-3.5913216531E-002	+5.0208619677E-001	-4.7424302847E-001	+5.7897147218E-001	-3.8618612616E-001	-1.4970856644E-001	+3.2888201993E-002
495333333333.333	-1.4119505379E-001	-7.7469059305E-002	+4.7734342102E-001	-4.8815236606E-001	+5.5975653855E-001	-4.0008979157E-001	-1.6182035685E-001	+2.5741458911E-002
495666666666.667	-1.1140789255E-001	-2.9266448734E-002	+4.6439538835E-001	-5.0121088819E-001	+5.4563164264E-001	-4.1670871253E-001	-1.6520743162E-001	+2.8101539082E-002
496000000000.000	-1.6991580982E-001	+1.2483965834E-002	+4.5694412357E-001	-5.1414304716E-001	+5.3388941519E-001	-4.3361994334E-001	-1.7245593212E-001	+2.7937622001E-002
496333333333.333	-2.1449209727E-001	-3.7470471110E-002	+4.3682401939E-001	-5.3654417523E-001	+5.1983968170E-001	-4.6092731336E-001	-1.8450069155E-001	+2.7322512855E-002
496666666666.667	-1.9775909068E-001	-4.4539981990E-002	+4.0825228388E-001	-5.5586338731E-001	+4.9859865087E-001	-4.8137304633E-001	-1.9192668571E-001	+3.1155473943E-002
497000000000.000	-2.3017181018E-001	-3.7543546018E-002	+3.8389267910E-001	-5.6206684109E-001	+4.7206878480E-001	-4.9611141544E-001	-1.9999598472E-001	+3.1491432396E-002
497333333333.333	-2.5099176039E-001	-9.3440882790E-002	+3.5617555270E-001	-5.6817803089E-001	+4.4989672498E-001	-5.0408715907E-001	-2.1014648827E-001	+2.3959518770E-002
497666666666.667	-2.0204957278E-001	-1.1275837015E-001	+3.3752954616E-001	-5.7919534979E-001	+4.3230445861E-001	-5.1846727992E-001	-2.1863975098E-001	+2.8772658706E-002
498000000000.000	-1.9580520891E-001	-7.4251506275E-002	+3.1789815207E-001	-5.9316504170E-001	+4.1692341013E-001	-5.3607198203E-001	-2.2577609108E-001	+3.2517321405E-002
498333333333.333	-2.2619527798E-001	-8.1305550766E-002	+2.9241537636E-001	-6.0057132000E-001	+3.9409444075E-001	-5.4769121321E-001	-2.3148143116E-001	+2.9987994667E-002
498666666666.667	-2.0600447636E-001	-8.6363464599E-002	+2.7085147134E-001	-6.0750618964E-001	+3.7286851578E-001	-5.5699593748E-001	-2.3478197704E-001	+3.2108710731E-002
499000000000.000	-2.0760214605E-001	-3.2017218509E-002	+2.5701363683E-001	-6.1594371671E-001	+3.5753346337E-001	-5.6697003268E-001	-2.4358117284E-001	+3.7394260554E-002
499333333333.333	-2.6668018543E-001	-1.9409852434E-002	+2.3970404836E-001	-6.2391726942E-001	+3.4279747881E-001	-5.7888113581E-001	-2.5287702391E-001	+3.9168833053E-002
499666666666.667	-2.9404077471E-001	-5.6793865957E-002	+2.1334442697E-001	-6.3761814237E-001	+3.1809096708E-001	-5.9678243712E-001	-2.6285302432E-001	+4.9032079864E-002
500000000000.000	-2.7931724958E-001	-5.6100390868E-002	+1.8339064657E-001	-6.4285773907E-001	+2.9064006376E-001	-6.0571118301E-001	-2.7049225710E-001	+5.6097001270E-002
500333333333.333	-3.0283929395E-001	-4.9551982827E-002	+1.5843784822E-001	-6.4402216548E-001	+2.6559207438E-001	-6.1139626347E-001	-2.7979045996E-001	+6.1335028538E-002
500666666666.667	-3.1639954727E-001	-7.9182476079E-002	+1.3805753225E-001	-6.4293945179E-001	+2.4325535678E-001	-6.1399182517E-001	-2.8729028221E-001	+6.3469438036E-002
501000000000.000	-2.8920186051E-001	-8.3161916173E-002	+1.1770277555E-001	-6.4743572227E-001	+2.2452814862E-001	-6.2108421064E-001	-2.9272228879E-001	+7.0308838351E-002
501333333333.333	-2.8520346358E-001	-6.0115258445E-002	+9.2681923503E-002	-6.5218515149E-001	+1.9878855688E-001	-6.2979544042E-001	-2.9588984602E-001	+7.9851674971E-002
501666666666.667	-2.9659720372E-001	-5.8782089169E-002	+7.3771652088E-002	-6.4681654290E-001	+1.7834889728E-001	-6.2692243376E-001	-2.9389120491E-001	+8.3255122513E-002
502000000000.000	-2.9075455557E-001	-5.0385515598E-002	+5.9061482003E-002	-6.4766113642E-001	+1.6451413699E-001	-6.2984030503E-001	-2.9587238302E-001	+8.4691356384E-002
502333333333.333	-3.0262688053E-001	-1.5839734755E-002	+4.3306171144E-002	-6.5736678170E-001	+1.4887115840E-001	-6.4147567008E-001	-3.0198645972E-001	+9.3679036535E-002
502666666666.667	-3.3880968479E-001	-1.2075460286E-002	+1.8791840327E-002	-6.6460182692E-001	+1.2639376710E-001	-6.5310259697E-001	-3.0926861022E-001	+1.0084940353E-001
503000000000.000	-3.5102183942E-001	-2.2188299708E-002	-2.0650810234E-002	-6.6534434939E-001	+8.8501194051E-002	-6.5880554210E-001	-3.0859537274E-001	+1.1427672198E-001
503333333333.333	-3.4240998600E-001	-1.2441520103E-002	-4.7171171008E-002	-6.4910055319E-001	+5.8914882732E-002	-6.4784192300E-001	-3.0670310438E-001	+1.2273148505E-001
503666666666.667	-3.4986774749E-001	-6.0514407168E-003	-6.1330392605E-002	-6.3639586371E-001	+4.1469758915E-002	-6.3777988485E-001	-3.0769482159E-001	+1.2891758143E-001
504000000000.000	-3.5222218662E-001	-1.7370089575E-002	-7.0793205982E-002	-6.3303798484E-001	+3.0354741248E-002	-6.3506345134E-001	-3.1358312808E-001	+1.3182683276E-001
504333333333.333	-3.4127813871E-001	-1.3445164058E-002	-8.8100376609E-002	-6.4018942924E-001	+1.4604672810E-002	-6.4628376469E-001	-3.2055592016E-001	+1.4204737470E-001
504666666666.667	-3.3441278780E-001	+7.4563973626E-003	-1.1902519599E-001	-6.3886910120E-001	-1.4381144892E-002	-6.4965877264E-001	-3.2193126170E-001	+1.5551405181E-001
505000000000.000	-3.3784173792E-001	+1.8572754003E-002	-1.3746712218E-001	-6.2496319543E-001	-3.3130441097E-002	-6.3882473525E-001	-3.1515476056E-001	+1.6099340621E-001
505333333333.333	-3.4905875462E-001	+2.1306254535E-002	-1.4812521521E-001	-6.2241367383E-001	-4.4455915794E-002	-6.3914913440E-001	-3.1193802789E-001	+1.6723121941E-001
505666666666.667	-3.5350673382E-001	+2.5862896060E-002	-1.6759657581E-001	-6.2766896065E-001	-6.3829718833E-002	-6.4662359420E-001	-3.0784704206E-001	+1.7468085085E-001
506000000000.000	-3.6115333205E-001	+2.9726078324E-002	-1.9531387770E-001	-6.2804480373E-001	-9.1715990882E-002	-6.5251712863E-001	-3.1047768073E-001	+1.7911168022E-001
506333333333.333	-3.6926430713E-001	+4.7769508642E-002	-2.3258017165E-001	-6.1459586602E-001	-1.3137390045E-001	-6.4589030809E-001	-3.0707079992E-001	+1.9528766485E-001
506666666666.667	-3.6751483860E-001	+6.1565078532E-002	-2.4770021622E-001	-5.8652958789E-001	-1.5259675835E-001	-6.1913725388E-001	-2.9686913521E-001	+2.0443260967E-001
507000000000.000	-3.5694315840E-001	+6.8107101128E-002	-2.5048656217E-001	-5.7217317521E-001	-1.5907343010E-001	-6.0523195130E-001	-2.8953807565E-001	+2.0366675602E-001
507333333333.333	-3.4594390103E-001	+6.7914909207E-002	-2.5594924621E-001	-5.7312924200E-001	-1.6318535584E-001	-6.0758965362E-001	-2.9588961297E-001	+1.9805602193E-001
507666666666.667	-3.4797311623E-001	+7.2801427865E-002	-2.7807950397E-001	-5.7849553058E-001	-1.8568830166E-001	-6.1693370894E-001	-3.0366145582E-001	+2.1301838078E-001
508000000000.000	-3.4846184546E-001	+8.2112469676E-002	-3.0757294188E-001	-5.6733860965E-001	-2.1792226101E-001	-6.0983299330E-001	-2.9406289013E-001	+2.2918012085E-001
508333333333.333	-3.4301974448E-001	+8.2504092590E-002	-3.1872254095E-001	-5.5292329211E-001	-2.3082088856E-001	-5.9602768254E-001	-2.8372430604E-001	+2.3131822933E-001
508666666666.667	-3.4863519727E-001	+8.4096802144E-002	-3.3255004467E-001	-5.4978307393E-001	-2.4503521717E-001	-5.9606020292E-001	-2.7874434706E-001	+2.3608203545E-001
509000000000.000	-3.4744349474E-001	+8.4488760374E-002	-3.5571837789E-001	-5.4494315370E-001	-2.7134049790E-001	-5.9347612699E-001	-2.6946339405E-001	+2.4398486123E-001
509333333333.333	-3.4213696180E-001	+9.2485248834E-002	-3.8242845731E-001	-5.3391609929E-001	-2.9861365825E-001	-5.8565341935E-001	-2.6337881317E-001	+2.4845128267E-001
509666666666.667	-3.4347491676E-001	+1.1829393974E-001	-4.1096924944E-001	-5.1005546963E-001	-3.3295122211E-001	-5.6743143399E-001	-2.5335331164E-001	+2.5932058901E-001
510000000000.000	-3.4173730320E-001	+1.3717793615E-001	-4.1497911359E-001	-4.7711820480E-001	-3.4154861268E-001	-5.3395564568E-001	-2.3539487489E-001	+2.5750316095E-001
510333333333.333	-3.2425385469E-001	+1.4143142299E-001	-4.1080711837E-001	-4.6710547913E-001	-3.3890808550E-001	-5.2180007655E-001	-2.2993249596E-001	+2.4670629117E-001
510666666666.667	-3.0027286856E-001	+1.4029467457E-001	-4.1936315365E-001	-4.6920261654E-001	-3.4762150337E-001	-5.2621668187E-001	-2.4195961327E-001	+2.4387258576E-001
511000000000.000	-3.0445355087E-001	+1.3971366853E-001	-4.4232797015E-001	-4.6845387721E-001	-3.6960709134E-001	-5.2904090864E-001	-2.4740398780E-001	+2.6019580882E-001
511333333333.333	-3.1896279638E-001	+1.3652022790E-001	-4.7440036738E-001	-4.4671373614E-001	-3.9574811124E-001	-5.1911363887E-001	-2.2653784338E-001	+2.7634453009E-001
511666666666.667	-3.0720949245E-001	+1.2653088855E-001	-4.8165690715E-001	-4.3012020263E-001	-4.1601142642E-001	-4.9513484821E-001	-2.0551836374E-001	+2.7282768077E-001
512000000000.000	-2.9244970476E-001	+1.3094310601E-001	-4.9362758075E-001	-4.1964232751E-001	-4.3492949583E-001	-4.8244015825E-001	-1.9809928449E-001	+2.6824128503E-001
512333333333.333	-2.9407843417E-001	+1.3979057274E-001	-5.1382083267E-001	-4.0482471466E-001	-4.5353572525E-001	-4.7255242738E-001	-1.9201858752E-001	+2.7032331408E-001
512666666666.667	-2.9334814244E-001	+1.4322842271E-001	-5.3533053808E-001	-3.8479033181E-001	-4.7714043309E-001	-4.5571957609E-001	-1.8531700663E-001	+2.7478863217E-001
513000000000.000	-2.7774589954E-001	+1.5689042820E-001	-5.5457914145E-001	-3.4990312314E-001	-5.0047004685E-001	-4.2584870024E-001	-1.6570929846E-001	+2.7883102495E-001
513333333333.333	-2.6807647545E-001	+1.8241025629E-001	-5.4617904244E-001	-3.2524150000E-001	-4.9642024788E-001	-3.9695170309E-001	-1.5062377904E-001	+2.5662941040E-001
513666666666.667	-2.6243855787E-001	+1.8747302784E-001	-5.4149247196E-001	-3.2536110125E-001	-4.9298164505E-001	-3.9506446798E-001	-1.6025355190E-001	+2.3652837166E-001
514000000000.000	-2.4456407870E-001	+1.6944811028E-001	-5.5888412349E-001	-3.2287490326E-001	-5.1031363327E-001	-3.9474685833E-001	-1.7506783785E-001	+2.4147917958E-001
514333333333.333	-2.3545851253E-001	+1.5490846418E-001	-5.8337514097E-001	-3.1045894417E-001	-5.3780886619E-001	-3.8350556571E-001	-1.6703833966E-001	+2.6294002796E-001
514666666666.667	-2.5105450712E-001	+1.5711386268E-001	-6.0660408014E-001	-2.7767074196E-001	-5.6335692974E-001	-3.5581943529E-001	-1.3371606754E-001	+2.6310952542E-001
515000000000.000	-2.4009487598E-001	+1.4909332447E-001	-6.0759594378E-001	-2.5093263889E-001	-5.7051581192E-001	-3.2795782865E-001	-1.2596743671E-001	+2.5133261472E-001
515333333333.333	-2.1375793979E-001	+1.4146389218E-001	-6.1369837883E-001	-2.2971767999E-001	-5.7944512621E-001	-3.0941715057E-001	-1.2511421769E-001	+2.5166821526E-001
515666666666.667	-2.1129316190E-001	+1.5068235290E-001	-6.2237282174E-001	-2.1184045583E-001	-5.8817184183E-001	-2.9124536751E-001	-1.1344860135E-001	+2.5003222393E-001
516000000000.000	-2.1997802763E-001	+1.5332646536E-001	-6.3522432422E-001	-1.9077670463E-001	-6.0528624299E-001	-2.7378003326E-001	-1.1167960415E-001	+2.4782511456E-001
516333333333.333	-2.0542636089E-001	+1.5035108666E-001	-6.4102938361E-001	-1.5304506553E-001	-6.1506069398E-001	-2.3688515906E-001	-8.8310345142E-002	+2.4101577338E-001
516666666666.667	-1.8838762217E-001	+1.7039155194E-001	-6.2869733649E-001	-1.3592532379E-001	-6.0475912633E-001	-2.2005254883E-001	-8.6460491801E-002	+2.0664334144E-001
517000000000.000	-1.8785284877E-001	+1.8053180460E-001	-6.3406066565E-001	-1.3431744026E-001	-6.1229253432E-001	-2.1207899804E-001	-1.0624111556E-001	+1.8974201352E-001
517333333333.333	-1.7652323042E-001	+1.5229396509E-001	-6.4811324719E-001	-1.1804988138E-001	-6.2751344025E-001	-2.0116246106E-001	-1.2024923126E-001	+2.0062159118E-001
517666666666.667	-1.6276373664E-001	+1.2073854362E-001	-6.6450908693E-001	-9.5829352188E-002	-6.4757879178E-001	-1.7918934194E-001	-1.0167314243E-001	+2.1783226774E-001
518000000000.000	-1.7220415881E-001	+1.2568831371E-001	-6.7303318506E-001	-6.0266266532E-002	-6.6019521784E-001	-1.4373041697E-001	-7.6370359929E-002	+1.9898152361E-001
518333333333.333	-1.7324830700E-001	+1.2191815526E-001	-6.6758701669E-001	-2.9788228829E-002	-6.5880007695E-001	-1.1292957634E-001	-7.5624553878E-002	+1.9002973400E-001
518666666666.667	-1.5214561980E-001	+1.0506192291E-001	-6.6141781772E-001	-9.6144432919E-003	-6.5556831231E-001	-9.0823372458E-002	-7.3450714989E-002	+1.8776915688E-001
519000000000.000	-1.4425693047E-001	+1.1333110653E-001	-6.6349497215E-001	+9.9079820463E-003	-6.6007281628E-001	-7.0411981977E-002	-7.0857712312E-002	+1.7797886295E-001
519333333333.333	-1.4978436144E-001	+1.1930060903E-001	-6.7040812076E-001	+3.2250120078E-002	-6.6973213991E-001	-4.8842816257E-002	-7.2624463761E-002	+1.7134712316E-001
519666666666.667	-1.4476652979E-001	+1.0517524961E-001	-6.6400154495E-001	+6.4842002075E-002	-6.6708979504E-001	-1.2428556496E-002	-6.7543922042E-002	+1.5932450518E-001
520000000000.000	-1.3623122604E-001	+1.0441643991E-001	-6.5723300751E-001	+8.5188699785E-002	-6.6268695149E-001	+6.4148519611E-003	-7.3029472572E-002	+1.3885202234E-001
520333333333.333	-1.4196985026E-001	+1.1188844412E-001	-6.5351893549E-001	+1.0008959260E-001	-6.6080221159E-001	+2.4362736567E-002	-8.1842484924E-002	+1.2342319377E-001
520666666666.667	-1.3762219527E-001	+8.5584163788E-002	-6.5333820802E-001	+1.1947075294E-001	-6.6281579588E-001	+4.3116243944E-002	-8.5829176401E-002	+1.2961441095E-001
521000000000.000	-1.2869611048E-001	+5.6024789447E-002	-6.5619197485E-001	+1.4284730178E-001	-6.6824831085E-001	+6.6655104453E-002	-7.4904019532E-002	+1.2563443273E-001
521333333333.333	-1.2585286901E-001	+6.1416046982E-002	-6.5287370977E-001	+1.7495656469E-001	-6.6791220009E-001	+9.9578301224E-002	-7.7574232529E-002	+1.1563107130E-001
521666666666.667	-1.3272538830E-001	+5.7409351585E-002	-6.4276795910E-001	+2.0094185882E-001	-6.6144409414E-001	+1.2637819876E-001	-7.5630069801E-002	+1.1578254513E-001
522000000000.000	-1.2618916025E-001	+3.9458777371E-002	-6.2840093956E-001	+2.2396728515E-001	-6.5018497461E-001	+1.5058750446E-001	-7.2888038350E-002	+1.0842766200E-001
522333333333.333	-1.2211071562E-001	+4.0516465334E-002	-6.1962890601E-001	+2.4154288527E-001	-6.4312576503E-001	+1.6912533661E-001	-8.2547922295E-002	+9.3577293382E-002
522666666666.667	-1.2727992267E-001	+4.9092053832E-002	-6.1568419219E-001	+2.6367676925E-001	-6.4241730703E-001	+1.9247026950E-001	-9.2646509847E-002	+8.7053390948E-002
523000000000.000	-1.3522828957E-001	+3.6188674318E-002	-6.0269531438E-001	+2.8883014642E-001	-6.3291317143E-001	+2.1763413792E-001	-9.4229625934E-002	+7.8090911118E-002
523333333333.333	-1.3895966319E-001	+2.3584447193E-002	-5.9235743146E-001	+3.0902733695E-001	-6.2530333646E-001	+2.3842734761E-001	-1.0218077728E-001	+6.5525022679E-002
523666666666.667	-1.4070653012E-001	+2.5493372076E-002	-5.7751662024E-001	+3.3179711390E-001	-6.1366404849E-001	+2.6174032821E-001	-1.1138514576E-001	+5.8306301240E-002
524000000000.000	-1.3947599410E-001	+9.2089754616E-003	-5.6413633807E-001	+3.4789255762E-001	-6.0126964450E-001	+2.7887286310E-001	-1.1593647900E-001	+5.6944839615E-002
524333333333.333	-1.4268587024E-001	-1.4190896711E-002	-5.5595762150E-001	+3.6889381459E-001	-5.9616511505E-001	+2.9968656261E-001	-1.1876955222E-001	+5.4043649020E-002
524666666666.667	-1.3984327452E-001	-1.3175465833E-002	-5.3893447503E-001	+3.9346149184E-001	-5.8358031646E-001	+3.2500277659E-001	-1.2608148318E-001	+5.4620867848E-002
525000000000.000	-1.4015526532E-001	-1.5447393084E-002	-5.2436669134E-001	+4.1288901581E-001	-5.7124752578E-001	+3.4740736406E-001	-1.2732453060E-001	+5.3978360244E-002
525333333333.333	-1.4921163774E-001	-2.5738945400E-002	-5.0569844050E-001	+4.3158926271E-001	-5.5440886850E-001	+3.6920763930E-001	-1.3394329256E-001	+4.4956590228E-002
525666666666.667	-1.5773984303E-001	-2.2796170341E-002	-4.8935234164E-001	+4.4662239261E-001	-5.4080766099E-001	+3.8474599035E-001	-1.4980710590E-001	+4.0021631065E-002
526000000000.000	-1.6232508716E-001	-1.7993962566E-002	-4.7448680212E-001	+4.6688104277E-001	-5.2674703724E-001	+4.0668817895E-001	-1.5786736794E-001	+4.1066864246E-002
526333333333.333	-1.7351660353E-001	-2.5881571609E-002	-4.4950997609E-001	+4.8122910704E-001	-5.0498163607E-001	+4.2378948157E-001	-1.6378086676E-001	+3.1760041556E-002
526666666666.667	-1.8730355562E-001	-3.8760320094E-002	-4.3437565699E-001	+4.9273947750E-001	-4.9076955797E-001	+4.3668508743E-001	-1.7573210770E-001	+2.6402748438E-002
527000000000.000	-1.9115792884E-001	-4.0251346699E-002	-4.1634671110E-001	+5.0773273979E-001	-4.7530937858E-001	+4.5384178616E-001	-1.8037401934E-001	+3.1908032342E-002
527333333333.333	-1.8530961093E-001	-4.8632655335E-002	-3.9610393519E-001	+5.2013928747E-001	-4.5868104748E-001	+4.6608766990E-001	-1.8057498045E-001	+2.7280884163E-002
527666666666.667	-1.9447322097E-001	-6.0876745490E-002	-3.8294402162E-001	+5.3543405892E-001	-4.4577142071E-001	+4.8464059500E-001	-1.9627701146E-001	+2.9722640310E-002
528000000000.000	-2.0173605838E-001	-5.7057916384E-002	-3.5529425836E-001	+5.5105648737E-001	-4.2209473487E-001	+5.0273859685E-001	-2.0286331982E-001	+4.0557500518E-002
528333333333.333	-2.0052396766E-001	-5.7422623651E-002	-3.3464243034E-001	+5.6055664514E-001	-4.0359929408E-001	+5.1392142874E-001	-2.0318155562E-001	+4.6424159479E-002
528666666666.667	-2.1010004743E-001	-5.7472138993E-002	-3.1375686379E-001	+5.7146292535E-001	-3.8411780921E-001	+5.2512182921E-001	-2.0850565539E-001	+4.7054476945E-002
