! Python used to change reference impedance from 50 to 1.
# Hz S RI R 1
490000000000.000	-1.2387761208E-001	+6.2480162453E-002	+6.7534938544E-001	-1.6522169886E-001	+6.9373414413E-001	-7.1534362496E-002	-7.9212698356E-002	+1.1159594591E-001
490333333333.333	-1.3489676013E-001	+5.5539040215E-002	+6.6835958171E-001	-1.8107077273E-001	+6.8698032754E-001	-9.8184225340E-002	-8.2583821324E-002	+1.1040350853E-001
490666666666.667	-1.5177436008E-001	+2.3899907296E-002	+6.5915766808E-001	-2.0778551852E-001	+6.8472312932E-001	-1.1706808771E-001	-9.8607840613E-002	+9.5526905055E-002
491000000000.000	-1.5328472236E-001	+2.0644032975E-002	+6.3414940915E-001	-2.3249285538E-001	+6.8152814688E-001	-1.3227876042E-001	-1.0558307004E-001	+7.3505761375E-002
491333333333.333	-1.2735048249E-001	+1.8840997462E-002	+6.3176546845E-001	-2.5983964410E-001	+6.8014596090E-001	-1.6077066716E-001	-1.0668161992E-001	+6.8211027923E-002
491666666666.667	-1.2668987669E-001	+1.3077320847E-002	+6.1698078512E-001	-2.8771847729E-001	+6.7735005787E-001	-1.8390520828E-001	-1.0700155437E-001	+5.1368632389E-002
492000000000.000	-1.2223990092E-001	-5.8582562531E-004	+6.0067437983E-001	-3.0447813047E-001	+6.6482994034E-001	-2.0553723313E-001	-1.1150982369E-001	+4.8702714243E-002
492333333333.333	-1.1348065154E-001	+5.8422497426E-003	+5.8612520601E-001	-3.3260979807E-001	+6.6205533461E-001	-2.2678766184E-001	-1.1154206320E-001	+5.3556147844E-002
492666666666.667	-1.2703866516E-001	+1.1644150667E-002	+5.7894986499E-001	-3.4896234243E-001	+6.5374933859E-001	-2.4650424375E-001	-1.1607346835E-001	+5.0529217542E-002
493000000000.000	-1.3681550309E-001	-4.5397913318E-003	+5.8042125644E-001	-3.8232555097E-001	+6.5671501640E-001	-2.7854518683E-001	-1.2645185943E-001	+5.1021489306E-002
493333333333.333	-1.4013069353E-001	-1.6402219240E-002	+5.5924933536E-001	-4.0225205756E-001	+6.3613193924E-001	-3.1018167517E-001	-1.3795794794E-001	+5.1222992511E-002
493666666666.667	-1.5637722370E-001	-2.0369320571E-002	+5.4704527695E-001	-4.2188498607E-001	+6.2201262404E-001	-3.2683421009E-001	-1.4741730844E-001	+4.0602504398E-002
494000000000.000	-1.5958346394E-001	-3.5501454065E-002	+5.1734653160E-001	-4.2370673079E-001	+6.0622633823E-001	-3.5563117196E-001	-1.5866814127E-001	+3.0673970758E-002
494333333333.333	-1.7086489762E-001	-6.9224281211E-002	+5.1104233653E-001	-4.5340870808E-001	+5.9188039895E-001	-3.6215641000E-001	-1.6548507713E-001	+2.1627715040E-002
494666666666.667	-1.5799941344E-001	-5.2993373459E-002	+5.0336528555E-001	-4.7655912483E-001	+5.7815046979E-001	-3.8930209378E-001	-1.7251038524E-001	+1.7260868442E-002
495000000000.000	-1.7458645172E-001	-5.4335890840E-002	+4.7670924263E-001	-4.9120652951E-001	+5.5687711276E-001	-4.1230012916E-001	-1.7649874853E-001	+9.1452147099E-003
495333333333.333	-1.6684462591E-001	-7.4838690972E-002	+4.5542785079E-001	-5.0569434970E-001	+5.3388247740E-001	-4.2758758003E-001	-1.8265054938E-001	+3.1673853751E-003
495666666666.667	-1.6282917256E-001	-5.4134016644E-002	+4.4247796244E-001	-5.1724927036E-001	+5.1811359291E-001	-4.4108870968E-001	-1.8752841911E-001	+1.2964297037E-002
496000000000.000	-1.9310153217E-001	-3.8641028198E-002	+4.3092666646E-001	-5.2989670696E-001	+5.0821289983E-001	-4.5785059929E-001	-1.9906632500E-001	+1.2590314883E-002
496333333333.333	-2.1614373028E-001	-6.5075627376E-002	+4.0967249383E-001	-5.5016607961E-001	+4.8955597488E-001	-4.8486642405E-001	-2.1126042254E-001	+1.7739140497E-002
496666666666.667	-2.1261784378E-001	-6.9131485289E-002	+3.8011239821E-001	-5.6779576265E-001	+4.6755531793E-001	-5.0350203675E-001	-2.2304231072E-001	+3.1115642768E-002
497000000000.000	-2.3045465181E-001	-7.3212364419E-002	+3.5871968249E-001	-5.7350814187E-001	+4.3999776029E-001	-5.1804119621E-001	-2.3400654411E-001	+2.7489177116E-002
497333333333.333	-2.3550421906E-001	-9.4081399898E-002	+3.2937003082E-001	-5.7598214598E-001	+4.1657977042E-001	-5.2339009339E-001	-2.3983630233E-001	+1.8652273392E-002
497666666666.667	-2.2363107196E-001	-9.5342164351E-002	+3.1284263119E-001	-5.8503038466E-001	+4.0085718837E-001	-5.3529445694E-001	-2.4614159222E-001	+2.6277498588E-002
498000000000.000	-2.2877542704E-001	-8.4339247156E-002	+2.9378490012E-001	-5.9998978000E-001	+3.8434954894E-001	-5.5183837531E-001	-2.5472884003E-001	+2.7021940827E-002
498333333333.333	-2.4450060844E-001	-8.5414784205E-002	+2.6980517640E-001	-6.0578323623E-001	+3.6237916591E-001	-5.6172592752E-001	-2.5481082634E-001	+2.0414714609E-002
498666666666.667	-2.4554716511E-001	-8.0660006337E-002	+2.4723144149E-001	-6.1098486399E-001	+3.4207382077E-001	-5.6940880957E-001	-2.5405877381E-001	+2.6822002364E-002
499000000000.000	-2.5643929652E-001	-6.0673047258E-002	+2.3458615278E-001	-6.1914238027E-001	+3.2731683078E-001	-5.7799447831E-001	-2.6544262799E-001	+3.5286434774E-002
499333333333.333	-2.7784394850E-001	-5.9263713284E-002	+2.1645615457E-001	-6.2736332324E-001	+3.1202172442E-001	-5.8970808596E-001	-2.7334101264E-001	+3.8983939032E-002
499666666666.667	-2.9415087145E-001	-6.7264942961E-002	+1.9001846957E-001	-6.3942322142E-001	+2.8559936574E-001	-6.0528657541E-001	-2.8270530029E-001	+5.4448733217E-002
500000000000.000	-2.9483403132E-001	-6.5764715718E-002	+1.6123686070E-001	-6.4324228131E-001	+2.5787243310E-001	-6.1341207143E-001	-2.9262686511E-001	+6.3707805750E-002
500333333333.333	-3.0489569702E-001	-6.3433077384E-002	+1.3701994657E-001	-6.4170107941E-001	+2.3513877413E-001	-6.1674841023E-001	-3.0380549844E-001	+6.9671904203E-002
500666666666.667	-3.1285026589E-001	-7.0467879223E-002	+1.1651519455E-001	-6.4089453434E-001	+2.1261575095E-001	-6.1795179255E-001	-3.0804945437E-001	+6.9488120315E-002
501000000000.000	-3.0728074357E-001	-6.7097302933E-002	+9.8194928975E-002	-6.4486715292E-001	+1.9550580732E-001	-6.2499347493E-001	-3.1212231370E-001	+7.4348554832E-002
501333333333.333	-3.0914541406E-001	-5.8647104580E-002	+7.2172534613E-002	-6.4990236501E-001	+1.6911761529E-001	-6.3275206270E-001	-3.1453050231E-001	+8.0667103985E-002
501666666666.667	-3.1488092448E-001	-5.5487025586E-002	+5.5491326746E-002	-6.4388406823E-001	+1.4845485121E-001	-6.2852497677E-001	-3.0806552393E-001	+8.3556368274E-002
502000000000.000	-3.1820199668E-001	-4.6647283191E-002	+4.1432622404E-002	-6.4466694150E-001	+1.3514173247E-001	-6.3184536359E-001	-3.0849481336E-001	+8.5874916743E-002
502333333333.333	-3.2886896612E-001	-2.9277929845E-002	+2.4587624724E-002	-6.5404477974E-001	+1.1829168090E-001	-6.4339266037E-001	-3.1391207017E-001	+9.7641993206E-002
502666666666.667	-3.4630659573E-001	-2.8816676934E-002	+5.8587070305E-004	-6.6033827265E-001	+9.5205399374E-002	-6.5384690461E-001	-3.2045877346E-001	+1.0703095017E-001
503000000000.000	-3.5356405714E-001	-2.3136679133E-002	-3.8142885498E-002	-6.5964533616E-001	+5.6176271423E-002	-6.5657763049E-001	-3.1777819617E-001	+1.2249143475E-001
503333333333.333	-3.5141431838E-001	-1.1935463827E-002	-6.4127498077E-002	-6.4235486793E-001	+2.9500368420E-002	-6.4485572941E-001	-3.1635108832E-001	+1.3132374873E-001
503666666666.667	-3.5279599890E-001	-7.0316043591E-003	-7.8151867926E-002	-6.2906500699E-001	+1.3215278089E-002	-6.3379738052E-001	-3.1610002862E-001	+1.3826066265E-001
504000000000.000	-3.5128491754E-001	-6.4717994535E-003	-8.5742492846E-002	-6.2637961634E-001	+2.1055889687E-003	-6.3109799337E-001	-3.2097221653E-001	+1.3940023653E-001
504333333333.333	-3.5247387984E-001	+1.7146623264E-003	-1.0598974861E-001	-6.3295109031E-001	-1.2835407477E-002	-6.4164277216E-001	-3.2816722784E-001	+1.4661258732E-001
504666666666.667	-3.5122028665E-001	+1.4411107837E-002	-1.3440354959E-001	-6.3149995570E-001	-4.2670167824E-002	-6.4420979695E-001	-3.2756613381E-001	+1.5781616397E-001
505000000000.000	-3.4920742502E-001	+1.7690667205E-002	-1.5301835692E-001	-6.1755488201E-001	-5.9955129203E-002	-6.3342313240E-001	-3.1899681141E-001	+1.6236464208E-001
505333333333.333	-3.5570151845E-001	+2.1350116310E-002	-1.6417573226E-001	-6.1621913071E-001	-7.1718238153E-002	-6.3387736273E-001	-3.1381948334E-001	+1.6899152903E-001
505666666666.667	-3.5830224428E-001	+2.5531982697E-002	-1.8546593515E-001	-6.2030135746E-001	-9.2859235415E-002	-6.4058527105E-001	-3.0717760775E-001	+1.7683046522E-001
506000000000.000	-3.6413900993E-001	+2.9332483185E-002	-2.1374090166E-001	-6.1916350695E-001	-1.2065001148E-001	-6.4530566383E-001	-3.0946890990E-001	+1.8213050626E-001
506333333333.333	-3.7037933275E-001	+4.8725008102E-002	-2.5196962381E-001	-6.0428401736E-001	-1.5872364597E-001	-6.3634669799E-001	-3.0512588145E-001	+1.9935257033E-001
506666666666.667	-3.6738184790E-001	+6.4421313461E-002	-2.6492651779E-001	-5.7544061675E-001	-1.7775042157E-001	-6.0925660734E-001	-2.9370520439E-001	+2.0853326835E-001
507000000000.000	-3.5679365304E-001	+7.3656893103E-002	-2.6711147684E-001	-5.6075079477E-001	-1.8275447757E-001	-5.9470113235E-001	-2.8579662434E-001	+2.0696715399E-001
507333333333.333	-3.4526646407E-001	+7.3771569303E-002	-2.7299948744E-001	-5.6259636232E-001	-1.8616582724E-001	-5.9880144713E-001	-2.9299247127E-001	+1.9789020693E-001
507666666666.667	-3.4740265757E-001	+7.6978784387E-002	-2.9501078681E-001	-5.6739602215E-001	-2.0861801185E-001	-6.0753680731E-001	-3.0091734955E-001	+2.1036511802E-001
508000000000.000	-3.4676683384E-001	+8.4829723005E-002	-3.2481250410E-001	-5.5531422970E-001	-2.4090738798E-001	-5.9957178667E-001	-2.9042331331E-001	+2.2633793298E-001
508333333333.333	-3.3849916372E-001	+8.4665004626E-002	-3.3590187245E-001	-5.4076110143E-001	-2.5515557242E-001	-5.8547165709E-001	-2.7905293827E-001	+2.2783239515E-001
508666666666.667	-3.4032089263E-001	+8.7140185170E-002	-3.5134916129E-001	-5.3770350134E-001	-2.6911535662E-001	-5.8577331645E-001	-2.7251352632E-001	+2.3221878952E-001
509000000000.000	-3.4068673732E-001	+9.1659333747E-002	-3.7611415549E-001	-5.3121944713E-001	-2.9625628918E-001	-5.8152956536E-001	-2.6259925880E-001	+2.4081160021E-001
509333333333.333	-3.4082061132E-001	+9.7300719142E-002	-4.0202942779E-001	-5.1930637736E-001	-3.2443896656E-001	-5.7172200525E-001	-2.5703901854E-001	+2.4423116951E-001
509666666666.667	-3.4118868598E-001	+1.1648929877E-001	-4.2914061572E-001	-4.9485796120E-001	-3.5775515895E-001	-5.5178620152E-001	-2.4706948937E-001	+2.5383999512E-001
510000000000.000	-3.3453228110E-001	+1.3530015932E-001	-4.3277969365E-001	-4.6027550206E-001	-3.6425721827E-001	-5.1749899590E-001	-2.2817306701E-001	+2.4974670520E-001
510333333333.333	-3.1721532039E-001	+1.4328616264E-001	-4.2820366071E-001	-4.5019967610E-001	-3.6159297986E-001	-5.0592431454E-001	-2.2270998978E-001	+2.3665206818E-001
510666666666.667	-2.9657680828E-001	+1.3914923990E-001	-4.3803893007E-001	-4.5252024312E-001	-3.7065835327E-001	-5.1018637676E-001	-2.3445409722E-001	+2.3248329812E-001
511000000000.000	-2.9494256611E-001	+1.3232231348E-001	-4.6183992717E-001	-4.5044824594E-001	-3.9281908583E-001	-5.1229836712E-001	-2.3833351022E-001	+2.4780654475E-001
511333333333.333	-3.0042707948E-001	+1.3323466133E-001	-4.9334585628E-001	-4.2689697360E-001	-4.1927165723E-001	-5.0077115220E-001	-2.1650128173E-001	+2.6430576198E-001
511666666666.667	-2.9053649284E-001	+1.3150572965E-001	-5.0059943836E-001	-4.0979112291E-001	-4.3928572627E-001	-4.7534975513E-001	-1.9641488996E-001	+2.6100494884E-001
512000000000.000	-2.8202412771E-001	+1.3276266499E-001	-5.1239840564E-001	-3.9901875417E-001	-4.5756681532E-001	-4.6344608859E-001	-1.9058438804E-001	+2.5646485660E-001
512333333333.333	-2.8104332569E-001	+1.3696579300E-001	-5.3213440823E-001	-3.8368111261E-001	-4.7590337423E-001	-4.5262333967E-001	-1.8450567448E-001	+2.5811929465E-001
512666666666.667	-2.8087142715E-001	+1.4286394927E-001	-5.5354019970E-001	-3.6128392962E-001	-4.9906498235E-001	-4.3472561765E-001	-1.7960356733E-001	+2.6168537694E-001
513000000000.000	-2.7181861611E-001	+1.5269733268E-001	-5.7074813245E-001	-3.2489064799E-001	-5.2138322855E-001	-4.0215227065E-001	-1.6095966417E-001	+2.6206399977E-001
513333333333.333	-2.6240772977E-001	+1.6787441157E-001	-5.6205223388E-001	-2.9868579286E-001	-5.1550421810E-001	-3.7326581591E-001	-1.4562740574E-001	+2.3537564712E-001
513666666666.667	-2.4685153201E-001	+1.7148716544E-001	-5.5716444941E-001	-2.9943177223E-001	-5.1261351221E-001	-3.7098877389E-001	-1.5594416215E-001	+2.1413445568E-001
514000000000.000	-2.2867231476E-001	+1.5914230101E-001	-5.7613421934E-001	-2.9401454107E-001	-5.2925852868E-001	-3.7080110806E-001	-1.6887487616E-001	+2.1844907712E-001
514333333333.333	-2.2097788278E-001	+1.4223876182E-001	-5.9931679062E-001	-2.7956588637E-001	-5.5585730387E-001	-3.5795860447E-001	-1.5911769193E-001	+2.3816778631E-001
514666666666.667	-2.2903034987E-001	+1.4288022236E-001	-6.2049611758E-001	-2.4697648387E-001	-5.7928323656E-001	-3.3013022609E-001	-1.2459158616E-001	+2.4038948352E-001
515000000000.000	-2.1708909680E-001	+1.4420130801E-001	-6.2073309099E-001	-2.1970249837E-001	-5.8703400525E-001	-3.0131379927E-001	-1.1892928883E-001	+2.3097562165E-001
515333333333.333	-2.0263985747E-001	+1.3743240532E-001	-6.2716096835E-001	-1.9689892125E-001	-5.9578585775E-001	-2.8228485598E-001	-1.2002315143E-001	+2.3202371371E-001
515666666666.667	-2.0168866973E-001	+1.3625678616E-001	-6.3531309109E-001	-1.7881168887E-001	-6.0414527029E-001	-2.6353654022E-001	-1.0807220414E-001	+2.2983375425E-001
516000000000.000	-2.0323778156E-001	+1.3847137272E-001	-6.4772781311E-001	-1.5541582422E-001	-6.2169924901E-001	-2.4423488582E-001	-1.0995381698E-001	+2.2665518251E-001
516333333333.333	-1.9579600850E-001	+1.3903948949E-001	-6.5044170511E-001	-1.1700350470E-001	-6.2795598943E-001	-2.0569961520E-001	-8.9927384629E-002	+2.1536855794E-001
516666666666.667	-1.8543212938E-001	+1.4805630235E-001	-6.3675833898E-001	-9.8852286091E-002	-6.1622368174E-001	-1.8862446566E-001	-9.1429004871E-002	+1.7868660520E-001
517000000000.000	-1.7351720717E-001	+1.4870953988E-001	-6.4196486403E-001	-9.5165292759E-002	-6.2351220950E-001	-1.7952004884E-001	-1.1008893303E-001	+1.6207959303E-001
517333333333.333	-1.5606367534E-001	+1.2962147791E-001	-6.5461698321E-001	-7.7784526986E-002	-6.3708372697E-001	-1.6785135738E-001	-1.2396611054E-001	+1.7148706266E-001
517666666666.667	-1.5086285670E-001	+1.0406718018E-001	-6.6848908211E-001	-5.5944783402E-002	-6.5560779391E-001	-1.4552322128E-001	-1.0526047934E-001	+1.8545955976E-001
518000000000.000	-1.6043789455E-001	+1.0213171554E-001	-6.7528687756E-001	-2.2430421082E-002	-6.6650530910E-001	-1.1020001786E-001	-7.9444213444E-002	+1.6780480088E-001
518333333333.333	-1.5572787968E-001	+1.0315334392E-001	-6.6900137723E-001	+7.8274188585E-003	-6.6439962091E-001	-7.9889196454E-002	-7.9275853095E-002	+1.6211269934E-001
518666666666.667	-1.4386216234E-001	+9.3064619152E-002	-6.6218309670E-001	+2.9869265133E-002	-6.6085131406E-001	-5.7416810949E-002	-7.8672742449E-002	+1.6053014746E-001
519000000000.000	-1.4598463842E-001	+9.1986883886E-002	-6.6287951621E-001	+5.1420278221E-002	-6.6448798737E-001	-3.5476445728E-002	-7.7565683617E-002	+1.4903340301E-001
519333333333.333	-1.4421349096E-001	+9.1757099000E-002	-6.6755774976E-001	+7.3885850516E-002	-6.7191976141E-001	-1.2865150733E-002	-8.3022446045E-002	+1.4062267085E-001
519666666666.667	-1.3751647610E-001	+8.2728150906E-002	-6.5884277744E-001	+1.0424506049E-001	-6.6671065569E-001	+2.2388096263E-002	-8.4591570545E-002	+1.2899392875E-001
520000000000.000	-1.3617291081E-001	+7.6487254217E-002	-6.5085823155E-001	+1.2327623834E-001	-6.6121287515E-001	+4.1206753527E-002	-9.0990933499E-002	+1.0779927878E-001
520333333333.333	-1.3514487209E-001	+7.3384930202E-002	-6.4510129625E-001	+1.4076438516E-001	-6.5775789309E-001	+6.0704319663E-002	-9.7110994961E-002	+9.3188811879E-002
520666666666.667	-1.2238174560E-001	+5.6178692525E-002	-6.4251026910E-001	+1.5960127600E-001	-6.5719142972E-001	+8.0905060171E-002	-9.9443062024E-002	+1.0100598914E-001
521000000000.000	-1.2349417520E-001	+3.6804141864E-002	-6.4399482752E-001	+1.8190778161E-001	-6.6117938573E-001	+1.0230021148E-001	-8.9320455868E-002	+9.6841681883E-002
521333333333.333	-1.2826448226E-001	+3.5164760360E-002	-6.3892943587E-001	+2.1317927820E-001	-6.5998300519E-001	+1.3453625214E-001	-9.2721102024E-002	+8.8225023100E-002
521666666666.667	-1.2984676678E-001	+2.9327086151E-002	-6.2795500129E-001	+2.3828131771E-001	-6.5220369295E-001	+1.6138242025E-001	-9.1910329597E-002	+9.1267969739E-002
522000000000.000	-1.2764315698E-001	+2.0213072934E-002	-6.1232756947E-001	+2.6097139260E-001	-6.3991469619E-001	+1.8532617869E-001	-9.1920075447E-002	+8.5293610419E-002
522333333333.333	-1.3378203343E-001	+1.8182577774E-002	-6.0215938722E-001	+2.7873855219E-001	-6.3223853350E-001	+2.0245113865E-001	-1.0464274401E-001	+6.9298107574E-002
522666666666.667	-1.3570671351E-001	+1.7393753703E-002	-5.9737073956E-001	+2.9908172029E-001	-6.3042006067E-001	+2.2406058027E-001	-1.1613055166E-001	+6.2100895996E-002
523000000000.000	-1.3600105024E-001	+5.4687266638E-003	-5.8282729209E-001	+3.2358601515E-001	-6.1908357527E-001	+2.4966680327E-001	-1.1863903723E-001	+5.4131641999E-002
523333333333.333	-1.4184944816E-001	-5.1589754605E-003	-5.7129458576E-001	+3.4335281730E-001	-6.1043218912E-001	+2.7090156204E-001	-1.2777289480E-001	+4.1754373568E-002
523666666666.667	-1.4510562811E-001	-6.5605897192E-003	-5.5445908829E-001	+3.6484535177E-001	-5.9615856908E-001	+2.9375937124E-001	-1.3528198708E-001	+3.5808443367E-002
524000000000.000	-1.4097163496E-001	-1.9983790518E-002	-5.3857539656E-001	+3.7934174789E-001	-5.8128230537E-001	+3.1028613026E-001	-1.3788997754E-001	+3.6335570497E-002
524333333333.333	-1.4781282617E-001	-3.4812385988E-002	-5.2998113275E-001	+3.9758678270E-001	-5.7447609622E-001	+3.2997170868E-001	-1.4071852542E-001	+3.5923846101E-002
524666666666.667	-1.5267419265E-001	-3.3102299261E-002	-5.1220454537E-001	+4.2022663909E-001	-5.6092661744E-001	+3.5393671384E-001	-1.5037397097E-001	+3.9377047819E-002
525000000000.000	-1.5406747441E-001	-3.8645046384E-002	-4.9687032278E-001	+4.3872407151E-001	-5.4788263396E-001	+3.7488240139E-001	-1.5372350467E-001	+4.0920883307E-002
525333333333.333	-1.6383885715E-001	-4.7116142187E-002	-4.7814069009E-001	+4.5528546761E-001	-5.3020195939E-001	+3.9510594799E-001	-1.6086716407E-001	+3.3368835749E-002
525666666666.667	-1.7541898717E-001	-4.3475161538E-002	-4.6155636734E-001	+4.6879859369E-001	-5.1700059398E-001	+4.0834093369E-001	-1.7711316837E-001	+2.8637431403E-002
526000000000.000	-1.7940530622E-001	-4.3549173871E-002	-4.4720659980E-001	+4.8814799785E-001	-5.0232300090E-001	+4.2972319514E-001	-1.8569128219E-001	+2.7630587742E-002
526333333333.333	-1.8453369622E-001	-5.2882507583E-002	-4.2070235614E-001	+5.0118167920E-001	-4.7996879587E-001	+4.4587168234E-001	-1.8921344079E-001	+1.6748360169E-002
526666666666.667	-1.9503639014E-001	-6.1933759702E-002	-4.0455536507E-001	+5.1188263447E-001	-4.6474886293E-001	+4.5810701424E-001	-1.9758790152E-001	+1.3496925037E-002
527000000000.000	-2.0178778338E-001	-6.0214133487E-002	-3.8527684249E-001	+5.2522270531E-001	-4.4674647140E-001	+4.7521098607E-001	-1.9921660934E-001	+2.1244264698E-002
527333333333.333	-1.9990906703E-001	-6.5952372744E-002	-3.6497488590E-001	+5.3500188755E-001	-4.3019233826E-001	+4.8420948908E-001	-1.9682407744E-001	+1.7478885959E-002
527666666666.667	-2.1039511160E-001	-7.4444754084E-002	-3.5241801121E-001	+5.4830575061E-001	-4.1742496009E-001	+5.0104499345E-001	-2.1104520970E-001	+2.5671512559E-002
528000000000.000	-2.1977961629E-001	-6.7992444131E-002	-3.2358624376E-001	+5.6293385581E-001	-3.9414813920E-001	+5.1667988734E-001	-2.1982472700E-001	+4.4141176387E-002
528333333333.333	-2.2173732920E-001	-6.8985899111E-002	-3.0444208017E-001	+5.7110820296E-001	-3.7481440198E-001	+5.2766877656E-001	-2.2426844932E-001	+5.2058487309E-002
528666666666.667	-2.3217908484E-001	-7.1482009199E-002	-2.8454177557E-001	+5.8053959661E-001	-3.5612718989E-001	+5.3731435911E-001	-2.2990107809E-001	+5.3573693619E-002
