! Python used to change reference impedance from 50 to 1.
# Hz S RI R 1
490000000000.000	-1.1239010478E-001	+5.5400749158E-002	+6.8127994079E-001	-1.5835280004E-001	+6.9203797198E-001	-8.4074523672E-002	-9.3652365603E-002	+1.0556827019E-001
490333333333.333	-1.1852658544E-001	+8.7006220564E-002	+6.6847175261E-001	-1.7720387320E-001	+6.8391224140E-001	-1.1214912445E-001	-7.7464551446E-002	+9.2266602964E-002
490666666666.667	-1.9183671108E-001	+5.1278580145E-002	+6.5966474792E-001	-2.0408809092E-001	+6.8129528381E-001	-1.3127203172E-001	-8.6340770441E-002	+9.5244480961E-002
491000000000.000	-1.8078529799E-001	-1.7591233143E-003	+6.3822446434E-001	-2.2689352758E-001	+6.8308479707E-001	-1.4500534154E-001	-1.0978953318E-001	+7.5097146286E-002
491333333333.333	-1.2325896554E-001	-1.0616682410E-002	+6.3622303964E-001	-2.5434963127E-001	+6.8063575476E-001	-1.7457668658E-001	-1.0327276597E-001	+6.1045795138E-002
491666666666.667	-1.3390790784E-001	-4.5259268235E-003	+6.1761336808E-001	-2.8133150429E-001	+6.7480630597E-001	-1.9891380715E-001	-9.7573309696E-002	+6.0776078054E-002
492000000000.000	-1.1947201150E-001	-3.2547332316E-002	+6.0430724147E-001	-3.0172391640E-001	+6.6759626080E-001	-2.2006100782E-001	-1.2351686065E-001	+6.2106484771E-002
492333333333.333	-7.3208241399E-002	-4.6493316286E-003	+5.8800517357E-001	-3.2498570180E-001	+6.5772378761E-001	-2.3740081132E-001	-1.2017444680E-001	+4.8792717385E-002
492666666666.667	-9.6429655347E-002	+4.2260449310E-002	+5.7979145250E-001	-3.4818055287E-001	+6.5247436088E-001	-2.5783381264E-001	-1.1175746388E-001	+4.9041571450E-002
493000000000.000	-1.5068073866E-001	+1.1474073887E-002	+5.8571981725E-001	-3.7562435763E-001	+6.5152820058E-001	-2.8936047398E-001	-1.3706713757E-001	+5.5012558970E-002
493333333333.333	-1.3662572568E-001	-6.6147840141E-003	+5.6320876065E-001	-3.9625487967E-001	+6.2722560103E-001	-3.2138641903E-001	-1.4626990315E-001	+3.3307551477E-002
493666666666.667	-1.7585176555E-001	+1.6308326831E-002	+5.5188993512E-001	-4.1734446695E-001	+6.1346158663E-001	-3.4255530677E-001	-1.3310279843E-001	+2.8380171774E-002
494000000000.000	-2.1946081914E-001	-3.4272639233E-002	+5.2623603657E-001	-4.2494348160E-001	+6.0097181658E-001	-3.6514324179E-001	-1.5387152589E-001	+3.5857640781E-002
494333333333.333	-2.0118648762E-001	-1.2092399256E-001	+5.1554536689E-001	-4.4787614767E-001	+5.8734257529E-001	-3.7948042561E-001	-1.7221191189E-001	+1.8699146156E-002
494666666666.667	-1.3598113171E-001	-8.5325318445E-002	+5.0240264504E-001	-4.7683594432E-001	+5.7445920233E-001	-4.0177165078E-001	-1.6236953307E-001	+1.0821315105E-002
495000000000.000	-1.7366853862E-001	-6.8302128057E-002	+4.7788734409E-001	-4.8820128931E-001	+5.5149550603E-001	-4.2288864270E-001	-1.7279615968E-001	+2.2363609302E-002
495333333333.333	-1.5225116152E-001	-1.1245158141E-001	+4.5446058426E-001	-5.0339433893E-001	+5.2835154595E-001	-4.3739910201E-001	-1.9637053277E-001	+9.8079478187E-003
495666666666.667	-1.1351415462E-001	-4.9986012764E-002	+4.4248746927E-001	-5.1327565412E-001	+5.1435306649E-001	-4.5028713095E-001	-1.9333880936E-001	+5.0108082980E-003
496000000000.000	-1.8170254187E-001	+2.8670271539E-003	+4.3374104299E-001	-5.2699768700E-001	+5.0338405236E-001	-4.6476150197E-001	-1.9881454080E-001	+1.6791147707E-002
496333333333.333	-2.3623351107E-001	-4.4678862056E-002	+4.1155088851E-001	-5.4802196873E-001	+4.8475185865E-001	-4.9134202008E-001	-2.2296274539E-001	+1.5617799855E-002
496666666666.667	-2.2165616917E-001	-5.4719738643E-002	+3.8346644095E-001	-5.6609879039E-001	+4.6366444787E-001	-5.0845286084E-001	-2.2827339445E-001	+1.3744864801E-002
497000000000.000	-2.6111342050E-001	-4.9372583482E-002	+3.6174993169E-001	-5.7260420708E-001	+4.3423374624E-001	-5.2357730325E-001	-2.2466898073E-001	+2.1715358695E-002
497333333333.333	-2.8367526526E-001	-1.1253831599E-001	+3.3386084399E-001	-5.7493096539E-001	+4.0992453328E-001	-5.3017683462E-001	-2.4012448688E-001	+2.2294830789E-002
497666666666.667	-2.2830158395E-001	-1.3998996927E-001	+3.1973058030E-001	-5.8288778076E-001	+3.9285160947E-001	-5.4285689231E-001	-2.4903601337E-001	+2.0952921567E-002
498000000000.000	-2.1477291049E-001	-9.7440890953E-002	+3.0232832717E-001	-5.9719463845E-001	+3.7644969435E-001	-5.5877059475E-001	-2.4769076927E-001	+2.5846058942E-002
498333333333.333	-2.4586386232E-001	-1.0071903281E-001	+2.7821977496E-001	-6.0176550210E-001	+3.5207866246E-001	-5.6852743587E-001	-2.5623909539E-001	+3.1182881640E-002
498666666666.667	-2.1781897885E-001	-1.0370812256E-001	+2.5649106047E-001	-6.0802496895E-001	+3.3225001868E-001	-5.7671403598E-001	-2.6460185730E-001	+2.8341947053E-002
499000000000.000	-2.1871538513E-001	-3.5381889813E-002	+2.4345386934E-001	-6.1698716694E-001	+3.1619428814E-001	-5.8567755614E-001	-2.6789363804E-001	+3.3418865826E-002
499333333333.333	-2.8652208620E-001	-1.1995988144E-002	+2.2722553296E-001	-6.2458538742E-001	+3.0109509331E-001	-5.9570058218E-001	-2.7833923406E-001	+4.1947236582E-002
499666666666.667	-3.2002130107E-001	-5.3185327669E-002	+2.0024992795E-001	-6.3567459826E-001	+2.7630579149E-001	-6.1068698873E-001	-2.9228817976E-001	+5.1429884149E-002
500000000000.000	-3.0509498145E-001	-5.6409829146E-002	+1.7037276360E-001	-6.4067422524E-001	+2.4827764719E-001	-6.1763814901E-001	-2.9459939025E-001	+5.3323079290E-002
500333333333.333	-3.3012906542E-001	-4.8520317537E-002	+1.4723138612E-001	-6.4047247432E-001	+2.2598883813E-001	-6.2225113928E-001	-3.0111578205E-001	+6.6767431501E-002
500666666666.667	-3.4465123010E-001	-8.4125247773E-002	+1.2844184352E-001	-6.3948183282E-001	+2.0374866738E-001	-6.2299003435E-001	-3.0875126329E-001	+6.7895828102E-002
501000000000.000	-3.0674614929E-001	-9.3135798752E-002	+1.0941723372E-001	-6.4366022172E-001	+1.8546903367E-001	-6.2911401293E-001	-3.0876578653E-001	+7.1496849845E-002
501333333333.333	-2.9787307260E-001	-6.7010980995E-002	+8.3831788711E-002	-6.4845695705E-001	+1.6032286624E-001	-6.3661263797E-001	-3.1044627430E-001	+8.4961363019E-002
501666666666.667	-3.0777090337E-001	-6.0764648213E-002	+6.6475104994E-002	-6.4333567691E-001	+1.3966344248E-001	-6.3143656759E-001	-3.1053123321E-001	+8.9984003067E-002
502000000000.000	-3.0080001935E-001	-4.6850486230E-002	+5.2864338944E-002	-6.4473409554E-001	+1.2454718030E-001	-6.3458808852E-001	-3.1362285326E-001	+8.8055785713E-002
502333333333.333	-3.1427413292E-001	-5.9821950464E-003	+3.7713738202E-002	-6.5443501516E-001	+1.0937514415E-001	-6.4594510290E-001	-3.1858150308E-001	+9.9029459624E-002
502666666666.667	-3.5521430094E-001	-2.7622212556E-003	+1.4336116567E-002	-6.6102564463E-001	+8.6843686860E-002	-6.5576951204E-001	-3.2847105046E-001	+1.0685929208E-001
503000000000.000	-3.6943267892E-001	-1.3675878064E-002	-2.3807598319E-002	-6.6084031038E-001	+4.8068218896E-002	-6.5842653053E-001	-3.2428752006E-001	+1.1824517306E-001
503333333333.333	-3.5871521658E-001	-5.9211665182E-003	-5.0138934953E-002	-6.4427750753E-001	+1.9946060376E-002	-6.4611173944E-001	-3.1882413024E-001	+1.2561891784E-001
503666666666.667	-3.6320482182E-001	-6.8916425716E-004	-6.5252479021E-002	-6.3145730867E-001	+3.5872152400E-003	-6.3441389443E-001	-3.1602214154E-001	+1.3391044338E-001
504000000000.000	-3.6246789232E-001	-1.2803403627E-002	-7.3424600787E-002	-6.2920738116E-001	-6.3452202988E-003	-6.3167492003E-001	-3.1842051031E-001	+1.3623445502E-001
504333333333.333	-3.4793518263E-001	-9.8297475472E-003	-9.3028114602E-002	-6.3617611993E-001	-2.2395117397E-002	-6.4270382278E-001	-3.2472786572E-001	+1.4756808526E-001
504666666666.667	-3.3946227399E-001	+1.3500336380E-002	-1.2259475261E-001	-6.3520636905E-001	-5.2271501973E-002	-6.4462318488E-001	-3.2580183336E-001	+1.6127288749E-001
505000000000.000	-3.4186360162E-001	+2.5242292448E-002	-1.4052731245E-001	-6.2171381985E-001	-6.8968609705E-002	-6.3367368724E-001	-3.1936015387E-001	+1.6599213768E-001
505333333333.333	-3.5242216913E-001	+3.0192709392E-002	-1.5217340208E-001	-6.2002343168E-001	-8.0778455537E-002	-6.3365388390E-001	-3.1640918166E-001	+1.7180986197E-001
505666666666.667	-3.5799893862E-001	+3.3808257431E-002	-1.7212687228E-001	-6.2528611343E-001	-1.0095155616E-001	-6.4088897722E-001	-3.1142765605E-001	+1.7779255225E-001
506000000000.000	-3.6497952771E-001	+3.8445560005E-002	-2.0122371885E-001	-6.2410691630E-001	-1.3074027704E-001	-6.4431152961E-001	-3.1389155643E-001	+1.8100274697E-001
506333333333.333	-3.7276314296E-001	+5.7585864748E-002	-2.3976122367E-001	-6.0938963355E-001	-1.6975034358E-001	-6.3537275254E-001	-3.0909151018E-001	+1.9858471098E-001
506666666666.667	-3.7028385147E-001	+7.0334359050E-002	-2.5409450263E-001	-5.8085160173E-001	-1.8799088852E-001	-6.0767256468E-001	-2.9759858375E-001	+2.0581739150E-001
507000000000.000	-3.5617930608E-001	+7.6138495725E-002	-2.5697245960E-001	-5.6591384327E-001	-1.9379487217E-001	-5.9361611234E-001	-2.8705457214E-001	+2.0345132559E-001
507333333333.333	-3.4179219594E-001	+7.5492576457E-002	-2.6333929359E-001	-5.6731438542E-001	-1.9815787509E-001	-5.9699129833E-001	-2.9133218253E-001	+1.9751800380E-001
507666666666.667	-3.4340028262E-001	+8.0476982233E-002	-2.8758324162E-001	-5.7242379738E-001	-2.1994209847E-001	-6.0588336349E-001	-2.9967899996E-001	+2.1243943660E-001
508000000000.000	-3.4247857774E-001	+8.9797222214E-002	-3.1663884136E-001	-5.5986441094E-001	-2.5167831788E-001	-5.9732107577E-001	-2.8968858242E-001	+2.2736120051E-001
508333333333.333	-3.3658297043E-001	+9.1373242172E-002	-3.2949191869E-001	-5.4495295020E-001	-2.6486768511E-001	-5.8345512506E-001	-2.7816554843E-001	+2.2868989370E-001
508666666666.667	-3.4232186610E-001	+9.2274036363E-002	-3.4585757493E-001	-5.4219693413E-001	-2.7901585350E-001	-5.8307157319E-001	-2.7395922386E-001	+2.3396784160E-001
509000000000.000	-3.4068955410E-001	+9.0622750706E-002	-3.6886485230E-001	-5.3708216566E-001	-3.0644220683E-001	-5.7837112309E-001	-2.6548493697E-001	+2.4057879850E-001
509333333333.333	-3.3235814766E-001	+9.8532294500E-002	-3.9539717475E-001	-5.2569621577E-001	-3.3379932683E-001	-5.6837385090E-001	-2.5744612358E-001	+2.4223475771E-001
509666666666.667	-3.3161211905E-001	+1.2617793304E-001	-4.2346519482E-001	-5.0153482230E-001	-3.6765712754E-001	-5.4750735076E-001	-2.4747539703E-001	+2.5319162585E-001
510000000000.000	-3.3054402370E-001	+1.4352930443E-001	-4.2594998730E-001	-4.6856665157E-001	-3.7216703050E-001	-5.1403336427E-001	-2.2838515351E-001	+2.5008738702E-001
510333333333.333	-3.1052203027E-001	+1.4534882683E-001	-4.2259468572E-001	-4.5912520188E-001	-3.6894720347E-001	-5.0289444195E-001	-2.2187337082E-001	+2.3754287242E-001
510666666666.667	-2.8581120058E-001	+1.4489921069E-001	-4.3224398663E-001	-4.6122980540E-001	-3.7934157606E-001	-5.0633751165E-001	-2.3265631065E-001	+2.3465088790E-001
511000000000.000	-2.9227306424E-001	+1.4521739066E-001	-4.5497625498E-001	-4.5962269957E-001	-4.0149528870E-001	-5.0767089208E-001	-2.3834394353E-001	+2.5036705152E-001
511333333333.333	-3.0747486014E-001	+1.3932777982E-001	-4.8669188445E-001	-4.3719149694E-001	-4.2668417596E-001	-4.9681806711E-001	-2.1868977230E-001	+2.6399064131E-001
511666666666.667	-2.9279020868E-001	+1.2716751988E-001	-4.9390017401E-001	-4.2161872644E-001	-4.4767392227E-001	-4.7095305506E-001	-1.9793645610E-001	+2.5917708738E-001
512000000000.000	-2.7587199842E-001	+1.3116869131E-001	-5.0622952999E-001	-4.0977717569E-001	-4.6626412800E-001	-4.5755807398E-001	-1.9176744276E-001	+2.5399757518E-001
512333333333.333	-2.7673398225E-001	+1.3799651007E-001	-5.2600034491E-001	-3.9486424535E-001	-4.8480213722E-001	-4.4535450456E-001	-1.8637009797E-001	+2.5403673879E-001
512666666666.667	-2.7358334308E-001	+1.3950322150E-001	-5.4756165531E-001	-3.7330860771E-001	-5.0793815618E-001	-4.2726961257E-001	-1.7784204855E-001	+2.5642384720E-001
513000000000.000	-2.5475391727E-001	+1.5165746006E-001	-5.6593821095E-001	-3.3634425781E-001	-5.3002264139E-001	-3.9446591492E-001	-1.5572240172E-001	+2.6094481736E-001
513333333333.333	-2.4575950580E-001	+1.7917136870E-001	-5.5824421074E-001	-3.1084198228E-001	-5.2416533637E-001	-3.6624901564E-001	-1.4225889996E-001	+2.3788545471E-001
513666666666.667	-2.4171794997E-001	+1.8268975765E-001	-5.5484599541E-001	-3.0939299851E-001	-5.2165445735E-001	-3.6292015484E-001	-1.5330410011E-001	+2.1742671738E-001
514000000000.000	-2.2536363811E-001	+1.6210680997E-001	-5.7322210594E-001	-3.0402542547E-001	-5.3888502556E-001	-3.6106029352E-001	-1.6569013112E-001	+2.2170291651E-001
514333333333.333	-2.1704663047E-001	+1.4909290087E-001	-5.9672433033E-001	-2.8818530362E-001	-5.6439995443E-001	-3.4765301776E-001	-1.6116862907E-001	+2.4220601420E-001
514666666666.667	-2.3457636655E-001	+1.4962026020E-001	-6.1862504665E-001	-2.5646574505E-001	-5.8787439357E-001	-3.1862410912E-001	-1.3262813154E-001	+2.3933496144E-001
515000000000.000	-2.2293437938E-001	+1.3580901813E-001	-6.1944466124E-001	-2.2944235615E-001	-5.9431531774E-001	-2.9146097821E-001	-1.2501652992E-001	+2.2470687398E-001
515333333333.333	-1.9220469355E-001	+1.2635036922E-001	-6.2573081293E-001	-2.0882968821E-001	-6.0277717719E-001	-2.7217933999E-001	-1.2377432371E-001	+2.2520810808E-001
515666666666.667	-1.8839332128E-001	+1.3765748745E-001	-6.3377721198E-001	-1.9066769416E-001	-6.1047328404E-001	-2.5249899485E-001	-1.1258705125E-001	+2.2225624920E-001
516000000000.000	-1.9774434322E-001	+1.3710351839E-001	-6.4645355636E-001	-1.6918428485E-001	-6.2797775331E-001	-2.3332326351E-001	-1.1121315140E-001	+2.1579679083E-001
516333333333.333	-1.8023482045E-001	+1.3107879532E-001	-6.5090464139E-001	-1.2975142371E-001	-6.3436412367E-001	-1.9315695712E-001	-8.2629979928E-002	+2.0864449207E-001
516666666666.667	-1.6239883158E-001	+1.5397033335E-001	-6.3809552749E-001	-1.1211000899E-001	-6.2344078411E-001	-1.7691206479E-001	-8.4521215524E-002	+1.8044203173E-001
517000000000.000	-1.7075645476E-001	+1.6422425861E-001	-6.4330265911E-001	-1.0700826969E-001	-6.3007828132E-001	-1.6713395834E-001	-1.0667650856E-001	+1.6209671397E-001
517333333333.333	-1.6420104682E-001	+1.3090061463E-001	-6.5523934339E-001	-9.0538814917E-002	-6.4316715971E-001	-1.5364392720E-001	-1.1917034203E-001	+1.6916502490E-001
517666666666.667	-1.4891171371E-001	+9.9018991745E-002	-6.6896439003E-001	-6.8390757952E-002	-6.6050770461E-001	-1.3004088889E-001	-1.0307504220E-001	+1.8693005446E-001
518000000000.000	-1.5948640926E-001	+1.0412408666E-001	-6.7592296148E-001	-3.5034187161E-002	-6.7015853805E-001	-9.4343978400E-002	-8.6594205316E-002	+1.6762958590E-001
518333333333.333	-1.6051131395E-001	+9.7320326846E-002	-6.7036602197E-001	-4.8156700669E-003	-6.6704559950E-001	-6.5012955456E-002	-8.6721157842E-002	+1.5559101891E-001
518666666666.667	-1.3563440941E-001	+7.7457798858E-002	-6.6448117487E-001	+1.6270197718E-002	-6.6332289992E-001	-4.3673403644E-002	-8.0719232585E-002	+1.5430915702E-001
519000000000.000	-1.2688887192E-001	+8.8055712890E-002	-6.6580423873E-001	+3.7361919777E-002	-6.6640497958E-001	-2.1629798174E-002	-7.9555937318E-002	+1.4643311384E-001
519333333333.333	-1.3396584006E-001	+9.3821812646E-002	-6.7110463346E-001	+6.0141590065E-002	-6.7426727022E-001	+9.4518135267E-004	-8.3946110702E-002	+1.3614311939E-001
519666666666.667	-1.3018005580E-001	+7.6658985899E-002	-6.6341814750E-001	+9.2571216967E-002	-6.6869425767E-001	+3.6955372164E-002	-7.8570891464E-002	+1.2532644447E-001
520000000000.000	-1.2319535975E-001	+7.6019516223E-002	-6.5572291323E-001	+1.1257996750E-001	-6.6268459915E-001	+5.8654742249E-002	-8.5342519960E-002	+1.1032641918E-001
520333333333.333	-1.3505103990E-001	+8.3615337510E-002	-6.4958025077E-001	+1.3005996790E-001	-6.5790968465E-001	+7.8208390221E-002	-9.7645325248E-002	+9.4805737156E-002
520666666666.667	-1.3501305522E-001	+5.5154872436E-002	-6.4684318280E-001	+1.4886977441E-001	-6.5681086056E-001	+9.6726557753E-002	-1.0158089915E-001	+9.8171713190E-002
521000000000.000	-1.2617641732E-001	+2.3803958855E-002	-6.4810833021E-001	+1.7097701049E-001	-6.5954523862E-001	+1.1910712862E-001	-9.1598737839E-002	+9.4593494694E-002
521333333333.333	-1.2255973740E-001	+2.9726015931E-002	-6.4342758323E-001	+2.0163502864E-001	-6.5696027229E-001	+1.5227019708E-001	-9.9556577862E-002	+8.6595246222E-002
521666666666.667	-1.3087835881E-001	+2.5623130968E-002	-6.3267549427E-001	+2.2754724059E-001	-6.4874784748E-001	+1.7779166013E-001	-9.9558535767E-002	+8.4311439966E-002
522000000000.000	-1.2476627103E-001	+6.6265245430E-003	-6.1826659772E-001	+2.4955963444E-001	-6.3595441359E-001	+2.0145627178E-001	-9.4735433494E-002	+7.7093361695E-002
522333333333.333	-1.1803907107E-001	+9.7684701962E-003	-6.0849096404E-001	+2.6777211157E-001	-6.2803158511E-001	+2.1876037608E-001	-1.0386901436E-001	+6.4886110855E-002
522666666666.667	-1.2470532089E-001	+2.0357752422E-002	-6.0385834712E-001	+2.8882046937E-001	-6.2578354382E-001	+2.4073516787E-001	-1.1571845581E-001	+5.9674159745E-002
523000000000.000	-1.3630685873E-001	+7.1613482202E-003	-5.8897447037E-001	+3.1423111839E-001	-6.1411162719E-001	+2.6557925918E-001	-1.1749628893E-001	+5.2037461789E-002
523333333333.333	-1.4292292228E-001	-6.7827293671E-003	-5.7755537396E-001	+3.3470552104E-001	-6.0375352175E-001	+2.8758624813E-001	-1.2692598450E-001	+4.2425892652E-002
523666666666.667	-1.4885782717E-001	-5.0896044212E-003	-5.6204881301E-001	+3.5504912660E-001	-5.8929051047E-001	+3.0957283788E-001	-1.3852414853E-001	+3.8454700492E-002
524000000000.000	-1.5194792561E-001	-2.1325445948E-002	-5.4698576387E-001	+3.6918536570E-001	-5.7431858415E-001	+3.2492100615E-001	-1.4607131207E-001	+3.7169660816E-002
524333333333.333	-1.5536118203E-001	-4.6116871940E-002	-5.3827525871E-001	+3.8853650262E-001	-5.6652157407E-001	+3.4497653654E-001	-1.4974661488E-001	+3.2632849732E-002
524666666666.667	-1.5102478595E-001	-4.4250318169E-002	-5.2107399039E-001	+4.1055518971E-001	-5.5261255180E-001	+3.6859393193E-001	-1.5610553005E-001	+3.3753907157E-002
525000000000.000	-1.5018937057E-001	-4.3682062403E-002	-5.0715612805E-001	+4.2831075745E-001	-5.3913511855E-001	+3.8883734654E-001	-1.5592725912E-001	+3.5879379179E-002
525333333333.333	-1.5977647622E-001	-5.2162490377E-002	-4.8889842593E-001	+4.4519979537E-001	-5.2102718342E-001	+4.0883237148E-001	-1.6243043814E-001	+2.8229828832E-002
525666666666.667	-1.6823326044E-001	-4.6583309290E-002	-4.7324383106E-001	+4.5842670382E-001	-5.0673142973E-001	+4.2296018002E-001	-1.7537859775E-001	+2.3617292883E-002
526000000000.000	-1.7421778013E-001	-4.0114463976E-002	-4.5932711900E-001	+4.7787577017E-001	-4.9153724259E-001	+4.4355928117E-001	-1.8248569986E-001	+2.8844899064E-002
526333333333.333	-1.8889405016E-001	-4.6933676538E-002	-4.3359525586E-001	+4.9158943791E-001	-4.6936087226E-001	+4.5846395202E-001	-1.9228931256E-001	+2.3729680821E-002
526666666666.667	-2.0580417464E-001	-6.1198991736E-002	-4.1830295899E-001	+5.0195834961E-001	-4.5444422660E-001	+4.6973385423E-001	-2.0721017769E-001	+1.8069227116E-002
527000000000.000	-2.1179568523E-001	-6.3061022925E-002	-3.9883577879E-001	+5.1634607092E-001	-4.3652955725E-001	+4.8635630650E-001	-2.0977339124E-001	+2.3532888867E-002
527333333333.333	-2.0763183625E-001	-6.9413937603E-002	-3.7843607508E-001	+5.2706444961E-001	-4.1890572275E-001	+4.9576820980E-001	-2.1087385303E-001	+2.1175848872E-002
527666666666.667	-2.1504235062E-001	-7.9050545485E-002	-3.6454784177E-001	+5.4173150187E-001	-4.0561444711E-001	+5.1277489824E-001	-2.3266598208E-001	+2.3294157882E-002
528000000000.000	-2.2007510276E-001	-7.4378461094E-002	-3.3647517956E-001	+5.5704340602E-001	-3.8206044841E-001	+5.2836228140E-001	-2.3677420795E-001	+2.7577187192E-002
528333333333.333	-2.1617564133E-001	-7.3763330651E-002	-3.1844214303E-001	+5.6499685114E-001	-3.6246735232E-001	+5.3862277103E-001	-2.2682923101E-001	+3.4028601678E-002
528666666666.667	-2.2528454657E-001	-7.0583661063E-002	-2.9725202834E-001	+5.7519894438E-001	-3.4199249657E-001	+5.4766777686E-001	-2.2879896584E-001	+4.2243835813E-002
