Freq_Hz,S11_mag_mean,S11_mag_std,S11_phase_mean,S11_phase_std,S21_mag_mean,S21_mag_std,S21_phase_mean,S21_phase_std,S12_mag_mean,S12_mag_std,S12_phase_mean,S12_phase_std,S22_mag_mean,S22_mag_std,S22_phase_mean,S22_phase_std
500000000000,0.318602120442836,0.0229347791727997,-169.7165168978,1.98244983091362,0.660702983262844,0.00509314523067671,-78.3780997352403,3.83963513173093,0.663138751045561,0.00560480974731414,-68.9374305663246,3.02748208060139,0.306649355826432,0.0185914347658286,168.35567037474,2.01050793607303
500333333333.333,0.335859738912967,0.0228205287242794,-170.647621074658,2.04353993728265,0.654389594578476,0.00566342093756761,-80.4912492168642,3.93282623907153,0.658741990758688,0.0052639585279621,-70.9212483594731,2.96999742503051,0.320355814811753,0.021795377121038,166.947815665981,1.67316464673273
500666666666.667,0.348446250588992,0.0212849971257206,-167.364204172769,1.11771976081268,0.649381175931985,0.00556408235075289,-82.0541004329241,3.82255372883421,0.651501976067426,0.00621773341813557,-72.7848559762223,2.9765259268714,0.326469233627006,0.0210341414949725,167.437551266845,1.4664582179253
501000000000,0.325809553233289,0.0164076973398314,-165.689172377143,1.90804601353799,0.650143011095049,0.00549334057598445,-83.7673554496973,3.80215193591229,0.652888127555453,0.00534147995565355,-74.4592360150705,2.94274217511681,0.329170443168036,0.0189900053527257,166.869472201299,1.45133562076341
501333333333.333,0.31669392902332,0.0164705375555451,-168.488888240197,0.792963302069133,0.651211811041065,0.00525816500493674,-86.0802625730983,3.86339446295154,0.653271946994427,0.00501806767853811,-76.8650107872535,2.98140940701215,0.333010599097413,0.0179237784127441,165.470428165169,1.1929620907503
501666666666.667,0.320235555863303,0.0113485483255964,-169.799678330786,1.02955463918849,0.643930828718652,0.00490472764475617,-87.479523960528,3.77180701125585,0.644063086735169,0.00502626116759997,-78.4284718316437,2.89013504389785,0.328457147290837,0.0150739914149456,164.666933713289,1.13258869462041
502000000000,0.31710911914986,0.0158081283674001,-172.159100468572,1.62180862662479,0.643569229854949,0.00489113931004643,-88.6814486236584,3.69895503605902,0.643925843373949,0.0047886444982546,-79.6925183197041,2.9030040858128,0.32725133241897,0.0121051395089693,164.577533050533,1.26001647732559
502333333333.333,0.327407268521691,0.016726122968596,-57.6821404799187,183.880000872404,0.652745856959019,0.00419743731932901,-90.1420512718094,3.70791973975695,0.652369528448855,0.00424725181266572,-81.229353390427,2.86813487565685,0.334376994689025,0.0108329937649742,162.652486306083,1.34481178082834
502666666666.667,0.356135421578869,0.0112731761197774,-58.226895639035,183.926025845962,0.658516336534799,0.00436156233219491,-92.2019740916766,3.65179323361906,0.659316359101565,0.00384364359145121,-83.2227062230406,2.74654134584588,0.345771327193554,0.0124728175189472,161.511687245815,1.49611288872791
503000000000,0.367612108708056,0.0122210537834562,-58.1377340702612,184.076981387501,0.659089213390838,0.00426695694554973,-95.5347756956606,3.62915648024234,0.657217562527759,0.00488932511288467,-86.6467873486209,2.83885004660049,0.344938108936268,0.00917546595015931,159.066553398647,1.76364599764253
503333333333.333,0.361964982397512,0.0131247899277544,-59.402628301985,184.414490227854,0.644282634958635,0.00410448335505954,-97.9044284279931,3.60703770525262,0.64456570157532,0.00374410676804815,-88.9202200730418,2.7324179764991,0.34701994691876,0.0103589729396945,157.763586553197,1.68785007642343
503666666666.667,0.36432145266595,0.0111798942306654,-59.9744392443835,184.665768663864,0.633080797415981,0.00410913015134024,-99.2766954741737,3.59046668031435,0.632446588036306,0.00445202910709874,-90.4674399728649,2.81543718317319,0.349806038302239,0.0107931708225182,156.296935391754,1.72373626858125
504000000000,0.361616277495559,0.00814206693816998,-118.965467586929,146.269989686738,0.631467994750466,0.00398514365406139,-99.983787599146,3.50102532400995,0.630107523211772,0.00397085540609244,-91.4440938544277,2.81855439717791,0.354693876290588,0.010568652408248,156.59184630053,1.45808355366174
504333333333.333,0.353664171496334,0.00800640375782605,60.139695322174,184.51149163183,0.640983241232002,0.00388874524568693,-101.669543842085,3.59346775125336,0.641135832041922,0.00386666400731075,-92.8152123348808,2.78270798726985,0.365143655184806,0.010864131544861,155.729343415163,1.2655092263676
504666666666.667,0.34779226582419,0.00942601796026442,177.150096419486,1.33158612516375,0.644699265401097,0.00382744598380087,-104.202687583977,3.49429449670692,0.644704974455385,0.00374572482610624,-95.4126449228454,2.77089094037169,0.369065826107229,0.0085643378466539,154.06338653078,1.16509133418052
505000000000,0.346793775237225,0.00539970051331274,175.7896865376,1.54875605083422,0.634915202260806,0.00372904465770083,-106.013155022794,3.45807925237589,0.635123541277432,0.00342970793245675,-97.0132382849442,2.72579702409157,0.362496363615339,0.00616276231349135,152.902422151393,1.16505607604737
505333333333.333,0.355853415177348,0.00357753090744532,175.168943257534,1.66024748586868,0.636291283542323,0.0029413228518659,-107.005635052773,3.44348754445892,0.636856059489724,0.00291579672621476,-98.02781325852,2.72942706405682,0.359933700285953,0.00416501971330874,151.572085512411,1.24233399244903
505666666666.667,0.361145182305617,0.00413921062719596,174.534781642664,1.60969390490816,0.646311487514695,0.0026878727837462,-108.676452100388,3.4916938651151,0.646677949141884,0.00240976234100485,-99.7227460248979,2.73000476699916,0.357543776027761,0.00298511284274241,149.988681383434,1.39105496363311
506000000000,0.367886063465828,0.00361785502281304,174.00436912516,1.58646566752423,0.653738107214535,0.00290803133981286,-111.04682536091,3.46298903508433,0.655771481321476,0.00226302730259349,-102.155424002414,2.77247716452273,0.3610630821101,0.00214996235611421,149.467232258405,1.51473639471712
506333333333.333,0.376354345487102,0.00314809670749827,171.177518561622,1.54780951958429,0.65319064614898,0.00292077455054441,-114.59657114753,3.45967993270076,0.655729032789214,0.00238624659763182,-105.599641573749,2.74129344255996,0.366019780278304,0.00175660856391241,146.688185811943,1.63628192320353
506666666666.667,0.37564901152122,0.00281383380823754,168.916311886102,1.47437947113125,0.632891195803644,0.00261477774313046,-116.690734416863,3.41199903035936,0.634946827206042,0.00211639993247521,-107.833892546137,2.67115807831093,0.362213089928386,0.00192845968316755,144.584127485489,1.71058709565758
507000000000,0.365070394289802,0.00167551261869709,167.494863657085,1.3643604045618,0.620804902871746,0.00290758897541914,-117.483578720585,3.43875831112537,0.623384087517376,0.00238167323175213,-108.674181571294,2.64337091684058,0.354113620421411,0.00184415993416267,144.109818466601,1.61707136717644
507333333333.333,0.352175542416396,0.00136391345608529,167.209359739209,1.35748937227782,0.625163366822093,0.0023749184000676,-117.939176244567,3.46753615517421,0.627911243309838,0.0021524311926186,-108.97311634559,2.67387526635402,0.35534593345442,0.00238071165175107,145.736146852476,1.34654488955746
507666666666.667,0.353657057575437,0.00198070484970623,166.499804464561,1.45798569955912,0.639752885332272,0.00241279662381769,-119.672823830268,3.55627265060307,0.643201457991534,0.00205628683718541,-110.615249402995,2.65141038442431,0.36939264016032,0.0021157665060319,144.733584138077,1.25994117379306
508000000000,0.355263318775822,0.00252979669066123,165.098677809038,1.51611775115322,0.642546650869487,0.0027603865423434,-122.493151668266,3.56096640395016,0.646939004268321,0.00197897424428806,-113.58310911417,2.67867593389258,0.369072690640803,0.00206628699329122,141.852501250337,1.26656421236314
508333333333.333,0.347862819492388,0.00356441089349094,164.919630881905,1.50197005948559,0.636034030013435,0.002267790096102,-124.034198797227,3.54094754225898,0.639354403244237,0.00163872705354197,-115.142011686579,2.68525550905913,0.360252461082043,0.00304068715031881,140.517828080673,1.26032606099708
508666666666.667,0.350988290632556,0.00527153242817703,164.96291741297,1.30141762215947,0.642389034873061,0.0017256464998081,-125.286094962473,3.50629141291413,0.64557686940222,0.00160625504068003,-116.248980517891,2.64604863228131,0.358188265503098,0.00411197234566353,139.253296150028,1.31152817387032
509000000000,0.350156482496005,0.00508041645377877,164.740787997995,1.13092360756967,0.650868278371498,0.00163854485800074,-127.331277532351,3.55065133469055,0.653309246859528,0.00152292151798436,-118.693467911273,2.7992443014263,0.355213525515059,0.00515776608863878,137.164927993897,1.51025649377649
509333333333.333,0.347842212632377,0.00542229727393453,163.456539700682,1.21129192336671,0.657074051009882,0.00159434099276496,-129.721837395865,3.46719182050105,0.657291353831552,0.00183804757633609,-121.154943719538,2.76041761861269,0.35149296313005,0.00645414067708441,136.149534183075,1.5219841164939
509666666666.667,0.354309078281491,0.00640335105097552,159.815638836917,1.54669001257307,0.65587219644749,0.00169315830062003,-132.858153616664,3.36212142096887,0.659023506396388,0.00173077756848492,-124.595991148751,2.79244841226669,0.352391241214936,0.00590995984820288,133.976114127255,1.44621163226715
510000000000,0.356567175792088,0.0080603703844559,156.675263771295,1.58008253840497,0.632770772768569,0.0021962129751003,-135.060562627342,3.37744315962927,0.633879039123447,0.00205198630979641,-126.721905674823,2.75216429155339,0.336143227813753,0.00747367549705357,132.214497162593,1.38739196882511
510333333333.333,0.342426868511133,0.0074050471526254,154.645238668642,1.53203922829611,0.623787658051754,0.0028996490488085,-135.408356099907,3.38525359498471,0.623316758316786,0.00257117183611285,-127.166529025389,2.80585608478157,0.322927092093858,0.00819650443714135,133.088321268782,1.26536930702996
510666666666.667,0.321455447584023,0.00675796359757387,153.492704282695,1.63537639622401,0.631621414178609,0.00264302570598148,-135.932402944825,3.43173357113622,0.632217115693364,0.00240933229772061,-127.702470677344,2.88127226401286,0.327598786696397,0.00927598421606124,134.974953009659,1.20053680557715
511000000000,0.321191988919399,0.00929533913835496,154.349404409128,1.67134131503972,0.646304647377152,0.00228739703390095,-137.545979249941,3.44961520733763,0.646967267092552,0.0023073389233249,-129.164226661503,2.86152058583267,0.340404378176327,0.011400688933444,133.602312281443,1.27058788965028
511333333333.333,0.329015761266046,0.0124587057924587,155.601845313041,1.08150903778907,0.65360836470217,0.00220484268951585,-141.039287261477,3.56141104389643,0.654565775607706,0.0022418904694638,-131.320874380754,2.64210808542428,0.337272205412986,0.0123096175426462,129.158073952283,1.42461142319867
511666666666.667,0.314958476506657,0.0109059676730488,156.188440869925,0.902060470016985,0.648998438547988,0.0027297072306085,-142.2926736229,3.29994747855256,0.649035042576983,0.00236668938313514,-134.43152616841,2.9634764729208,0.321492111153221,0.0122867773158109,126.538697421653,1.53288687638111
512000000000,0.303254542956894,0.0113654643603032,155.015397165989,0.856223821815931,0.651052052423461,0.00254886273514603,-143.690755428947,3.27541311683119,0.653114889267108,0.00285874017396061,-136.480758025542,3.04465191836191,0.314517605596283,0.0116272312327272,126.100103147263,1.6132509463836
512333333333.333,0.30441746236437,0.0138404771704732,154.018096830944,0.884083164261248,0.657483498876607,0.00261839308223115,-145.851532082173,3.32556383435056,0.658257819390731,0.00252969091016116,-138.261716149454,3.02715064719654,0.312140176806589,0.0118071169353992,125.255422593029,1.68332170113457
512666666666.667,0.304468311712071,0.0144325321995844,153.003027573021,0.864114971852185,0.662698868165547,0.00291202990354101,-148.430781044159,3.30929566062214,0.66362976630383,0.0030226199073127,-140.788969112591,3.04922525793337,0.311234660516186,0.0120994615242904,124.359044299402,1.49412773810552
513000000000,0.298297848514349,0.0142065121778036,149.936543872929,1.35723783730602,0.658060766945419,0.00280977557519474,-151.975577917095,3.35950057969732,0.660462817254225,0.0032999026630313,-144.131167490997,3.01982673429208,0.301985131378243,0.0130978596583548,121.3805881729,1.3389701727146
513333333333.333,0.301082221022394,0.0152005983239637,145.383627577968,2.23046798193681,0.63890644514428,0.00369212396163637,-153.539625505804,3.34353537287738,0.639155263176923,0.00375429436901598,-145.840088898663,2.97597058399306,0.271703376306396,0.0153884231778409,121.991827030806,1.62258355138832
513666666666.667,0.295251174615268,0.0172792007704921,143.585945401153,1.72970585832926,0.635724902352785,0.00399044488010533,-153.416885706207,3.40442792005071,0.636152190663151,0.0041886128591609,-145.99807049654,3.1214054745729,0.259041079579747,0.0163165439132796,126.332769267416,1.9210267874626
514000000000,0.272961621581252,0.0151331467905745,144.487868540118,1.21933842679019,0.649253082495311,0.00328115436178254,-154.642409531009,3.53285703259459,0.648950340200085,0.00333477395932359,-146.97666971937,3.15433910533137,0.267414727414265,0.0196278997686727,127.863468994713,1.81060565685271
514333333333.333,0.257335703863525,0.0153004252464942,146.732979343634,1.44341423932992,0.663065294009328,0.00240093920933248,-156.694265310815,3.52624290710505,0.662884867789985,0.00241623987801453,-149.228498505988,3.179089625149,0.277386133159657,0.0224465879505168,123.9587144662,1.74849869682047
514666666666.667,0.266591210627154,0.0193536278256092,148.467480949433,1.24363931459842,0.669377296542481,0.00204194289718395,-159.965147745648,3.45390856584221,0.668305737793304,0.00197021133828122,-152.361044103723,3.14256684178893,0.261096795767281,0.0222647584455964,117.676789754858,2.03050049187029
515000000000,0.253271788622267,0.0184938092739964,148.534112822447,1.19960134774376,0.660428973680523,0.00240633188946228,-162.14868225627,3.45509916484639,0.662190646247015,0.00299588859103966,-154.758067835913,3.15095867076475,0.250561071007291,0.0192013176983315,117.173741233348,2.19719273194572
515333333333.333,0.229717717863094,0.0175987338972099,147.722889426086,1.62662771180442,0.659346105929879,0.00289206819237085,-164.089372161007,3.45477107285078,0.661987673791287,0.00366930832191682,-156.468871710195,3.0562080922994,0.253342669025663,0.0170442671052429,117.394974569461,2.02338468630857
515666666666.667,0.229429139090453,0.0195241113078282,146.453675373151,2.47723078782925,0.661949538803476,0.0033244455196005,-165.846751314098,3.47323253514625,0.660595138768758,0.00309127438782275,-158.36513611857,3.16427628007766,0.245746838193027,0.0176506110035782,115.268163660933,2.2173484449779
516000000000,0.234501317084459,0.0212543511388445,146.57804699596,1.72240289933665,0.667927745803285,0.00368481810447652,-167.980463286773,3.48737268467457,0.670088500605963,0.00418728939466243,-160.416811639342,3.16641940627201,0.242915595634968,0.0173757546605002,117.017013119584,2.45338303218191
516333333333.333,0.224319391046367,0.0197610328220544,145.251161908697,1.79923838722347,0.663255282288799,0.00406615542120229,-171.264235228469,3.4399021915072,0.662755764477929,0.00393896421228185,-163.732867373962,3.14333445950152,0.223357854401833,0.0198944865178762,113.007118925993,2.40222326249873
516666666666.667,0.223553136902525,0.0194555730855616,139.982069797694,3.45075186688169,0.6476768959672,0.00434381526892005,-172.628567622673,3.52199336212183,0.647849022407979,0.00431704366053362,-164.858440340658,3.16726927683396,0.194954566411684,0.0171754432343451,118.038799360873,3.98501668731474
517000000000,0.225757992705578,0.0218994080795254,138.841098749921,3.15447090722462,0.652046891240892,0.00370558954633254,-173.102625275023,3.64224351343442,0.651594498744939,0.00362719433681485,-165.979628684086,3.34452635988452,0.188243350819577,0.017890266111742,126.206518923544,4.97496646323024
517333333333.333,0.200207098328856,0.0203569482677261,142.228742532631,2.60848025588353,0.661415138586056,0.00266302909401218,-174.761339312656,3.67985035512917,0.661072582750623,0.00250729974820863,-167.372986247571,3.40195984716323,0.200503888471317,0.0209952446462959,127.915132967177,4.99261465643327
517666666666.667,0.17528743518498,0.0165601472379753,148.431109562833,4.02951707900045,0.672274597365,0.00166973575285654,-116.741011759122,144.795102346832,0.672865686621832,0.00160525280986914,-169.622000817275,3.37108673463745,0.202170379447959,0.0243489695213542,121.416549946474,4.73126783349648
518000000000,0.183196026691837,0.0185595293563488,150.575919158869,5.38160163646599,0.676555564500959,0.00126382529616301,0.392374878365004,193.968363382864,0.676266574096216,0.00124878935957503,-172.709957012028,3.31777046469328,0.176183194979764,0.023570149942533,118.39181855955,5.37364375658885
518333333333.333,0.179393838872449,0.0201859866652221,151.240502340447,5.19728234348734,0.670257105980605,0.00160146103698754,57.8608704176635,183.108875785181,0.669967016761939,0.0013800132601136,-175.221200804971,3.31093679560476,0.170061077333258,0.0216186239052121,119.115090631762,5.42747220085845
518666666666.667,0.157757534198977,0.0170311683426952,153.061777789071,6.22845952375672,0.664394774591573,0.00220348571221575,116.007220076523,144.628754984456,0.664636678163132,0.00216185296272917,-57.070402970062,183.204670466975,0.168262503801521,0.0207591460322008,118.647096563093,5.27247495403816
519000000000,0.157780943113985,0.016735569865622,151.238943968256,7.49809660069383,0.66611203996885,0.00231649562709131,174.169909791006,3.58411668184872,0.666353116595339,0.00228452066689082,0.934518201505341,194.193199421866,0.160828969702523,0.018496518026492,120.567556648601,6.27026061046241
519333333333.333,0.161688963321959,0.0179352832842644,150.462407643155,7.21146383560966,0.672840144023699,0.00261535770766503,172.313127415096,3.54263847439758,0.673255879649928,0.00255263463961903,59.0505990030892,183.137648724657,0.156623638644309,0.0173481450133008,125.125788009255,8.43435967885853
519666666666.667,0.152759856093379,0.0153649247465053,153.190113751335,6.95858844928198,0.668746298196044,0.00270633300698495,169.56049330116,3.50411269005905,0.668477283348677,0.00253671121526522,116.007974750805,144.508185235376,0.147880803085768,0.0148156464794286,127.504832085525,9.89193623318999
520000000000,0.150063888497109,0.0125258633130574,153.69546917459,8.2778258911325,0.664085229108784,0.00241310389676165,167.71376747182,3.57532976955618,0.663753216660985,0.00222143626364682,174.188600379485,3.47263313834466,0.138355406146594,0.0104763843888418,134.798419635759,11.5933798412875
520333333333.333,0.156284521427085,0.0134297197241034,154.193539168514,9.13449832970831,0.661318022586666,0.00191511129766079,166.160276423468,3.6695994970102,0.661353857482862,0.00178684100176152,172.495616471774,3.52365998442944,0.133105670864777,0.00862245804026993,142.34667829498,12.6524609195365
520666666666.667,0.141102906334084,0.0124032396781883,161.387886828688,9.37120751017637,0.662881489592878,0.00157412715385427,164.499318001526,3.68043533244664,0.662875409264728,0.00155125472819017,170.85401102078,3.52286687174454,0.13795132899772,0.0104382797296533,141.0725221056,11.9152119570775
521000000000,0.131654354675199,0.00466798663716162,51.7516566437702,177.865367522972,0.669430039522045,0.00173811161319157,162.694546883618,3.61961432696126,0.669110473774185,0.00185768324017509,168.996519118292,3.48367209708511,0.128632235648143,0.0103812802579725,139.43944322071,12.5872954598371
521333333333.333,0.133351810323357,0.00455680644168614,51.6849205006157,177.025968048833,0.673646106068738,0.00174435636960173,160.077430541419,3.57046062294931,0.673267958474637,0.00171877014128893,166.294991918665,3.43356235870756,0.129076943922426,0.00597655685308217,142.957755849736,12.4142927082462
