Freq_Hz,S11_mag,S11_phase,S21_mag,S21_phase,S12_mag,S12_phase,S22_mag,S22_phase
50000000000,0.433879780006125,160.714963183775,0.886667408710563,65.8516157353279,0.887432457495734,65.3681933371815,0.436265161742674,150.318860448323
50050000000,0.423202819368799,160.408896429111,0.88614719460109,65.688209499468,0.886591068806588,65.0544321805717,0.426330023058086,149.597967140308
50100000000,0.413614038145219,161.936193628098,0.885025569961837,65.0228026963073,0.885017359675362,64.3829068098784,0.41386233327792,150.556462198717
50150000000,0.411735833183879,161.039980876277,0.877551433338012,64.8137928835119,0.87789429769334,64.3267461794621,0.413003181445913,149.538956666044
50200000000,0.419034256937116,165.410817853029,0.859103750489658,64.1363193505705,0.859440264660406,63.6727143580074,0.409296700967694,154.141924771523
50250000000,0.438216424881021,164.19622996747,0.847197421974294,65.858244309622,0.847809843016389,65.2768325756492,0.431917832927971,153.661086586868
50300000000,0.447627475400937,162.326121022138,0.863999970915975,67.3169322617811,0.86512154249291,66.4681884836133,0.442155640717874,152.1009320578
50350000000,0.443212319369035,160.700859574531,0.883541825465091,66.8659898661752,0.884900553967306,66.2678335520353,0.439113709749267,150.405530646882
50400000000,0.439209343514324,160.471746189788,0.893738936587251,66.3018181850515,0.89418501710734,65.813478993659,0.434945751948139,150.162849320295
50450000000,0.443865827157991,160.885473146813,0.905190637111543,66.609390984432,0.905404107099162,66.1540038329233,0.43861238994113,150.998116921573
50500000000,0.437285288825237,158.367935912315,0.917036851319797,63.8142863241147,0.917223537424808,63.1047834868032,0.433730345458878,148.562606293918
50550000000,0.442929352943376,158.38091660996,0.918774165395875,63.5475849297921,0.918678485898937,63.1228858734062,0.444684314902993,149.382747479002
50600000000,0.436169534536748,158.193181145839,0.930224047440518,62.2078552225338,0.931020995024308,61.5337671940978,0.448385340727384,147.394407119654
50650000000,0.438948328034775,157.22180313781,0.90621689588078,60.8840638740349,0.906546041320311,59.9829512398233,0.443082290215755,145.873350615364
50700000000,0.440214900833524,155.59708001644,0.885291564066396,60.354378822146,0.885050675057891,59.9271164535305,0.440228363514021,144.685747057389
50750000000,0.42854986335924,153.325103198019,0.867126401802833,60.8557730460899,0.867139419626303,60.4131022945416,0.429281479846274,142.613686961187
50800000000,0.406938228973977,152.275691790731,0.862536875356331,62.3399450320839,0.862780972371584,61.7755294664726,0.41405503539792,141.921932728719
50850000000,0.382535388770419,156.289970248647,0.885670583965562,62.3134627884053,0.886300984133544,61.9131309871337,0.386841548591221,144.308598635681
50900000000,0.388626821725242,158.4394776642,0.889763451639644,61.1409454771761,0.890509496104889,60.6253006023983,0.385654114950159,146.509648976691
50950000000,0.408753073870394,162.062887690547,0.862390468990449,61.8894167341819,0.862972715612889,61.2915686255397,0.402263412863395,151.399108412659
51000000000,0.419484537746074,158.566370969152,0.887353602701601,62.0321419703504,0.887769073294784,61.4829166918634,0.421070901131033,148.040085126734
51050000000,0.41809764883953,158.438166009261,0.891518741502683,61.3260052639308,0.892515908213509,60.8549034662296,0.418791152220819,147.444185565645
51100000000,0.423626200982437,158.241163201066,0.890342834358812,60.9435966643662,0.890964520370372,60.4108093810344,0.422304242921073,147.171737849735
51150000000,0.423860067659936,157.335498070385,0.886632893977364,61.0181453661587,0.88687618239041,60.435531636216,0.423294872881595,146.316150956051
51200000000,0.423012783863887,156.952821096979,0.893542114958383,61.1766349461675,0.894099008120395,60.8647110287064,0.421817743510461,145.823205400651
51250000000,0.423069132246034,157.000669840053,0.906542753866053,61.5441710264577,0.907011579762515,61.1178560551542,0.42204793142455,146.08854701695
51300000000,0.471093343531112,158.37079108579,0.975240699774571,59.2127020534785,0.975949267694747,58.7477486649778,0.443482498361574,143.301475177227
51350000000,0.446567899180157,151.289127198384,0.918634860739539,57.2700246333541,0.91953163585966,56.6368161419233,0.439994110455315,141.581341449735
51400000000,0.42350002973534,150.230743063881,0.902196609117936,56.8192497654639,0.902776878478025,56.4471501507992,0.422088262754622,140.149023019966
51450000000,0.411709966074072,148.26111848515,0.881067067636284,56.608278566406,0.88164313591058,56.0301892904232,0.415870578438332,138.671462205141
51500000000,0.382047746322331,152.673261609727,0.898311376940984,57.7709507870959,0.899246349518101,57.5772760405694,0.38319428035093,140.811758438948
51550000000,0.386314348847886,152.908596893954,0.89677732034957,56.8102266955829,0.898645321553739,56.6368107581072,0.383646710505045,141.458525830722
51600000000,0.384351885572489,155.265745212047,0.8892182606449,56.1461643935728,0.889408527962456,56.0464297646729,0.375564660869255,144.114813242674
51650000000,0.385759057163429,154.417622330402,0.87667511395216,55.9039251520375,0.877045957472165,55.77990920279,0.381456082904727,143.994261989875
51700000000,0.394837566893655,156.096323097262,0.860661915476123,57.0370483653637,0.861654330140137,56.7173679216045,0.394391842677816,145.875588254942
51750000000,0.409246416589501,154.629090425444,0.873838731393618,58.4549409553785,0.874537484513878,58.058741865932,0.412113373084272,144.068721664306
51800000000,0.406644346117346,154.499528731847,0.893976363111418,58.0038688838488,0.89445942314274,57.6646098959807,0.404053731187541,143.552609871586
51850000000,0.401816975840815,153.751967496787,0.906549959248018,57.3670735885413,0.906905390206174,57.34982100873,0.400128381182119,142.680207387419
51900000000,0.40525041522044,154.587648213094,0.915013379487783,56.7147227671785,0.915857022132663,56.7260756061923,0.40551115120616,143.564661483345
51950000000,0.416153869253336,153.77894642393,0.912040752291087,55.9870171143214,0.912572162078249,55.8197044904835,0.412978917363419,143.256434236318
52000000000,0.42033075880117,152.978957297974,0.917148100756118,56.033301570897,0.917815678540764,55.7640491688807,0.418443217422017,142.247050040038
52050000000,0.434412902978372,152.021528545216,0.936168733817938,55.1100614077318,0.936617477133507,55.0034032554943,0.425610112490416,141.570566332788
52100000000,0.447650035950602,147.997372844257,0.95334402552373,53.6164273312124,0.953580929942762,53.346223335869,0.449166170972155,138.972019529572
52150000000,0.417500279507154,144.676497385718,0.894772393451692,51.1872224519408,0.895266781672246,50.9104572398571,0.430294426607784,134.818876169646
52200000000,0.395075845212926,144.292725743422,0.878540419741337,52.3636740340429,0.879071103767937,52.0038662484037,0.408959306523006,132.90137267407
52250000000,0.368238762238475,144.824599836601,0.877669178820449,54.0021099669269,0.877948062548712,53.80930974096,0.373113474622549,131.97527948745
52300000000,0.361950858513415,148.180546613161,0.899296331130412,53.9502866320894,0.899628336093938,53.8473970604582,0.357280523918301,135.988626157386
52350000000,0.370826458646463,149.814540714616,0.905974332667073,53.17650653827,0.907247319918001,53.0290094941885,0.365777756259438,138.655502217984
52400000000,0.376888439728634,148.897764356556,0.905791844303399,52.6424620075708,0.905994978133233,52.339352442054,0.374758422641858,137.902385946251
52450000000,0.366498714666577,149.598790493151,0.906938238691261,51.9265459144666,0.907557327530865,51.6545201723956,0.364389752470138,138.472023233392
52500000000,0.364491836498442,152.186568215743,0.889771517789689,50.8721845777614,0.890371739730247,50.6454679789727,0.362500833030465,141.080295939356
52550000000,0.388413324148102,151.279616049386,0.883809892887618,52.135660149479,0.883933084791744,51.9546756655289,0.388274870279282,140.413710562217
52600000000,0.392070965715463,149.834374939365,0.888254312628576,52.509561731307,0.888748765125991,52.3528763851176,0.392796090497257,138.735844758222
52650000000,0.390733763421712,149.262958982695,0.896627074830926,52.4779013694288,0.897656755267421,52.5261214110024,0.389932493431509,138.053276260254
52700000000,0.392447024632997,149.021895217716,0.904857591317615,52.4529989181012,0.905451433285136,52.4400178753888,0.391122318541527,137.901994919441
52750000000,0.397337206571403,147.846628665538,0.91627873737155,52.4043072643313,0.917457489254713,52.1040442666436,0.397700726768188,136.854957990549
52800000000,0.395503528886604,145.586137860472,0.931837217266266,51.4186430236713,0.932289950631192,50.7995792809453,0.396453326324799,134.150862889675
52850000000,0.37949771118526,144.891810949907,0.926797613965547,50.4154147200476,0.926684724287368,50.1628999660705,0.378146967430002,133.235684395118
52900000000,0.381219326468699,149.750604944105,0.944304011381294,50.1121756550605,0.94424703499733,50.0103878798778,0.384516765906556,135.490991541454
52950000000,0.38578364012951,142.76710614331,0.916163234451674,48.1316411935026,0.917275871798072,47.8706648648209,0.376979099279163,132.934720824781
53000000000,0.375316033841707,142.61720562965,0.909988333296125,47.9246112881017,0.911458589240198,47.6864221518879,0.370402122858341,132.360303942517
53050000000,0.344908870201356,139.733865239205,0.879973318122529,48.2929811650481,0.8803631037402,48.1988649467654,0.34956103567736,129.571897374208
53100000000,0.343548681631663,147.075414590779,0.891697118762221,48.6001907494667,0.892476177656919,48.4451212968403,0.338760145565632,136.738989959072
53150000000,0.361632200683432,147.526986622222,0.894531501707413,49.6105023479243,0.89572176058141,49.2603130310926,0.365905495062242,137.665981422724
53200000000,0.368071680339519,147.741581885134,0.912476185326743,49.4792345026477,0.912518583995198,48.9822011660864,0.370859525390331,136.717659446157
53250000000,0.369380959808951,145.831624213711,0.922748913885806,48.9814078590079,0.92333780675337,48.7668573889002,0.375059939276902,134.462463452469
53300000000,0.368433134638242,146.010138286416,0.932930370744596,47.9954550688152,0.933478819542835,47.9609701631628,0.371135666438371,133.875509954909
53350000000,0.373580028782687,145.671860525673,0.929984792219931,46.7701145692323,0.930641851784606,46.9116937869562,0.3700807201573,133.956604383996
53400000000,0.376076530032627,144.738505709035,0.922712085290258,46.5120854688837,0.923275319688594,46.5094180719314,0.375420636064857,133.366293192251
53450000000,0.378444988473256,144.473754552335,0.925638087596359,46.426721865106,0.926218020155115,46.2483651520325,0.378236134628357,132.487793369229
53500000000,0.393778198372324,143.254792515325,0.934450218075509,45.5061219682808,0.934915753274721,45.3170693848652,0.381774018476724,131.050646209916
53550000000,0.393235224155627,137.823363210665,0.916570595253014,43.8178993667007,0.91686614880922,43.6033581655305,0.383596307453107,128.727602308123
53600000000,0.35711758509336,134.789272586809,0.886775838409619,44.6797079840314,0.887710704386803,44.5164941413581,0.365279927719947,125.18367555836
53650000000,0.326977665402417,138.034715537339,0.896457733255277,46.1584349649668,0.896913690103758,46.0847664159965,0.336679026616948,126.212638095546
53700000000,0.329554630560818,141.299976045948,0.920562990739548,46.0755215308059,0.921060215636137,46.2403231356447,0.334703771838326,129.09621288017
53750000000,0.331064936229485,143.22493286654,0.914964598766638,44.6655013324469,0.915306839386618,44.682057417945,0.329911834739812,130.361325141823
53800000000,0.34084354473162,143.571603787745,0.916652252024511,44.4559978139492,0.916938702172914,44.386747495889,0.335741061790052,131.416806767216
53850000000,0.344957922986961,143.820321574699,0.915133950638299,44.0658494521109,0.91558164195196,43.9030143541376,0.338298205921361,132.111061319695
53900000000,0.353741031866469,143.486924567069,0.912019321780378,43.8481894260443,0.912385202408502,43.6007922672651,0.347608830232401,132.473470725671
53950000000,0.359745545042327,142.237200351569,0.908315504076988,43.727437636582,0.908976924331293,43.559515942213,0.355497332056536,131.600220342318
54000000000,0.357441511038604,140.245414137758,0.909980943935894,43.7954412067271,0.910574690131825,43.7692777741042,0.358057508419383,129.417005192263
54050000000,0.345391660232794,141.120882846974,0.907876636809732,43.2127430695588,0.908699757264563,43.1539422995216,0.33971691767976,129.421414538115
54100000000,0.366004373898901,140.881988982581,0.909297165847341,44.0694795647996,0.909987919617875,44.0582901264366,0.360733036257825,130.905311016127
54150000000,0.366996345193877,138.86616861729,0.925278900829245,44.2069120610632,0.925360605005653,44.4867534260636,0.367566610322141,128.687314941393
54200000000,0.367432638256664,136.189699443374,0.951406063008444,43.5702521700082,0.952147198123793,43.7056925968328,0.370810032575718,125.681689943975
54250000000,0.352102963757439,133.195718021572,0.951686846388527,41.5756857867836,0.952125451980821,41.0228453345313,0.356490750898667,122.326262024987
54300000000,0.330184339450162,134.33444271293,0.938775501575848,41.0740964679932,0.939225269760228,40.8785224517883,0.33210903258185,122.711999055225
54350000000,0.326735865617031,134.552774867368,0.932530647907797,40.4346910108895,0.933519026243874,40.5082027209225,0.327401143987291,123.184773646562
54400000000,0.320612335442731,134.543924935188,0.927822852659785,40.0475009075141,0.928936510203103,40.1700020494562,0.321240136812679,123.304561219954
54450000000,0.309701775372097,134.906595419374,0.921409496718725,39.7500796089491,0.921329712609682,39.7266715242762,0.310172718714374,123.749953145188
54500000000,0.305353477120431,139.399236101558,0.917848585376844,39.7225949839924,0.91905754239978,39.6536557672652,0.305447170962279,126.825460992221
54550000000,0.334878457677318,139.137377804924,0.899859044146218,40.3852226973657,0.900092091779495,40.3695502391988,0.334562525479034,129.194879942661
54600000000,0.333533627603602,135.003891292401,0.915584050264757,40.9661833732815,0.915722296378953,40.9005355590222,0.338387470819645,124.793717745165
54650000000,0.314958069122668,135.463046522619,0.935793868377526,41.0931686994949,0.936034236856322,40.7898313863134,0.321877174947905,123.911251078955
54700000000,0.312138103503032,136.283212932194,0.944263355135848,40.184904706073,0.94493545209758,39.6767440169681,0.315873106437163,124.425917610723
54750000000,0.315287833250317,136.333519360329,0.945268113524089,39.41280590497,0.946606463990041,39.1311906089662,0.318105635364995,124.579682380937
54800000000,0.315118878898192,136.581322338748,0.944477882440361,38.7128792869779,0.945684602062977,38.9044517168524,0.318090834607117,124.844056182527
54850000000,0.321373753031597,138.110901535944,0.946836227389029,38.3586239994989,0.947430627902549,38.7094343867854,0.32506992026441,126.194815707149
54900000000,0.329067897551241,137.799039148113,0.966750349687247,38.1968406258281,0.966961925439014,38.3677532676586,0.334152544301079,124.273875291287
54950000000,0.364394427052971,135.355717705728,0.982743476733563,35.4099592496055,0.983197786111774,35.0985869931069,0.342661942436646,121.812799681968
55000000000,0.356848617369967,125.486910664462,0.922901350284917,33.4648887229931,0.923549597393603,33.3625745306217,0.34623953456513,116.9613332444
55050000000,0.298720010232299,120.265115474469,0.886476429054042,36.0330283834042,0.887457878568934,35.9904169902285,0.310302112976898,111.239593783588
55100000000,0.258646178940149,127.895476052379,0.916590105199011,38.0239916431695,0.917582352090559,37.8885860343665,0.271831320671614,115.335031155435
55150000000,0.261444987807643,134.057635218341,0.937095964303644,36.7235530972109,0.937613550125756,36.6594975588055,0.265531631879364,120.244676490728
55200000000,0.281610266308237,136.718385334602,0.940096523998588,35.8429187505112,0.940691792800146,36.1274491229915,0.278892509004307,123.702850885156
55250000000,0.286963459463085,136.022965191246,0.939825862191158,35.141309889951,0.940292553262819,35.5570082861702,0.283595477486492,123.308508031878
55300000000,0.295741708433524,136.839697464349,0.939746392041014,34.6798066545472,0.94030613814247,35.0369762121993,0.289366834532919,124.534802241416
55350000000,0.310805405482402,135.233391108911,0.928338116353971,34.5005586323366,0.928402388764867,34.5228747146184,0.304743063061883,123.971817748796
55400000000,0.312095878944342,132.553159271503,0.925110174603605,34.9600543798493,0.925420463025768,34.4981105233967,0.3083971497415,121.597834299853
55450000000,0.307582473355117,130.689012127022,0.926984136652232,35.099717854205,0.927219043678068,34.7472888386299,0.306733580395965,120.108025906014
55500000000,0.300475224048168,129.869455634488,0.933057855364045,34.9682963311609,0.933652186160323,35.0978771248912,0.302873863315178,119.080898486502
55550000000,0.296831808266741,129.399089481996,0.939286674797734,34.7659800807809,0.9397009991422,34.9912599383984,0.30002659147679,118.509562695375
55600000000,0.301994448037593,128.803842216446,0.951934882163216,35.2171887568098,0.953318431260546,35.4479317250325,0.306592784713832,117.934930690671
55650000000,0.302129057091687,125.206256165192,0.992140643368517,34.4761840882041,0.992797744119591,34.7445387013442,0.312173187336828,114.347866355456
55700000000,0.269100200278373,123.2009953437,0.990362257313798,30.7207824777036,0.990615006936198,30.4800431921951,0.280118708203852,110.48532500344
55750000000,0.264654214450604,125.351025812481,0.959959503041603,30.4812048643209,0.960478196952807,30.1196560561307,0.271710050306297,112.155999679086
55800000000,0.253644817969248,126.509127747113,0.947906820813879,29.8446423046789,0.948136437383132,29.6005375154515,0.258108632137647,112.757735745574
55850000000,0.24076564492661,129.143443623675,0.932224937388577,29.0079912922529,0.932582428694573,29.0263021502826,0.240308624999659,114.333354481873
55900000000,0.260617500811754,138.975146277749,0.890734570063904,28.9240779939177,0.891186877308156,28.8501293584034,0.242124064712197,125.937759661058
55950000000,0.302886701013753,133.499075612018,0.889412227727432,32.3093154959636,0.890059690697367,32.8244491279279,0.291350783735839,124.094878365889
56000000000,0.291987436872489,126.395687059962,0.927292496205575,32.9802065564507,0.928024563062552,33.2970688405818,0.29312775234325,116.598220467563
56050000000,0.27036991833941,125.198493622897,0.949104951329824,32.4756318264415,0.949971814988359,32.3048095471652,0.276893893576796,114.022030591359
56100000000,0.264428743152599,125.818818271424,0.956278814106057,31.2870076216024,0.957043889832761,30.8276411949774,0.266159799316713,114.124482314138
56150000000,0.253303968305775,126.18650484508,0.955530550235219,30.9536072728574,0.956226758501082,30.6803776953772,0.256752274949345,114.203081444354
56200000000,0.262403230893555,126.780850252956,0.95503527592167,29.8240460214812,0.955613116445889,29.6030863924849,0.261336623221953,115.251340975498
56250000000,0.259546919818747,125.006016150516,0.949002671421806,29.5267580057257,0.949560992373442,29.4679788252507,0.261754656851326,113.948529599137
56300000000,0.236123314795399,127.860587127741,0.953402465543123,30.6080899474891,0.954087609646425,30.6719360822772,0.241157032448237,114.771703339066
56350000000,0.263668932643099,133.076363960724,0.996120260137941,29.4119616550696,0.996669623166883,29.8755606667818,0.263065663035935,120.771650170447
56400000000,0.316061568633703,124.826130208125,1.00673706406023,24.7162858331287,1.00715532398411,24.5516602750902,0.307935967387107,113.194632775819
56450000000,0.276575468245618,107.974108724237,0.904231389682233,24.7309483274824,0.904859181070598,23.9239921657307,0.288843801610183,99.2657824677656
56500000000,0.191888948199842,113.055575701276,0.914091036868546,29.038815595574,0.914529685102494,28.4375929687862,0.211518099603157,98.4821052402731
