! Python used to change reference impedance from 50 to 1.
# Hz S RI R 1
135000000000.000	-3.8297590584E-001	-1.8676720092E-001	+1.9930587843E-001	-8.3393616387E-001	+2.1287236892E-001	-8.3004081217E-001	-4.2333054931E-001	-1.4018921537E-002
135100000000.000	-3.8767704767E-001	-1.8437715039E-001	+1.8698873009E-001	-8.4146094061E-001	+2.0526497824E-001	-8.3367719001E-001	-4.2669096261E-001	-1.0228527284E-002
135200000000.000	-3.9232465704E-001	-1.7893481138E-001	+1.8126913781E-001	-8.4910333972E-001	+1.9448118618E-001	-8.4073343966E-001	-4.2846671681E-001	-7.1993193175E-003
135300000000.000	-3.9129747855E-001	-1.7418457327E-001	+1.7405111775E-001	-8.4486270682E-001	+1.8266173559E-001	-8.3880582477E-001	-4.2384601477E-001	-2.2466750817E-004
135400000000.000	-3.9416312020E-001	-1.7222947533E-001	+1.6300444363E-001	-8.4383901567E-001	+1.7788624430E-001	-8.4190378469E-001	-4.2783496242E-001	+7.4137364588E-003
135500000000.000	-3.9949201569E-001	-1.6573856914E-001	+1.5637783622E-001	-8.4348275757E-001	+1.6572021598E-001	-8.3847672145E-001	-4.3037952400E-001	+1.4520898715E-002
135600000000.000	-4.0363458664E-001	-1.6104117616E-001	+1.5233118281E-001	-8.4520848385E-001	+1.6140641661E-001	-8.4000328383E-001	-4.3231511538E-001	+2.1357112513E-002
135700000000.000	-4.0503013720E-001	-1.5515315917E-001	+1.4646003815E-001	-8.4638425359E-001	+1.5207278953E-001	-8.3680227007E-001	-4.3108469123E-001	+2.7538822264E-002
135800000000.000	-4.0737769416E-001	-1.5499321209E-001	+1.3811266429E-001	-8.4941815886E-001	+1.4418286400E-001	-8.4452866358E-001	-4.3300909981E-001	+2.5579728250E-002
135900000000.000	-4.1300231170E-001	-1.5008590021E-001	+1.2757667039E-001	-8.5043325018E-001	+1.3592415420E-001	-8.4631239309E-001	-4.3941651058E-001	+2.8160692057E-002
136000000000.000	-4.1609950630E-001	-1.4863326443E-001	+1.1968914592E-001	-8.5101747308E-001	+1.2170676253E-001	-8.4293238565E-001	-4.4276881991E-001	+3.1981940558E-002
136100000000.000	-4.2350738149E-001	-1.4579469236E-001	+1.1375782846E-001	-8.5079710594E-001	+1.1930379107E-001	-8.4568721779E-001	-4.4597623445E-001	+3.6535282374E-002
136200000000.000	-4.2657880156E-001	-1.4795010009E-001	+1.0739607989E-001	-8.5291734746E-001	+1.1143765288E-001	-8.3996485839E-001	-4.4616493605E-001	+3.8046022933E-002
136300000000.000	-4.3247677588E-001	-1.4386021459E-001	+9.9429928379E-002	-8.5233080348E-001	+1.0327681085E-001	-8.4577129870E-001	-4.4809191436E-001	+4.3340011385E-002
136400000000.000	-4.2787950275E-001	-1.3927899135E-001	+8.9229790074E-002	-8.4831428582E-001	+9.4859413968E-002	-8.4424876811E-001	-4.4643390989E-001	+4.6985322140E-002
136500000000.000	-4.2732219572E-001	-1.3631264898E-001	+8.0541126707E-002	-8.4628126105E-001	+8.4692590775E-002	-8.4402816827E-001	-4.4428919832E-001	+5.0287180101E-002
136600000000.000	-4.2627733633E-001	-1.3288183666E-001	+7.2955708607E-002	-8.4425245200E-001	+8.0135244766E-002	-8.3998161292E-001	-4.3916496300E-001	+5.2245840293E-002
136700000000.000	-4.2972917517E-001	-1.2773849783E-001	+6.9316051168E-002	-8.4454833476E-001	+7.1887797276E-002	-8.4196433836E-001	-4.4249022674E-001	+5.6661343108E-002
136800000000.000	-4.2947549543E-001	-1.2288486040E-001	+6.4697016599E-002	-8.4848641779E-001	+6.5998901323E-002	-8.4435087631E-001	-4.4141600331E-001	+6.1578005299E-002
136900000000.000	-4.3047061055E-001	-1.1792806356E-001	+5.5374971483E-002	-8.4879653349E-001	+5.5814054055E-002	-8.4577202726E-001	-4.4090301874E-001	+7.0623209236E-002
137000000000.000	-4.3141967545E-001	-1.1351173784E-001	+4.5610160091E-002	-8.4766533647E-001	+4.8863094407E-002	-8.4815962256E-001	-4.3754064112E-001	+7.7754003673E-002
137100000000.000	-4.2698891386E-001	-1.0816700883E-001	+3.9957935042E-002	-8.4544363996E-001	+4.3882182526E-002	-8.4439425514E-001	-4.3488773050E-001	+8.0116213735E-002
137200000000.000	-4.2869063121E-001	-1.0851399649E-001	+3.3584246427E-002	-8.4922942148E-001	+3.8933070012E-002	-8.4961539243E-001	-4.3596978523E-001	+8.4053375438E-002
137300000000.000	-4.3561159588E-001	-1.0270651587E-001	+2.2624136569E-002	-8.5212186719E-001	+2.8792333258E-002	-8.5257967756E-001	-4.3499388953E-001	+8.6216187657E-002
137400000000.000	-4.3812838846E-001	-9.5827998848E-002	+9.6280085904E-003	-8.5331747885E-001	+1.8033564374E-002	-8.5393339093E-001	-4.3792628025E-001	+9.0341444885E-002
137500000000.000	-4.4009699183E-001	-9.3509464514E-002	-1.1273753303E-003	-8.5110299358E-001	+9.6555405305E-003	-8.5291235679E-001	-4.3721296596E-001	+9.4828945814E-002
137600000000.000	-4.4300267868E-001	-9.0104300117E-002	-1.0356519888E-002	-8.4831571337E-001	-4.1553542238E-004	-8.4947291724E-001	-4.3799526632E-001	+1.0152684243E-001
137700000000.000	-4.4443712038E-001	-8.6851263327E-002	-1.8694992521E-002	-8.4637702419E-001	-1.0385609533E-002	-8.4818176542E-001	-4.3771704620E-001	+1.0696555898E-001
137800000000.000	-4.4258685990E-001	-8.3996196693E-002	-2.3101461965E-002	-8.4500153632E-001	-1.3968163118E-002	-8.4518201354E-001	-4.3362544959E-001	+1.1067566144E-001
137900000000.000	-4.4301099039E-001	-8.0863727516E-002	-3.1617360657E-002	-8.4584456108E-001	-2.1332062561E-002	-8.4661384624E-001	-4.3397597927E-001	+1.1170182417E-001
138000000000.000	-4.4387431817E-001	-7.7113902215E-002	-3.9371720170E-002	-8.4491952603E-001	-3.0995135362E-002	-8.4608120082E-001	-4.3347677808E-001	+1.1379371240E-001
138100000000.000	-4.4529027341E-001	-7.5161600150E-002	-4.6928408941E-002	-8.4448051469E-001	-3.8024922058E-002	-8.4443781023E-001	-4.3352417633E-001	+1.1560038152E-001
138200000000.000	-4.4918609723E-001	-7.1113453018E-002	-5.1956613964E-002	-8.4443314334E-001	-4.5578739961E-002	-8.4391092660E-001	-4.3512231035E-001	+1.1875050206E-001
138300000000.000	-4.5301106060E-001	-6.7765351875E-002	-5.8393413783E-002	-8.4816713520E-001	-5.0342981054E-002	-8.4744623576E-001	-4.3708744789E-001	+1.2478366819E-001
138400000000.000	-4.5164023227E-001	-6.1805908700E-002	-6.6926242957E-002	-8.4445505310E-001	-6.2024415712E-002	-8.4398001700E-001	-4.3406600895E-001	+1.3153039883E-001
138500000000.000	-4.5175386451E-001	-5.8274462991E-002	-7.7980775930E-002	-8.4373767310E-001	-6.9574328390E-002	-8.4375509768E-001	-4.3103922950E-001	+1.3530979463E-001
138600000000.000	-4.4744603591E-001	-5.0079735501E-002	-8.5284303500E-002	-8.4011417623E-001	-8.0432870766E-002	-8.3955037682E-001	-4.2671701159E-001	+1.3671365008E-001
138700000000.000	-4.4856608105E-001	-5.2249358226E-002	-8.9279625977E-002	-8.3696209679E-001	-8.5203784674E-002	-8.3778173216E-001	-4.2625770549E-001	+1.3396257404E-001
138800000000.000	-4.4621683848E-001	-4.6852038532E-002	-9.8086404337E-002	-8.3584530378E-001	-9.4574229700E-002	-8.3268513794E-001	-4.2480861069E-001	+1.3606637856E-001
138900000000.000	-4.4759275343E-001	-4.2914941142E-002	-1.0356319917E-001	-8.3246809091E-001	-1.0191546850E-001	-8.3513265848E-001	-4.2518036802E-001	+1.4036393730E-001
139000000000.000	-4.4728740917E-001	-4.3084696484E-002	-1.0708427875E-001	-8.3099482871E-001	-1.0033217829E-001	-8.3152049477E-001	-4.2485581525E-001	+1.4559883246E-001
139100000000.000	-4.4934222754E-001	-4.0280954475E-002	-1.1341544002E-001	-8.3258885005E-001	-1.0963472070E-001	-8.3292974908E-001	-4.2539302255E-001	+1.5308195155E-001
139200000000.000	-4.5072415692E-001	-3.9179510312E-002	-1.2090651248E-001	-8.3648433256E-001	-1.1053478540E-001	-8.3401225123E-001	-4.2284941595E-001	+1.5937662090E-001
139300000000.000	-4.4975810042E-001	-3.0904818671E-002	-1.2513017305E-001	-8.4208548772E-001	-1.2017235346E-001	-8.3587942990E-001	-4.2237197206E-001	+1.6455553902E-001
139400000000.000	-4.5227550831E-001	-2.8684445939E-002	-1.3753682547E-001	-8.4717002134E-001	-1.3095235250E-001	-8.4507371610E-001	-4.1824080231E-001	+1.6915861022E-001
139500000000.000	-4.5481793525E-001	-1.8774603197E-002	-1.4968453465E-001	-8.5146858665E-001	-1.4722516148E-001	-8.4948519745E-001	-4.2094233537E-001	+1.7101958979E-001
139600000000.000	-4.5196333640E-001	-1.4348291188E-002	-1.6731315424E-001	-8.4612191097E-001	-1.6454804379E-001	-8.4632950320E-001	-4.1815283185E-001	+1.8031723876E-001
139700000000.000	-4.5445369410E-001	-1.0367741191E-002	-1.8064125754E-001	-8.3881406076E-001	-1.7570368099E-001	-8.3830447762E-001	-4.1489865147E-001	+1.8730904011E-001
139800000000.000	-4.5312711480E-001	-4.6896801676E-003	-1.8994078251E-001	-8.2995435135E-001	-1.8605502953E-001	-8.3060807194E-001	-4.0882223036E-001	+1.9340629759E-001
139900000000.000	-4.5186910453E-001	-4.7623773758E-003	-1.9379609894E-001	-8.2358402109E-001	-1.8564156357E-001	-8.2583183234E-001	-4.0465887085E-001	+1.9325922187E-001
140000000000.000	-4.5036923456E-001	-4.1639648998E-004	-1.9896653800E-001	-8.1971477566E-001	-1.9331965453E-001	-8.1989392739E-001	-4.0257511163E-001	+1.9492123825E-001
140100000000.000	-4.5208384277E-001	+2.1321990084E-003	-2.0292484118E-001	-8.1781924830E-001	-1.9839751722E-001	-8.1866355654E-001	-4.0235349779E-001	+1.9344261128E-001
140200000000.000	-4.5178002547E-001	+6.3677969996E-003	-2.0910837702E-001	-8.1533463342E-001	-2.0298246886E-001	-8.1588325892E-001	-4.0014660162E-001	+1.9203479795E-001
140300000000.000	-4.5421360911E-001	+1.1717453699E-002	-2.1347996451E-001	-8.1377973329E-001	-2.0519022582E-001	-8.1542842578E-001	-4.0145900761E-001	+1.9183093663E-001
140400000000.000	-4.5611299716E-001	+1.8551336589E-002	-2.1990695475E-001	-8.1868902813E-001	-2.1177506816E-001	-8.2074586992E-001	-4.0310647518E-001	+1.9614492961E-001
140500000000.000	-4.5456983168E-001	+2.2611939033E-002	-2.2424204032E-001	-8.1851183976E-001	-2.1856225565E-001	-8.2085679223E-001	-4.0124661104E-001	+2.0047862034E-001
140600000000.000	-4.5296002245E-001	+3.2153479993E-002	-2.4105868534E-001	-8.2141407011E-001	-2.3657944834E-001	-8.2305800937E-001	-3.9852830556E-001	+2.1088176980E-001
140700000000.000	-4.4322783771E-001	+3.7064503128E-002	-2.5047742014E-001	-8.1255935925E-001	-2.4350976972E-001	-8.1433262160E-001	-3.9232849646E-001	+2.1464714940E-001
140800000000.000	-4.3471445551E-001	+3.9629966877E-002	-2.5857173235E-001	-8.0683872169E-001	-2.4937635216E-001	-8.0973476238E-001	-3.8685370497E-001	+2.1801016450E-001
140900000000.000	-4.2925941381E-001	+3.7656066651E-002	-2.6244507766E-001	-8.0276266599E-001	-2.5261274255E-001	-8.0602941396E-001	-3.8170108029E-001	+2.1924670422E-001
141000000000.000	-4.3091351275E-001	+3.4953333695E-002	-2.6480777502E-001	-8.0314793671E-001	-2.5719242039E-001	-8.0573762919E-001	-3.7848475182E-001	+2.2114655830E-001
141100000000.000	-4.3619974960E-001	+3.9687971537E-002	-2.7070844618E-001	-8.0607595224E-001	-2.6386433492E-001	-8.0863150499E-001	-3.7533012444E-001	+2.2518189849E-001
141200000000.000	-4.3865161541E-001	+4.4594197377E-002	-2.8196400704E-001	-8.0734288339E-001	-2.7336241871E-001	-8.1073998871E-001	-3.7278109701E-001	+2.2774446392E-001
141300000000.000	-4.3919502430E-001	+5.0021045183E-002	-2.9136155286E-001	-8.0594440366E-001	-2.8374301445E-001	-8.0895651977E-001	-3.7294880367E-001	+2.3201466931E-001
141400000000.000	-4.3832529843E-001	+5.2392136253E-002	-3.0094105804E-001	-8.0643118285E-001	-2.9311279934E-001	-8.0871312036E-001	-3.7286874500E-001	+2.3708701624E-001
141500000000.000	-4.3848924812E-001	+5.8536422663E-002	-3.1442858423E-001	-8.0153578586E-001	-3.0539157272E-001	-8.0393670227E-001	-3.7015724142E-001	+2.4576649239E-001
141600000000.000	-4.3753621183E-001	+6.5166019431E-002	-3.2282840357E-001	-8.0481029717E-001	-3.1605093087E-001	-8.0643549907E-001	-3.6932626306E-001	+2.4574950861E-001
141700000000.000	-4.3206753521E-001	+6.8474083542E-002	-3.3933878624E-001	-7.9571306164E-001	-3.3030203999E-001	-7.9749365144E-001	-3.6446916986E-001	+2.5494743088E-001
141800000000.000	-4.3258188803E-001	+7.2036625132E-002	-3.4692566226E-001	-7.8598912363E-001	-3.3897237952E-001	-7.8672439200E-001	-3.5658990404E-001	+2.5687396893E-001
141900000000.000	-4.2985033000E-001	+7.7556317475E-002	-3.4945602069E-001	-7.7704580886E-001	-3.3882488769E-001	-7.7940470904E-001	-3.4697201818E-001	+2.5810706531E-001
142000000000.000	-4.2672032257E-001	+7.7765552012E-002	-3.5285710874E-001	-7.7580245571E-001	-3.4250674805E-001	-7.7733356318E-001	-3.4072579734E-001	+2.5473946112E-001
142100000000.000	-4.2688464579E-001	+8.1324311947E-002	-3.5760170333E-001	-7.7333856217E-001	-3.4554411405E-001	-7.7624517500E-001	-3.3956996780E-001	+2.5208873518E-001
142200000000.000	-4.2349027627E-001	+8.5365791469E-002	-3.6112725173E-001	-7.7406939239E-001	-3.5050947663E-001	-7.7539877780E-001	-3.3976074960E-001	+2.4943613637E-001
142300000000.000	-4.1949846690E-001	+8.8451818636E-002	-3.6964402280E-001	-7.7426916426E-001	-3.5901009871E-001	-7.7686828491E-001	-3.4078329922E-001	+2.5156043726E-001
142400000000.000	-4.1562798421E-001	+9.3168528888E-002	-3.7718071400E-001	-7.7321478661E-001	-3.6660639978E-001	-7.7375856060E-001	-3.4069395667E-001	+2.5444200616E-001
142500000000.000	-4.1389364101E-001	+9.9796330129E-002	-3.8877561010E-001	-7.7352718868E-001	-3.8051367961E-001	-7.7571504080E-001	-3.3760510123E-001	+2.6121297324E-001
142600000000.000	-4.0914896297E-001	+1.0212230013E-001	-3.9630904250E-001	-7.6767180549E-001	-3.8400425968E-001	-7.6931805149E-001	-3.3243738841E-001	+2.6527120039E-001
142700000000.000	-4.0605246484E-001	+1.0988948964E-001	-4.0923307861E-001	-7.6459323831E-001	-3.9985829536E-001	-7.6633566269E-001	-3.2588596451E-001	+2.7444884960E-001
142800000000.000	-3.9846699350E-001	+1.0975050550E-001	-4.1131617953E-001	-7.5576229277E-001	-4.0220923029E-001	-7.5901840252E-001	-3.1499842050E-001	+2.7680162096E-001
142900000000.000	-3.9630599838E-001	+1.0679095458E-001	-4.1643134618E-001	-7.5229388597E-001	-4.0876710875E-001	-7.5572805759E-001	-3.0948920409E-001	+2.7462615934E-001
143000000000.000	-3.9672330552E-001	+1.0737998296E-001	-4.2097122673E-001	-7.5184043737E-001	-4.1353361119E-001	-7.5589312394E-001	-3.0709300606E-001	+2.7444303711E-001
143100000000.000	-3.9626535826E-001	+1.0927570450E-001	-4.2919543346E-001	-7.5155579980E-001	-4.2247209448E-001	-7.5360997116E-001	-3.0490673855E-001	+2.7178503581E-001
143200000000.000	-3.9588003924E-001	+1.1302078009E-001	-4.3870734673E-001	-7.4824987701E-001	-4.3208014433E-001	-7.5213928984E-001	-3.0459666927E-001	+2.7053182235E-001
143300000000.000	-3.9487256446E-001	+1.1667669795E-001	-4.4878041943E-001	-7.4420119491E-001	-4.4078856074E-001	-7.4743104696E-001	-3.0360010002E-001	+2.7115393570E-001
143400000000.000	-3.9318815835E-001	+1.2348428056E-001	-4.5695406613E-001	-7.4237644244E-001	-4.5141429064E-001	-7.4490589196E-001	-3.0107950796E-001	+2.7787606114E-001
143500000000.000	-3.8887739702E-001	+1.2440696780E-001	-4.6752591006E-001	-7.3881628353E-001	-4.6025938029E-001	-7.4317888246E-001	-2.9546279649E-001	+2.8076716462E-001
143600000000.000	-3.8693849464E-001	+1.2602525042E-001	-4.8057005251E-001	-7.2959595309E-001	-4.7153263972E-001	-7.3459531368E-001	-2.8911158108E-001	+2.8521098742E-001
143700000000.000	-3.8709649843E-001	+1.2846714491E-001	-4.8659694726E-001	-7.2401349483E-001	-4.7797652508E-001	-7.3044830426E-001	-2.8439804896E-001	+2.8337602027E-001
143800000000.000	-3.8093824094E-001	+1.3292641103E-001	-4.9725734140E-001	-7.1452881916E-001	-4.8632169114E-001	-7.2202702377E-001	-2.8299640452E-001	+2.8856130792E-001
143900000000.000	-3.7890695669E-001	+1.3785046787E-001	-5.0005482001E-001	-7.0676290035E-001	-4.9050581623E-001	-7.1365498069E-001	-2.7398733722E-001	+2.8967122333E-001
144000000000.000	-3.7171582055E-001	+1.4290244933E-001	-5.0077359054E-001	-7.0429139921E-001	-4.8736512446E-001	-7.1262792082E-001	-2.6567170314E-001	+2.8478327384E-001
144100000000.000	-3.6743034520E-001	+1.4469915380E-001	-5.1025959671E-001	-7.0481752017E-001	-4.9384587868E-001	-7.1466326042E-001	-2.6770246664E-001	+2.8142275644E-001
144200000000.000	-3.6296642601E-001	+1.4839295072E-001	-5.1921468874E-001	-7.0394473245E-001	-5.0424280985E-001	-7.1341155884E-001	-2.6471923421E-001	+2.8576968499E-001
144300000000.000	-3.5900749869E-001	+1.5061951152E-001	-5.2820249341E-001	-7.0086251280E-001	-5.1737132268E-001	-7.0900726583E-001	-2.5982718381E-001	+2.8818453722E-001
144400000000.000	-3.5657210395E-001	+1.5207179798E-001	-5.3606482171E-001	-6.9575228323E-001	-5.2712394382E-001	-7.0245071102E-001	-2.5663895824E-001	+2.9131142349E-001
144500000000.000	-3.5227408701E-001	+1.5546111437E-001	-5.4343843612E-001	-6.8792896717E-001	-5.3620959154E-001	-6.9423186225E-001	-2.5041075890E-001	+2.9471431633E-001
144600000000.000	-3.4711295550E-001	+1.5954181495E-001	-5.5195924944E-001	-6.8145327239E-001	-5.4326262674E-001	-6.8851890768E-001	-2.4449141406E-001	+2.9550253400E-001
144700000000.000	-3.4054402366E-001	+1.5772234004E-001	-5.5356245506E-001	-6.7208707410E-001	-5.4377922313E-001	-6.7897662844E-001	-2.4008751974E-001	+2.9145368747E-001
144800000000.000	-3.3655622583E-001	+1.5960791739E-001	-5.5586004102E-001	-6.7537184917E-001	-5.4747045114E-001	-6.8074828401E-001	-2.3556295208E-001	+2.9337738791E-001
144900000000.000	-3.3525827823E-001	+1.5889398928E-001	-5.6545594155E-001	-6.7295617243E-001	-5.5684759979E-001	-6.7749530968E-001	-2.2962023560E-001	+2.8909155337E-001
145000000000.000	-3.3545817310E-001	+1.5971753983E-001	-5.7558669043E-001	-6.6908805904E-001	-5.6478198795E-001	-6.7611625699E-001	-2.2845273870E-001	+2.8812401509E-001
145100000000.000	-3.3417717017E-001	+1.6311492440E-001	-5.8503824588E-001	-6.6713388317E-001	-5.7510197244E-001	-6.7389837859E-001	-2.2518866543E-001	+2.8982550019E-001
145200000000.000	-3.3159307761E-001	+1.6635253665E-001	-5.9611306921E-001	-6.6248126530E-001	-5.8579804847E-001	-6.6918301974E-001	-2.2310631430E-001	+2.9150779713E-001
145300000000.000	-3.2563875754E-001	+1.6871821462E-001	-6.0551910807E-001	-6.5331150268E-001	-5.9625812280E-001	-6.6043942451E-001	-2.1913430156E-001	+2.9229864177E-001
145400000000.000	-3.1946019010E-001	+1.6773848722E-001	-6.1039256626E-001	-6.4481631072E-001	-6.0160905307E-001	-6.5226187963E-001	-2.1472677414E-001	+2.9156403475E-001
145500000000.000	-3.1592894362E-001	+1.6770311165E-001	-6.1537664957E-001	-6.3904912845E-001	-6.0708189139E-001	-6.4580035697E-001	-2.1112921558E-001	+2.9153263837E-001
145600000000.000	-3.1346345373E-001	+1.6894358280E-001	-6.2488217165E-001	-6.3310193331E-001	-6.1435540489E-001	-6.4245302272E-001	-2.0643454613E-001	+2.9148593217E-001
145700000000.000	-3.1028358021E-001	+1.7109581984E-001	-6.3003325034E-001	-6.2573767775E-001	-6.2191844556E-001	-6.3287276780E-001	-2.0013216763E-001	+2.9125099756E-001
145800000000.000	-3.0880986093E-001	+1.7316986205E-001	-6.3426836677E-001	-6.2399930511E-001	-6.2783978918E-001	-6.3015775295E-001	-1.9476131697E-001	+2.8904334565E-001
145900000000.000	-3.0482657620E-001	+1.7836354759E-001	-6.4459915411E-001	-6.1810697740E-001	-6.3769990247E-001	-6.2467014390E-001	-1.9287850633E-001	+2.9219928312E-001
146000000000.000	-2.9911415395E-001	+1.8208261160E-001	-6.5143881629E-001	-6.1162520838E-001	-6.4475759428E-001	-6.1792015107E-001	-1.8641187572E-001	+2.9392808260E-001
146100000000.000	-2.8921802254E-001	+1.8416974840E-001	-6.5800213021E-001	-6.0712045380E-001	-6.5010716702E-001	-6.1585894889E-001	-1.7977712868E-001	+2.9480415144E-001
146200000000.000	-2.8336629839E-001	+1.8152391905E-001	-6.6861505003E-001	-6.0277172676E-001	-6.6323490490E-001	-6.0784774555E-001	-1.7418237350E-001	+2.9304952291E-001
146300000000.000	-2.7757444802E-001	+1.8253189655E-001	-6.7727906240E-001	-5.9389155380E-001	-6.7168039110E-001	-5.9846433892E-001	-1.6885769076E-001	+2.9017828725E-001
146400000000.000	-2.7305273957E-001	+1.8270955813E-001	-6.8342936726E-001	-5.8382348605E-001	-6.7653353134E-001	-5.8733696135E-001	-1.6298612489E-001	+2.8609456023E-001
146500000000.000	-2.6996941696E-001	+1.8335794243E-001	-6.8635371117E-001	-5.7445109477E-001	-6.8116466852E-001	-5.7799502900E-001	-1.5847023842E-001	+2.8245154773E-001
146600000000.000	-2.6730075811E-001	+1.8495018846E-001	-6.8915079951E-001	-5.6911168351E-001	-6.8238703521E-001	-5.7489460195E-001	-1.5442158892E-001	+2.8055172802E-001
