! Python used to change reference impedance from 50 to 1.
# Hz S RI R 1
135000000000.000	-3.9847964511E-001	-1.5142934035E-001	+1.8666680472E-001	-8.4155362558E-001	+1.8531693369E-001	-8.3788453999E-001	-4.2138361058E-001	-1.7108934431E-002
135100000000.000	-4.0221705764E-001	-1.5007592048E-001	+1.8414620703E-001	-8.4475997960E-001	+1.7802884104E-001	-8.4095741922E-001	-4.2322253642E-001	-1.2353122439E-002
135200000000.000	-4.0427865051E-001	-1.4460742403E-001	+1.7317677104E-001	-8.5138750583E-001	+1.6615676741E-001	-8.4758868628E-001	-4.2571808243E-001	-1.0280129620E-002
135300000000.000	-4.0204753847E-001	-1.3915590474E-001	+1.6014129499E-001	-8.4793576655E-001	+1.5473295581E-001	-8.4515944759E-001	-4.2328354719E-001	-3.4776029487E-003
135400000000.000	-4.0490172301E-001	-1.3716346892E-001	+1.4596559072E-001	-8.4853416091E-001	+1.4935513187E-001	-8.4815925676E-001	-4.2798697849E-001	+3.8915222791E-003
135500000000.000	-4.0912363855E-001	-1.3142535405E-001	+1.3852140717E-001	-8.4995126902E-001	+1.3749395574E-001	-8.4415914950E-001	-4.3012522865E-001	+1.0046126051E-002
135600000000.000	-4.1331992740E-001	-1.2711721078E-001	+1.3318748621E-001	-8.5233794936E-001	+1.3356480876E-001	-8.4555820009E-001	-4.3148452364E-001	+1.5503512084E-002
135700000000.000	-4.1413441033E-001	-1.2083103737E-001	+1.2554953488E-001	-8.5325908322E-001	+1.2504906001E-001	-8.4175554167E-001	-4.2998875003E-001	+2.1142038049E-002
135800000000.000	-4.1599229907E-001	-1.2137375852E-001	+1.1662482975E-001	-8.5541336174E-001	+1.1600578097E-001	-8.5007463452E-001	-4.3202777033E-001	+1.9446739632E-002
135900000000.000	-4.2167284849E-001	-1.1638281924E-001	+1.0661569352E-001	-8.5486517552E-001	+1.0744452018E-001	-8.5113540802E-001	-4.3799249959E-001	+2.2851802269E-002
136000000000.000	-4.2479416162E-001	-1.1538620617E-001	+9.8102867136E-002	-8.5452273770E-001	+9.3284721850E-002	-8.4745223742E-001	-4.4121795039E-001	+2.7521831611E-002
136100000000.000	-4.3256400453E-001	-1.1235304327E-001	+9.1050409432E-002	-8.5385466270E-001	+9.1068837239E-002	-8.4973205759E-001	-4.4440585017E-001	+3.2384171356E-002
136200000000.000	-4.3464818803E-001	-1.1408998105E-001	+8.2894931087E-002	-8.5560616058E-001	+8.2412640427E-002	-8.4399855690E-001	-4.4445510597E-001	+3.4440666355E-002
136300000000.000	-4.4106846233E-001	-1.0903121889E-001	+7.3337382180E-002	-8.5530523952E-001	+7.3552114735E-002	-8.4975946866E-001	-4.4613402643E-001	+4.0315260424E-002
136400000000.000	-4.3671806441E-001	-1.0447239923E-001	+6.3081313357E-002	-8.5177592306E-001	+6.5551050063E-002	-8.4749211771E-001	-4.4422612625E-001	+4.3978736376E-002
136500000000.000	-4.3723584241E-001	-1.0092160539E-001	+5.5195279239E-002	-8.5119011975E-001	+5.5658567977E-002	-8.4683867182E-001	-4.4240217484E-001	+4.7569327892E-002
136600000000.000	-4.3587305157E-001	-9.5621351535E-002	+4.6235985718E-002	-8.4854394695E-001	+5.0499890144E-002	-8.4226153412E-001	-4.3711356472E-001	+4.9663423414E-002
136700000000.000	-4.3740932174E-001	-8.8828826699E-002	+4.3029303149E-002	-8.4795535396E-001	+4.2517942451E-002	-8.4433260821E-001	-4.4228465552E-001	+5.3247885689E-002
136800000000.000	-4.3589045595E-001	-8.6124732947E-002	+3.9368982205E-002	-8.5065975801E-001	+3.6324528808E-002	-8.4608904758E-001	-4.4198890280E-001	+5.8566666178E-002
136900000000.000	-4.3686361083E-001	-8.2060459110E-002	+3.0141892949E-002	-8.5031015233E-001	+2.7253499223E-002	-8.4733365208E-001	-4.4137654600E-001	+6.7166858747E-002
137000000000.000	-4.3768289989E-001	-7.7254836551E-002	+1.9707029418E-002	-8.4839130800E-001	+1.9617115775E-002	-8.4904766237E-001	-4.3816374718E-001	+7.3729815859E-002
137100000000.000	-4.3309936811E-001	-7.2213102637E-002	+1.3962262651E-002	-8.4588560566E-001	+1.5654228344E-002	-8.4521384948E-001	-4.3546083084E-001	+7.5955008545E-002
137200000000.000	-4.3549718996E-001	-7.1727696224E-002	+6.0810787746E-003	-8.4928995729E-001	+1.0363130946E-002	-8.5023044084E-001	-4.3572997622E-001	+7.9905816820E-002
137300000000.000	-4.4218753761E-001	-6.5751588482E-002	-5.3783956115E-003	-8.5202099088E-001	-4.2225105449E-004	-8.5290550460E-001	-4.3471152978E-001	+8.1630350774E-002
137400000000.000	-4.4412143413E-001	-5.9070903365E-002	-1.7870340409E-002	-8.5300280975E-001	-1.1047507123E-002	-8.5400749018E-001	-4.3817301830E-001	+8.5652788804E-002
137500000000.000	-4.4581344576E-001	-5.6751721564E-002	-2.7838980064E-002	-8.5071455585E-001	-1.9395573787E-002	-8.5272547715E-001	-4.3791314655E-001	+9.0015200402E-002
137600000000.000	-4.4843877318E-001	-5.3415851143E-002	-3.6338041263E-002	-8.4781103865E-001	-2.9432714822E-002	-8.4905361211E-001	-4.3877982072E-001	+9.7064619227E-002
137700000000.000	-4.4951677601E-001	-5.0204012130E-002	-4.4063861662E-002	-8.4566147102E-001	-3.8950850901E-002	-8.4738364953E-001	-4.3817078994E-001	+1.0249990156E-001
137800000000.000	-4.4712068034E-001	-4.7954659539E-002	-4.9040484578E-002	-8.4480879713E-001	-4.2380604154E-002	-8.4487255978E-001	-4.3377399945E-001	+1.0586875156E-001
137900000000.000	-4.4738686230E-001	-4.4396677344E-002	-5.9114006469E-002	-8.4522453802E-001	-4.9550401915E-002	-8.4592023474E-001	-4.3434585221E-001	+1.0709907893E-001
138000000000.000	-4.4767423374E-001	-4.1039390575E-002	-6.6815075620E-002	-8.4429603032E-001	-5.9246009165E-002	-8.4535045460E-001	-4.3432236274E-001	+1.0986397071E-001
138100000000.000	-4.4912883693E-001	-3.8650891468E-002	-7.4604739595E-002	-8.4338483031E-001	-6.6927464683E-002	-8.4327380906E-001	-4.3429214172E-001	+1.1208667370E-001
138200000000.000	-4.5260011880E-001	-3.4570598113E-002	-8.0300185991E-002	-8.4324722498E-001	-7.4834300079E-002	-8.4262289179E-001	-4.3570089415E-001	+1.1553615639E-001
138300000000.000	-4.5634179751E-001	-3.1316028291E-002	-8.7140934543E-002	-8.4674611456E-001	-8.0046552822E-002	-8.4580691123E-001	-4.3748726071E-001	+1.2127172727E-001
138400000000.000	-4.5467865537E-001	-2.5905820612E-002	-9.5290543214E-002	-8.4258173729E-001	-9.1499757854E-002	-8.4167356385E-001	-4.3427188980E-001	+1.2779831888E-001
138500000000.000	-4.5480190066E-001	-2.2938237417E-002	-1.0604584795E-001	-8.4132574309E-001	-9.8519247426E-002	-8.4095595351E-001	-4.3100672559E-001	+1.3152894285E-001
138600000000.000	-4.5031686051E-001	-1.5178737408E-002	-1.1339362940E-001	-8.3747887998E-001	-1.0978904103E-001	-8.3609267101E-001	-4.2633213949E-001	+1.3324143154E-001
138700000000.000	-4.5257844556E-001	-1.4878523110E-002	-1.1720350361E-001	-8.3493943239E-001	-1.1383974904E-001	-8.3476952468E-001	-4.2647433499E-001	+1.3032165300E-001
138800000000.000	-4.4934657821E-001	-1.0241523897E-002	-1.2725459619E-001	-8.3375636457E-001	-1.2272214718E-001	-8.2943161698E-001	-4.2578609015E-001	+1.3309009939E-001
138900000000.000	-4.5093824527E-001	-6.2154831684E-003	-1.3403111013E-001	-8.3075493483E-001	-1.3013966640E-001	-8.3172843482E-001	-4.2653644666E-001	+1.3783828317E-001
139000000000.000	-4.5149203931E-001	-6.0271317222E-003	-1.3771343332E-001	-8.3017333518E-001	-1.2907960625E-001	-8.2819607592E-001	-4.2607641843E-001	+1.4284756600E-001
139100000000.000	-4.5266613965E-001	-2.5602442098E-003	-1.4412890950E-001	-8.3114507181E-001	-1.3860954896E-001	-8.2885070707E-001	-4.2659200356E-001	+1.4962520451E-001
139200000000.000	-4.5209726723E-001	-5.2644380854E-004	-1.5080579086E-001	-8.3373354005E-001	-1.3897231472E-001	-8.2990473799E-001	-4.2447845558E-001	+1.5543431040E-001
139300000000.000	-4.4882803721E-001	+7.9104945650E-003	-1.5372509494E-001	-8.3763440540E-001	-1.4864672166E-001	-8.3137446354E-001	-4.2380065052E-001	+1.6055620417E-001
139400000000.000	-4.5244819314E-001	+1.0372610368E-002	-1.6645646409E-001	-8.4116792260E-001	-1.5974746053E-001	-8.4038119979E-001	-4.2019508617E-001	+1.6485120755E-001
139500000000.000	-4.5487082089E-001	+2.0490599368E-002	-1.7885777816E-001	-8.4488632989E-001	-1.7667261107E-001	-8.4380620657E-001	-4.2335870100E-001	+1.6655892988E-001
139600000000.000	-4.5177093391E-001	+2.4570418189E-002	-1.9644151143E-001	-8.3913397228E-001	-1.9333880067E-001	-8.4003251854E-001	-4.2095954302E-001	+1.7567712742E-001
139700000000.000	-4.5386074681E-001	+2.8442619145E-002	-2.0936184912E-001	-8.3147006465E-001	-2.0412556160E-001	-8.3140586820E-001	-4.1798031166E-001	+1.8267790354E-001
139800000000.000	-4.5150836882E-001	+3.3684221432E-002	-2.1765272331E-001	-8.2248555803E-001	-2.1435113218E-001	-8.2317426887E-001	-4.1166523197E-001	+1.8892289352E-001
139900000000.000	-4.5001908521E-001	+3.2199474182E-002	-2.2140700438E-001	-8.1660544802E-001	-2.1343308718E-001	-8.1910538937E-001	-4.0741421548E-001	+1.8896895414E-001
140000000000.000	-4.4763684828E-001	+3.7071778177E-002	-2.2656876828E-001	-8.1240628687E-001	-2.2047204556E-001	-8.1290991924E-001	-4.0478773593E-001	+1.9119974053E-001
140100000000.000	-4.5008694903E-001	+3.9227449846E-002	-2.3096929209E-001	-8.1018562027E-001	-2.2562066892E-001	-8.1137452527E-001	-4.0362744393E-001	+1.9029071825E-001
140200000000.000	-4.4975219914E-001	+4.3560752337E-002	-2.3672045570E-001	-8.0779808879E-001	-2.3006571798E-001	-8.0863782846E-001	-4.0151337020E-001	+1.8912820613E-001
140300000000.000	-4.5202128390E-001	+4.8909452241E-002	-2.4090465323E-001	-8.0642859211E-001	-2.3183181734E-001	-8.0854597755E-001	-4.0336039495E-001	+1.8935095111E-001
140400000000.000	-4.5372580358E-001	+5.5541761162E-002	-2.4841048334E-001	-8.1094012552E-001	-2.4022724998E-001	-8.1327986176E-001	-4.0504842897E-001	+1.9420652400E-001
140500000000.000	-4.5240898612E-001	+5.9203092237E-002	-2.5269886839E-001	-8.1048518800E-001	-2.4578818621E-001	-8.1335520873E-001	-4.0320422343E-001	+1.9860037324E-001
140600000000.000	-4.5053627954E-001	+6.8537407352E-002	-2.7020175876E-001	-8.1245370903E-001	-2.6541831566E-001	-8.1429032483E-001	-4.0025124430E-001	+2.0859738565E-001
140700000000.000	-4.4156036288E-001	+7.3569850913E-002	-2.7903375999E-001	-8.0332111564E-001	-2.7069110120E-001	-8.0572171269E-001	-3.9417797033E-001	+2.1178023037E-001
140800000000.000	-4.3086932271E-001	+7.5634610124E-002	-2.8681075280E-001	-7.9725559823E-001	-2.7638712624E-001	-8.0083575533E-001	-3.8916444895E-001	+2.1535429166E-001
140900000000.000	-4.2628779008E-001	+7.3501088397E-002	-2.8966895141E-001	-7.9376520838E-001	-2.7990039547E-001	-7.9715686106E-001	-3.8437254294E-001	+2.1644452839E-001
141000000000.000	-4.2815347543E-001	+7.1930507593E-002	-2.9288677759E-001	-7.9391818200E-001	-2.8502255517E-001	-7.9678035156E-001	-3.8171434874E-001	+2.1813568417E-001
141100000000.000	-4.3270323103E-001	+7.7651457885E-002	-2.9914185287E-001	-7.9647074730E-001	-2.9284600770E-001	-7.9884085470E-001	-3.7900297933E-001	+2.2169379383E-001
141200000000.000	-4.3440407459E-001	+8.2466912929E-002	-3.1030886872E-001	-7.9682818230E-001	-3.0234343724E-001	-8.0017489118E-001	-3.7717074179E-001	+2.2361618625E-001
141300000000.000	-4.3486430562E-001	+8.7682468934E-002	-3.1942720701E-001	-7.9510802080E-001	-3.1209763437E-001	-7.9816540163E-001	-3.7769400576E-001	+2.2852063241E-001
141400000000.000	-4.3364800903E-001	+8.9980279080E-002	-3.2945916613E-001	-7.9459933901E-001	-3.2169220675E-001	-7.9717125515E-001	-3.7691046302E-001	+2.3369591407E-001
141500000000.000	-4.3247899941E-001	+9.6216886977E-002	-3.4186445040E-001	-7.8878017153E-001	-3.3315833903E-001	-7.9135692181E-001	-3.7336353618E-001	+2.4295017956E-001
141600000000.000	-4.3144187384E-001	+1.0184619758E-001	-3.5022609671E-001	-7.9245610479E-001	-3.4380024099E-001	-7.9428383665E-001	-3.7227889207E-001	+2.4252879011E-001
141700000000.000	-4.2572083721E-001	+1.0522574896E-001	-3.6687407748E-001	-7.8207091067E-001	-3.5746389393E-001	-7.8464188181E-001	-3.6758854929E-001	+2.5233622938E-001
141800000000.000	-4.2582509178E-001	+1.0908735433E-001	-3.7334939632E-001	-7.7200146276E-001	-3.6566695388E-001	-7.7330721111E-001	-3.5977030532E-001	+2.5477714920E-001
141900000000.000	-4.2201309575E-001	+1.1330192405E-001	-3.7472259542E-001	-7.6360853073E-001	-3.6492882361E-001	-7.6653899354E-001	-3.5008531037E-001	+2.5610887320E-001
142000000000.000	-4.1998953409E-001	+1.1337831605E-001	-3.7785887748E-001	-7.6208278192E-001	-3.6870260536E-001	-7.6434234017E-001	-3.4374116423E-001	+2.5291281830E-001
142100000000.000	-4.1966135961E-001	+1.1662962392E-001	-3.8224339152E-001	-7.6001783391E-001	-3.7156190837E-001	-7.6383221951E-001	-3.4204437061E-001	+2.5059654398E-001
142200000000.000	-4.1579099701E-001	+1.2035405522E-001	-3.8677963135E-001	-7.6018602901E-001	-3.7706061717E-001	-7.6275577965E-001	-3.4237613644E-001	+2.4773637657E-001
142300000000.000	-4.1137628850E-001	+1.2281993731E-001	-3.9512693131E-001	-7.6058061359E-001	-3.8633079815E-001	-7.6382889608E-001	-3.4377208683E-001	+2.5021547653E-001
142400000000.000	-4.0710562993E-001	+1.2728422064E-001	-4.0320568476E-001	-7.5912040747E-001	-3.9385087148E-001	-7.6041039010E-001	-3.4385085006E-001	+2.5336046136E-001
142500000000.000	-4.0515848395E-001	+1.3415997783E-001	-4.1388792994E-001	-7.5942970535E-001	-4.0774729376E-001	-7.6164734236E-001	-3.4125915460E-001	+2.5996778878E-001
142600000000.000	-4.0036413793E-001	+1.3665158760E-001	-4.2122852527E-001	-7.5375776616E-001	-4.1139906887E-001	-7.5517992711E-001	-3.3594740930E-001	+2.6396717848E-001
142700000000.000	-3.9723257863E-001	+1.4367947530E-001	-4.3404214241E-001	-7.4984172014E-001	-4.2680393813E-001	-7.5139542064E-001	-3.2947542131E-001	+2.7243935222E-001
142800000000.000	-3.9026283489E-001	+1.4380011970E-001	-4.3625498999E-001	-7.4128713006E-001	-4.2828823239E-001	-7.4481010350E-001	-3.1862038241E-001	+2.7391348838E-001
142900000000.000	-3.8825167100E-001	+1.4049166295E-001	-4.4206339410E-001	-7.3749255765E-001	-4.3542600153E-001	-7.4085093588E-001	-3.1354915349E-001	+2.7143933070E-001
143000000000.000	-3.8873326983E-001	+1.4144081958E-001	-4.4777470319E-001	-7.3591766206E-001	-4.3995521824E-001	-7.4090050234E-001	-3.1117461382E-001	+2.7146442083E-001
143100000000.000	-3.8750916417E-001	+1.4362923414E-001	-4.5605655575E-001	-7.3528360978E-001	-4.4833712275E-001	-7.3841279096E-001	-3.0908127144E-001	+2.6897823352E-001
143200000000.000	-3.8713265775E-001	+1.4713083608E-001	-4.6448792805E-001	-7.3148901417E-001	-4.5774471020E-001	-7.3602836495E-001	-3.0964472987E-001	+2.6818304499E-001
143300000000.000	-3.8582690285E-001	+1.5084270870E-001	-4.7395655950E-001	-7.2733142301E-001	-4.6567370714E-001	-7.3125174503E-001	-3.0930714964E-001	+2.6975582923E-001
143400000000.000	-3.8362872940E-001	+1.5753057258E-001	-4.8251125336E-001	-7.2515817205E-001	-4.7681201275E-001	-7.2815892887E-001	-3.0589601817E-001	+2.7693923834E-001
143500000000.000	-3.7940716039E-001	+1.5796596474E-001	-4.9323686119E-001	-7.2041425016E-001	-4.8539402215E-001	-7.2578803009E-001	-3.0034962069E-001	+2.7942713158E-001
143600000000.000	-3.7756506770E-001	+1.5925497177E-001	-5.0521055326E-001	-7.1078827199E-001	-4.9658129838E-001	-7.1632364500E-001	-2.9418061550E-001	+2.8390391762E-001
143700000000.000	-3.7730515329E-001	+1.6201524401E-001	-5.1018954340E-001	-7.0525600728E-001	-5.0187231491E-001	-7.1227427884E-001	-2.8950786923E-001	+2.8239818794E-001
143800000000.000	-3.7003461340E-001	+1.6574337454E-001	-5.1958869321E-001	-6.9582916557E-001	-5.1037716635E-001	-7.0281289763E-001	-2.8782761483E-001	+2.8821705360E-001
143900000000.000	-3.6702947045E-001	+1.7120830509E-001	-5.2153302218E-001	-6.8850054993E-001	-5.1412157417E-001	-6.9444448879E-001	-2.7902902941E-001	+2.8988083346E-001
144000000000.000	-3.5832640629E-001	+1.7419705731E-001	-5.2258174183E-001	-6.8696823490E-001	-5.1077883818E-001	-6.9476634386E-001	-2.7072654836E-001	+2.8560742999E-001
144100000000.000	-3.5520591229E-001	+1.7547649393E-001	-5.3265525594E-001	-6.8710143269E-001	-5.1771063004E-001	-6.9659658091E-001	-2.7198896131E-001	+2.8269060945E-001
144200000000.000	-3.5080592733E-001	+1.7950913267E-001	-5.4229239846E-001	-6.8562076194E-001	-5.2846303934E-001	-6.9478202540E-001	-2.6865613289E-001	+2.8597855958E-001
144300000000.000	-3.4678636221E-001	+1.8136028071E-001	-5.5108375407E-001	-6.8213471594E-001	-5.4208876015E-001	-6.8925609787E-001	-2.6424838560E-001	+2.8782128425E-001
144400000000.000	-3.4446912328E-001	+1.8247079689E-001	-5.5942012554E-001	-6.7611097600E-001	-5.5175543794E-001	-6.8206435012E-001	-2.6108953299E-001	+2.9070559895E-001
144500000000.000	-3.4003425737E-001	+1.8549014178E-001	-5.6641526171E-001	-6.6801673177E-001	-5.6019919003E-001	-6.7374773793E-001	-2.5477505263E-001	+2.9395309790E-001
144600000000.000	-3.3468984099E-001	+1.8927253371E-001	-5.7484284069E-001	-6.6116720478E-001	-5.6652852905E-001	-6.6785715010E-001	-2.4883659049E-001	+2.9487846810E-001
144700000000.000	-3.2879423934E-001	+1.8732005276E-001	-5.7616692422E-001	-6.5133467581E-001	-5.6605909089E-001	-6.5851256742E-001	-2.4467990311E-001	+2.9126965098E-001
144800000000.000	-3.2455648337E-001	+1.8848876566E-001	-5.7918605239E-001	-6.5575282004E-001	-5.7088847601E-001	-6.6109112765E-001	-2.3993210331E-001	+2.9265337079E-001
144900000000.000	-3.2338069217E-001	+1.8843543494E-001	-5.8850951365E-001	-6.5257187341E-001	-5.8126180058E-001	-6.5628697343E-001	-2.3503573786E-001	+2.8906421452E-001
145000000000.000	-3.2357784422E-001	+1.8927198920E-001	-5.9765459217E-001	-6.4847542284E-001	-5.8951306489E-001	-6.5397892932E-001	-2.3386992152E-001	+2.8853643243E-001
145100000000.000	-3.2210055521E-001	+1.9262408886E-001	-6.0705114149E-001	-6.4557742217E-001	-5.9909164078E-001	-6.5184000025E-001	-2.3043014737E-001	+2.9008084518E-001
145200000000.000	-3.1904096074E-001	+1.9547422304E-001	-6.1829935757E-001	-6.3964409408E-001	-6.0916026652E-001	-6.4678211348E-001	-2.2825413200E-001	+2.9166044970E-001
145300000000.000	-3.1269726449E-001	+1.9703317532E-001	-6.2764382367E-001	-6.2929091681E-001	-6.1845663673E-001	-6.3807396953E-001	-2.2420308131E-001	+2.9272803756E-001
145400000000.000	-3.0660963769E-001	+1.9508010836E-001	-6.3213231492E-001	-6.1995684167E-001	-6.2358380720E-001	-6.2939376244E-001	-2.1947862747E-001	+2.9240762472E-001
145500000000.000	-3.0344324987E-001	+1.9512082047E-001	-6.3635245204E-001	-6.1514443672E-001	-6.2864203947E-001	-6.2320711722E-001	-2.1592561145E-001	+2.9297308940E-001
145600000000.000	-3.0090803213E-001	+1.9649994218E-001	-6.4519277915E-001	-6.0965846830E-001	-6.3579412748E-001	-6.1937119650E-001	-2.1162996234E-001	+2.9337141162E-001
145700000000.000	-2.9751548907E-001	+1.9876575398E-001	-6.5003830882E-001	-6.0254482085E-001	-6.4295486746E-001	-6.0960429221E-001	-2.0556371767E-001	+2.9345505415E-001
145800000000.000	-2.9571721665E-001	+2.0111606388E-001	-6.5443627067E-001	-6.0061582527E-001	-6.4850276475E-001	-6.0702192663E-001	-2.0028957598E-001	+2.9125593798E-001
145900000000.000	-2.9105721630E-001	+2.0612577462E-001	-6.6516367857E-001	-5.9355863765E-001	-6.5901142139E-001	-6.0006248604E-001	-1.9845430070E-001	+2.9439707371E-001
146000000000.000	-2.8404254075E-001	+2.0947064625E-001	-6.7204548974E-001	-5.8642953036E-001	-6.6462190007E-001	-5.9431240408E-001	-1.9194530155E-001	+2.9659200993E-001
146100000000.000	-2.7380646301E-001	+2.0859350954E-001	-6.7875855753E-001	-5.8168937310E-001	-6.6988796202E-001	-5.9229278798E-001	-1.8300652847E-001	+2.9749279444E-001
146200000000.000	-2.6982968131E-001	+2.0639915629E-001	-6.8954193728E-001	-5.7685542657E-001	-6.8314027516E-001	-5.8346050842E-001	-1.7803874632E-001	+2.9447064312E-001
146300000000.000	-2.6429732592E-001	+2.0727549009E-001	-6.9782671016E-001	-5.6791080571E-001	-6.9110193044E-001	-5.7363915193E-001	-1.7337912890E-001	+2.9194731041E-001
146400000000.000	-2.5974338062E-001	+2.0693047059E-001	-7.0324958226E-001	-5.5801530637E-001	-6.9530386788E-001	-5.6241425847E-001	-1.6808737963E-001	+2.8794639591E-001
146500000000.000	-2.5679809567E-001	+2.0732643710E-001	-7.0536872577E-001	-5.4862344474E-001	-6.9915692299E-001	-5.5335124952E-001	-1.6405496391E-001	+2.8490710334E-001
146600000000.000	-2.5419427877E-001	+2.0899938608E-001	-7.0866635160E-001	-5.4160694471E-001	-7.0058068041E-001	-5.4971737202E-001	-1.5964452914E-001	+2.8342917788E-001
