! Python used to change reference impedance from 50 to 1.
# Hz S RI R 1
135000000000.000	-3.7955606806E-001	-1.7923234649E-001	+2.0930666152E-001	-8.3451786940E-001	+2.1734216475E-001	-8.3172061850E-001	-4.1766578455E-001	-2.1137476815E-002
135100000000.000	-3.8388316515E-001	-1.7693925967E-001	+1.9948084041E-001	-8.4307169110E-001	+2.0976517962E-001	-8.3512422796E-001	-4.2070917257E-001	-1.7090336917E-002
135200000000.000	-3.8812922698E-001	-1.7113116331E-001	+1.9397202389E-001	-8.5132654586E-001	+1.9796651844E-001	-8.4245469444E-001	-4.2300808980E-001	-1.4328205376E-002
135300000000.000	-3.8709638008E-001	-1.6620769673E-001	+1.8469215825E-001	-8.4751672714E-001	+1.8609358599E-001	-8.4047801275E-001	-4.1993730355E-001	-7.3772423330E-003
135400000000.000	-3.9062230040E-001	-1.6436111233E-001	+1.7195097007E-001	-8.4653038831E-001	+1.8105383267E-001	-8.4354645229E-001	-4.2448196355E-001	-3.9033965464E-004
135500000000.000	-3.9675229985E-001	-1.5807921755E-001	+1.6450976169E-001	-8.4636479540E-001	+1.6880941511E-001	-8.4008871625E-001	-4.2734920263E-001	+5.6360944944E-003
135600000000.000	-4.0123734756E-001	-1.5352264726E-001	+1.5962863775E-001	-8.4795948310E-001	+1.6546149991E-001	-8.4151629898E-001	-4.2908617265E-001	+1.1232510681E-002
135700000000.000	-4.0287754704E-001	-1.4752183867E-001	+1.5196176556E-001	-8.4893423984E-001	+1.5557850046E-001	-8.3855469831E-001	-4.2815998032E-001	+1.7327458311E-002
135800000000.000	-4.0491203009E-001	-1.4704314031E-001	+1.4454118030E-001	-8.5144132452E-001	+1.4778348532E-001	-8.4600359982E-001	-4.2890511079E-001	+1.5945300615E-002
135900000000.000	-4.1071082945E-001	-1.4204357688E-001	+1.3340787843E-001	-8.5235794440E-001	+1.3933488405E-001	-8.4801056011E-001	-4.3478498649E-001	+1.8510333952E-002
136000000000.000	-4.1420050754E-001	-1.4082110285E-001	+1.2526152853E-001	-8.5297551296E-001	+1.2548406011E-001	-8.4455121175E-001	-4.3836695475E-001	+2.3036448966E-002
136100000000.000	-4.2224126551E-001	-1.3838507578E-001	+1.1797990744E-001	-8.5274414767E-001	+1.2344889309E-001	-8.4724863271E-001	-4.4198459861E-001	+2.7852812689E-002
136200000000.000	-4.2553862380E-001	-1.4162257091E-001	+1.1159992211E-001	-8.5462425565E-001	+1.1507474637E-001	-8.4177374047E-001	-4.4231162018E-001	+2.9883974045E-002
136300000000.000	-4.3157444497E-001	-1.3845752732E-001	+1.0328467111E-001	-8.5406296374E-001	+1.0666128547E-001	-8.4727148473E-001	-4.4427384698E-001	+3.5360048411E-002
136400000000.000	-4.2658367825E-001	-1.3419484829E-001	+9.2901404337E-002	-8.5005535115E-001	+9.8291983572E-002	-8.4571273034E-001	-4.4267896603E-001	+3.9070982889E-002
136500000000.000	-4.2539553142E-001	-1.3136619477E-001	+8.4913325263E-002	-8.4799824819E-001	+8.7934635588E-002	-8.4530194481E-001	-4.4114454249E-001	+4.2456369711E-002
136600000000.000	-4.2492792432E-001	-1.2805534033E-001	+7.6747626767E-002	-8.4604063066E-001	+8.2796894967E-002	-8.4119523642E-001	-4.3629121568E-001	+4.5073088771E-002
136700000000.000	-4.2883369260E-001	-1.2174589833E-001	+7.2516016724E-002	-8.4606937996E-001	+7.4754147549E-002	-8.4301662565E-001	-4.4091562789E-001	+4.8306976714E-002
136800000000.000	-4.2888387935E-001	-1.1662427871E-001	+6.7897481258E-002	-8.4988403217E-001	+6.8456682348E-002	-8.4546511402E-001	-4.4079448571E-001	+5.3535284923E-002
136900000000.000	-4.3008436273E-001	-1.1153378691E-001	+5.7763900718E-002	-8.5024900963E-001	+5.9193126934E-002	-8.4696589830E-001	-4.4064965896E-001	+6.2268735022E-002
137000000000.000	-4.3088432050E-001	-1.0709027942E-001	+4.7480384673E-002	-8.4917604391E-001	+5.1208645118E-002	-8.4919222691E-001	-4.3761547311E-001	+6.9120528479E-002
137100000000.000	-4.2638361915E-001	-1.0141477629E-001	+4.1894423408E-002	-8.4618580840E-001	+4.7462293122E-002	-8.4469093668E-001	-4.3467587931E-001	+7.1877822911E-002
137200000000.000	-4.2782370869E-001	-1.0118781017E-001	+3.5858131836E-002	-8.4991259628E-001	+4.2934671486E-002	-8.4987966538E-001	-4.3522578863E-001	+7.5334543698E-002
137300000000.000	-4.3472930560E-001	-9.4883392021E-002	+2.4522244079E-002	-8.5314564874E-001	+3.2541874622E-002	-8.5317231132E-001	-4.3426477325E-001	+7.7418331702E-002
137400000000.000	-4.3735845451E-001	-8.7684519315E-002	+1.1627558291E-002	-8.5446554691E-001	+2.1921232868E-002	-8.5470208669E-001	-4.3752536765E-001	+8.1521315057E-002
137500000000.000	-4.3967231498E-001	-8.5399146431E-002	+7.9592516016E-004	-8.5225530064E-001	+1.3136896547E-002	-8.5376363823E-001	-4.3709840639E-001	+8.6120788855E-002
137600000000.000	-4.4281447987E-001	-8.2319020536E-002	-8.3480794841E-003	-8.4947471545E-001	+3.2441727704E-003	-8.5045964402E-001	-4.3803246812E-001	+9.2665955167E-002
137700000000.000	-4.4421059850E-001	-7.9418066339E-002	-1.6331718205E-002	-8.4756031015E-001	-6.8871024882E-003	-8.4924569340E-001	-4.3785121282E-001	+9.7755039300E-002
137800000000.000	-4.4201488433E-001	-7.6735293640E-002	-2.1289597684E-002	-8.4599195013E-001	-1.0563834023E-002	-8.4612603610E-001	-4.3382639005E-001	+1.0204793139E-001
137900000000.000	-4.4199711918E-001	-7.3724003024E-002	-3.0479368240E-002	-8.4694927489E-001	-1.7876019514E-002	-8.4771025841E-001	-4.3386632564E-001	+1.0292645242E-001
138000000000.000	-4.4255395639E-001	-7.0274942202E-002	-3.7048517237E-002	-8.4609100781E-001	-2.7340933440E-002	-8.4723914264E-001	-4.3374081190E-001	+1.0566445581E-001
138100000000.000	-4.4440025774E-001	-6.8100295647E-002	-4.4759697545E-002	-8.4581122841E-001	-3.4748098552E-002	-8.4571663895E-001	-4.3386541583E-001	+1.0757685696E-001
138200000000.000	-4.4841873143E-001	-6.4185748012E-002	-4.9996794478E-002	-8.4575624581E-001	-4.2606379710E-002	-8.4520546142E-001	-4.3548688492E-001	+1.1078242487E-001
138300000000.000	-4.5242709266E-001	-6.1225566270E-002	-5.8183446708E-002	-8.4917639638E-001	-4.7261164205E-002	-8.4859734648E-001	-4.3766173641E-001	+1.1646023651E-001
138400000000.000	-4.5131170774E-001	-5.6039957034E-002	-6.5959208644E-002	-8.4514025943E-001	-5.9600001027E-002	-8.4483102755E-001	-4.3483003291E-001	+1.2312018753E-001
138500000000.000	-4.5188349160E-001	-5.2988110472E-002	-7.6942179263E-002	-8.4410242072E-001	-6.6810956955E-002	-8.4432023709E-001	-4.3168696929E-001	+1.2708363899E-001
138600000000.000	-4.4806089529E-001	-4.4806725074E-002	-8.3471289768E-002	-8.4043888887E-001	-7.6815010092E-002	-8.4017381359E-001	-4.2745760601E-001	+1.2885984078E-001
138700000000.000	-4.4956452542E-001	-4.5672585007E-002	-8.7122297748E-002	-8.3710387328E-001	-8.2038018401E-002	-8.3839535270E-001	-4.2730520364E-001	+1.2578055710E-001
138800000000.000	-4.4696702715E-001	-4.0188584323E-002	-9.6093801981E-002	-8.3601497564E-001	-9.0938075633E-002	-8.3361930970E-001	-4.2658672324E-001	+1.2892019074E-001
138900000000.000	-4.4872907784E-001	-3.6170611877E-002	-1.0200070788E-001	-8.3215502488E-001	-9.8769412732E-002	-8.3617709952E-001	-4.2741149452E-001	+1.3357160548E-001
139000000000.000	-4.4899276321E-001	-3.6253713469E-002	-1.0565550483E-001	-8.3078951451E-001	-9.7748994945E-002	-8.3262586888E-001	-4.2729727815E-001	+1.3869361775E-001
139100000000.000	-4.5112323949E-001	-3.3201881907E-002	-1.1243097420E-001	-8.3201897574E-001	-1.0697389596E-001	-8.3349096157E-001	-4.2793495972E-001	+1.4564572907E-001
139200000000.000	-4.5209263791E-001	-3.2309637210E-002	-1.1999691939E-001	-8.3573648444E-001	-1.0773178783E-001	-8.3479803002E-001	-4.2568185687E-001	+1.5132431789E-001
139300000000.000	-4.5129817835E-001	-2.4064379320E-002	-1.2469540243E-001	-8.4115515625E-001	-1.1784133166E-001	-8.3609261289E-001	-4.2572788570E-001	+1.5666409361E-001
139400000000.000	-4.5272452843E-001	-2.1393003705E-002	-1.3731886561E-001	-8.4641046307E-001	-1.2756875214E-001	-8.4544766941E-001	-4.2157310504E-001	+1.6117207306E-001
139500000000.000	-4.5521192537E-001	-1.1027063017E-002	-1.4993061189E-001	-8.5113353859E-001	-1.4452489637E-001	-8.4991564074E-001	-4.2468499431E-001	+1.6270760306E-001
139600000000.000	-4.5244992645E-001	-5.9934315835E-003	-1.6700544212E-001	-8.4606563870E-001	-1.6068985324E-001	-8.4702843500E-001	-4.2228334564E-001	+1.7192449544E-001
139700000000.000	-4.5491726199E-001	-1.8135451793E-003	-1.8012213579E-001	-8.3893643660E-001	-1.7227309458E-001	-8.3896020959E-001	-4.1924981708E-001	+1.7896975491E-001
139800000000.000	-4.5345178294E-001	+3.5427899109E-003	-1.8943534261E-001	-8.3004982702E-001	-1.8290319911E-001	-8.3124409803E-001	-4.1341214204E-001	+1.8510858300E-001
139900000000.000	-4.5221512468E-001	+2.9302268906E-003	-1.9344634626E-001	-8.2336194218E-001	-1.8189378556E-001	-8.2636514334E-001	-4.0859904086E-001	+1.8556601408E-001
140000000000.000	-4.5032877528E-001	+6.8272826699E-003	-1.9874841693E-001	-8.1973097703E-001	-1.8994389180E-001	-8.2055696205E-001	-4.0639333056E-001	+1.8730881388E-001
140100000000.000	-4.5207868488E-001	+8.7303102537E-003	-2.0340169600E-001	-8.1754334522E-001	-1.9511255367E-001	-8.1922440779E-001	-4.0544745146E-001	+1.8635141403E-001
140200000000.000	-4.5184765460E-001	+1.3075427942E-002	-2.0929790622E-001	-8.1511196146E-001	-2.0003573810E-001	-8.1633560045E-001	-4.0334194660E-001	+1.8537827520E-001
140300000000.000	-4.5460195265E-001	+1.8375594999E-002	-2.1280950878E-001	-8.1373493692E-001	-2.0166768277E-001	-8.1599648656E-001	-4.0497830518E-001	+1.8553861559E-001
140400000000.000	-4.5695287643E-001	+2.4880855915E-002	-2.1932442876E-001	-8.1852676681E-001	-2.0875149863E-001	-8.2111101092E-001	-4.0683774764E-001	+1.8995480865E-001
140500000000.000	-4.5610062808E-001	+2.8563464597E-002	-2.2332196932E-001	-8.1838045073E-001	-2.1546240464E-001	-8.2117644154E-001	-4.0545931252E-001	+1.9418764563E-001
140600000000.000	-4.5494397254E-001	+3.7973577189E-002	-2.4031358244E-001	-8.2127197659E-001	-2.3399306009E-001	-8.2336674440E-001	-4.0314342794E-001	+2.0451137568E-001
140700000000.000	-4.4563064790E-001	+4.3019822440E-002	-2.4989832114E-001	-8.1245380097E-001	-2.4023320446E-001	-8.1490430379E-001	-3.9709334578E-001	+2.0793579220E-001
140800000000.000	-4.3644197489E-001	+4.6278971768E-002	-2.5788307093E-001	-8.0651127624E-001	-2.4658252880E-001	-8.0995539453E-001	-3.9250254560E-001	+2.1180920251E-001
140900000000.000	-4.3072250303E-001	+4.4547234089E-002	-2.6080328169E-001	-8.0273628950E-001	-2.4939454676E-001	-8.0635536533E-001	-3.8749083479E-001	+2.1323411097E-001
141000000000.000	-4.3239465531E-001	+4.2483442798E-002	-2.6323145730E-001	-8.0299104894E-001	-2.5430759173E-001	-8.0591898371E-001	-3.8477422287E-001	+2.1503456021E-001
141100000000.000	-4.3768982025E-001	+4.7847471872E-002	-2.6962074557E-001	-8.0567068456E-001	-2.6170723586E-001	-8.0839573304E-001	-3.8209675393E-001	+2.1884245672E-001
141200000000.000	-4.4003034584E-001	+5.2757200148E-002	-2.8077744632E-001	-8.0699074764E-001	-2.7078996703E-001	-8.1065687041E-001	-3.7984870315E-001	+2.2123044725E-001
141300000000.000	-4.4068330172E-001	+5.7620152982E-002	-2.9012934635E-001	-8.0535274394E-001	-2.8083846853E-001	-8.0877052711E-001	-3.7994690248E-001	+2.2531862307E-001
141400000000.000	-4.4013375895E-001	+5.9872326999E-002	-2.9966127206E-001	-8.0567381816E-001	-2.9015031199E-001	-8.0856500962E-001	-3.7963362255E-001	+2.3034574733E-001
141500000000.000	-4.4036689743E-001	+6.5930765607E-002	-3.1277691586E-001	-8.0095377341E-001	-3.0243968626E-001	-8.0392370385E-001	-3.7688913943E-001	+2.3915440221E-001
141600000000.000	-4.3885388478E-001	+7.3128120343E-002	-3.2113778144E-001	-8.0358517836E-001	-3.1219510533E-001	-8.0627175493E-001	-3.7564223619E-001	+2.3974357149E-001
141700000000.000	-4.3321725361E-001	+7.6197764035E-002	-3.3810053776E-001	-7.9444608480E-001	-3.2663144736E-001	-7.9746235694E-001	-3.7102909693E-001	+2.4914854665E-001
141800000000.000	-4.3390778878E-001	+7.9760930194E-002	-3.4594313381E-001	-7.8451187746E-001	-3.3524850851E-001	-7.8671810283E-001	-3.6353834143E-001	+2.5152039925E-001
141900000000.000	-4.3131584062E-001	+8.4986071191E-002	-3.4831803623E-001	-7.7529526823E-001	-3.3494826852E-001	-7.7923402678E-001	-3.5417730285E-001	+2.5361384217E-001
142000000000.000	-4.2881444193E-001	+8.4904646362E-002	-3.5101580926E-001	-7.7428302407E-001	-3.3911808382E-001	-7.7704548150E-001	-3.4764470821E-001	+2.5042795716E-001
142100000000.000	-4.2883344829E-001	+8.8266916237E-002	-3.5496719098E-001	-7.7246076815E-001	-3.4137398195E-001	-7.7673918328E-001	-3.4572713851E-001	+2.4821224233E-001
142200000000.000	-4.2529580316E-001	+9.2081105161E-002	-3.5869452962E-001	-7.7281752231E-001	-3.4689335804E-001	-7.7570362125E-001	-3.4588924267E-001	+2.4517082771E-001
142300000000.000	-4.2116933438E-001	+9.4850522316E-002	-3.6721273075E-001	-7.7307690080E-001	-3.5562383841E-001	-7.7728337341E-001	-3.4739913616E-001	+2.4729836427E-001
142400000000.000	-4.1744976438E-001	+9.9481078139E-002	-3.7513613970E-001	-7.7187118792E-001	-3.6294620658E-001	-7.7446134812E-001	-3.4806182443E-001	+2.5039148621E-001
142500000000.000	-4.1590894494E-001	+1.0661834465E-001	-3.8683982818E-001	-7.7232882031E-001	-3.7640688834E-001	-7.7664679850E-001	-3.4568939214E-001	+2.5744014915E-001
142600000000.000	-4.1111586066E-001	+1.0900443499E-001	-3.9394807322E-001	-7.6679032247E-001	-3.8023960801E-001	-7.7041438869E-001	-3.4066026123E-001	+2.6138978275E-001
142700000000.000	-4.0866116807E-001	+1.1674492987E-001	-4.0783733830E-001	-7.6325136903E-001	-3.9619189164E-001	-7.6750059648E-001	-3.3435492139E-001	+2.7028618861E-001
142800000000.000	-4.0188368796E-001	+1.1749909236E-001	-4.1019943389E-001	-7.5423696695E-001	-3.9910231279E-001	-7.5968677994E-001	-3.2397454008E-001	+2.7250104358E-001
142900000000.000	-3.9889591009E-001	+1.1456510610E-001	-4.1512286970E-001	-7.5041723887E-001	-4.0465731634E-001	-7.5601959751E-001	-3.1803361580E-001	+2.7054576193E-001
143000000000.000	-3.9941364922E-001	+1.1472543736E-001	-4.1919221561E-001	-7.5008625883E-001	-4.0992021755E-001	-7.5592355369E-001	-3.1551162791E-001	+2.7026805168E-001
143100000000.000	-3.9898320004E-001	+1.1671113589E-001	-4.2729011300E-001	-7.4986540346E-001	-4.1791622082E-001	-7.5405762649E-001	-3.1356982221E-001	+2.6789896004E-001
143200000000.000	-3.9850029629E-001	+1.2049138559E-001	-4.3696972800E-001	-7.4642224493E-001	-4.2787589817E-001	-7.5237418278E-001	-3.1343008192E-001	+2.6713095168E-001
143300000000.000	-3.9758369417E-001	+1.2416315779E-001	-4.4698579446E-001	-7.4229623419E-001	-4.3572699039E-001	-7.4811792431E-001	-3.1274640242E-001	+2.6804533363E-001
143400000000.000	-3.9641279872E-001	+1.3092030479E-001	-4.5517430232E-001	-7.4027980036E-001	-4.4626944583E-001	-7.4540785701E-001	-3.1062241277E-001	+2.7495055307E-001
143500000000.000	-3.9238403558E-001	+1.3201099556E-001	-4.6594374751E-001	-7.3679047082E-001	-4.5512685749E-001	-7.4368147000E-001	-3.0516047580E-001	+2.7800868504E-001
143600000000.000	-3.9060582740E-001	+1.3363269553E-001	-4.7868971400E-001	-7.2776616270E-001	-4.6639382238E-001	-7.3504860995E-001	-2.9886429688E-001	+2.8266935019E-001
143700000000.000	-3.9068561307E-001	+1.3615894291E-001	-4.8430248224E-001	-7.2240835722E-001	-4.7235449846E-001	-7.3105008548E-001	-2.9416655533E-001	+2.8103159449E-001
143800000000.000	-3.8436514480E-001	+1.4081807277E-001	-4.9465532447E-001	-7.1325376954E-001	-4.8115596073E-001	-7.2228157558E-001	-2.9316892424E-001	+2.8676487897E-001
143900000000.000	-3.8163550361E-001	+1.4582971214E-001	-4.9609813208E-001	-7.0630907516E-001	-4.8500937448E-001	-7.1417613894E-001	-2.8428162114E-001	+2.8866290245E-001
144000000000.000	-3.7378996392E-001	+1.5044509610E-001	-4.9683952057E-001	-7.0378654346E-001	-4.8185365124E-001	-7.1308366020E-001	-2.7577846212E-001	+2.8543976738E-001
144100000000.000	-3.6996730209E-001	+1.5186779957E-001	-5.0598296227E-001	-7.0495611081E-001	-4.8815109491E-001	-7.1567727255E-001	-2.7674158044E-001	+2.8165772601E-001
144200000000.000	-3.6560486977E-001	+1.5607445694E-001	-5.1584465710E-001	-7.0374494731E-001	-4.9848489282E-001	-7.1487869039E-001	-2.7395399093E-001	+2.8508348005E-001
144300000000.000	-3.6183006758E-001	+1.5806371439E-001	-5.2443361421E-001	-7.0099138315E-001	-5.1166591750E-001	-7.1050794249E-001	-2.6967140632E-001	+2.8707524554E-001
144400000000.000	-3.5969298439E-001	+1.5939640798E-001	-5.3334699065E-001	-6.9522903473E-001	-5.2129182670E-001	-7.0401201922E-001	-2.6671110395E-001	+2.9017548159E-001
144500000000.000	-3.5557821515E-001	+1.6272737524E-001	-5.3975458314E-001	-6.8816869662E-001	-5.3048523877E-001	-6.9589211598E-001	-2.6060491247E-001	+2.9363650527E-001
144600000000.000	-3.5067699882E-001	+1.6688484119E-001	-5.4863902126E-001	-6.8158967260E-001	-5.3769134989E-001	-6.9019042313E-001	-2.5480957886E-001	+2.9481276418E-001
144700000000.000	-3.4452212396E-001	+1.6550114149E-001	-5.5073196883E-001	-6.7236210575E-001	-5.3920585216E-001	-6.8062580886E-001	-2.5046120676E-001	+2.9154462479E-001
144800000000.000	-3.4025154050E-001	+1.6808396702E-001	-5.5349586736E-001	-6.7424992005E-001	-5.4243372400E-001	-6.8179448209E-001	-2.4593637754E-001	+2.9404391263E-001
144900000000.000	-3.3865068563E-001	+1.6699342877E-001	-5.6227941389E-001	-6.7223906075E-001	-5.5141297127E-001	-6.7877269228E-001	-2.3996759129E-001	+2.9011238429E-001
145000000000.000	-3.3942282084E-001	+1.6771414759E-001	-5.7184007800E-001	-6.6890119004E-001	-5.5977139235E-001	-6.7720795318E-001	-2.3889258301E-001	+2.8919739183E-001
145100000000.000	-3.3843525725E-001	+1.7123851695E-001	-5.8155650290E-001	-6.6642780830E-001	-5.6951561351E-001	-6.7544927552E-001	-2.3561492397E-001	+2.9077899006E-001
145200000000.000	-3.3585486643E-001	+1.7438693288E-001	-5.9274405799E-001	-6.6153535489E-001	-5.7984388843E-001	-6.7092505771E-001	-2.3350014470E-001	+2.9245577900E-001
145300000000.000	-3.2984491649E-001	+1.7653008908E-001	-6.0202987294E-001	-6.5240276787E-001	-5.8978996783E-001	-6.6260826063E-001	-2.2946162751E-001	+2.9355540289E-001
145400000000.000	-3.2363151449E-001	+1.7518262686E-001	-6.0696031929E-001	-6.4355828408E-001	-5.9553436563E-001	-6.5409317971E-001	-2.2488915615E-001	+2.9320215832E-001
145500000000.000	-3.2036423080E-001	+1.7497489226E-001	-6.1219904413E-001	-6.3742329089E-001	-6.0119656739E-001	-6.4735520906E-001	-2.2163506547E-001	+2.9370394037E-001
145600000000.000	-3.1816076688E-001	+1.7656985908E-001	-6.2102450312E-001	-6.3228151391E-001	-6.0822513964E-001	-6.4428165621E-001	-2.1718379092E-001	+2.9434218741E-001
145700000000.000	-3.1503967901E-001	+1.7912537430E-001	-6.2560270281E-001	-6.2569333709E-001	-6.1556496432E-001	-6.3504325543E-001	-2.1111332989E-001	+2.9452797071E-001
145800000000.000	-3.1367151806E-001	+1.8149245912E-001	-6.2980278628E-001	-6.2406572701E-001	-6.2103709975E-001	-6.3288780948E-001	-2.0588153865E-001	+2.9244650759E-001
145900000000.000	-3.0958991279E-001	+1.8693485436E-001	-6.4018317181E-001	-6.1812230870E-001	-6.3104951228E-001	-6.2734050262E-001	-2.0420028188E-001	+2.9564755093E-001
146000000000.000	-3.0331699251E-001	+1.9077041711E-001	-6.4726194454E-001	-6.1149105014E-001	-6.3753712177E-001	-6.2133473388E-001	-1.9782731056E-001	+2.9788781920E-001
146100000000.000	-2.9326892209E-001	+1.9166152425E-001	-6.5429949777E-001	-6.0625123938E-001	-6.4304115699E-001	-6.1903253173E-001	-1.8957034783E-001	+2.9963619576E-001
146200000000.000	-2.8810604339E-001	+1.8893097008E-001	-6.6392021593E-001	-6.0269363884E-001	-6.5595537591E-001	-6.1118196224E-001	-1.8381668775E-001	+2.9678694712E-001
146300000000.000	-2.8243693098E-001	+1.9029900727E-001	-6.7299635177E-001	-5.9321951186E-001	-6.6470503834E-001	-6.0157286131E-001	-1.7905341004E-001	+2.9433003370E-001
146400000000.000	-2.7773929872E-001	+1.9056995937E-001	-6.7843351213E-001	-5.8379863287E-001	-6.6969622104E-001	-5.9026357357E-001	-1.7356414483E-001	+2.9041328750E-001
146500000000.000	-2.7490870784E-001	+1.9119995985E-001	-6.8137513819E-001	-5.7402440365E-001	-6.7381329807E-001	-5.8146502095E-001	-1.6946703370E-001	+2.8717914044E-001
146600000000.000	-2.7280379100E-001	+1.9274324817E-001	-6.8427589268E-001	-5.6797549867E-001	-6.7503059802E-001	-5.7837807271E-001	-1.6559264723E-001	+2.8562217514E-001
